Freq.	V(outint)
1.00000000000000e+001	(1.99985361589155e+001dB,-9.72378177748249e-001°)
1.02329299228075e+001	(1.99984772190955e+001dB,-9.95023273872365e-001°)
1.04712854805090e+001	(1.99984155023847e+001dB,-1.01819552019881e+000°)
1.07151930523761e+001	(1.99983508779949e+001dB,-1.04190717262473e+000°)
1.09647819614319e+001	(1.99982832089820e+001dB,-1.06617077087941e+000°)
1.12201845430196e+001	(1.99982123519570e+001dB,-1.09099914501817e+000°)
1.14815362149688e+001	(1.99981381567823e+001dB,-1.11640542205904e+000°)
1.17489755493953e+001	(1.99980604662552e+001dB,-1.14240303276513e+000°)
1.20226443461741e+001	(1.99979791157760e+001dB,-1.16900571857528e+000°)
1.23026877081238e+001	(1.99978939330001e+001dB,-1.19622753868591e+000°)
1.25892541179417e+001	(1.99978047374743e+001dB,-1.22408287728678e+000°)
1.28824955169313e+001	(1.99977113402562e+001dB,-1.25258645095340e+000°)
1.31825673855641e+001	(1.99976135435156e+001dB,-1.28175331619904e+000°)
1.34896288259165e+001	(1.99975111401170e+001dB,-1.31159887718907e+000°)
1.38038426460288e+001	(1.99974039131827e+001dB,-1.34213889362038e+000°)
1.41253754462275e+001	(1.99972916356362e+001dB,-1.37338948876891e+000°)
1.44543977074593e+001	(1.99971740697230e+001dB,-1.40536715770780e+000°)
1.47910838816821e+001	(1.99970509665100e+001dB,-1.43808877569922e+000°)
1.51356124843621e+001	(1.99969220653611e+001dB,-1.47157160676245e+000°)
1.54881661891248e+001	(1.99967870933888e+001dB,-1.50583331242114e+000°)
1.58489319246111e+001	(1.99966457648791e+001dB,-1.54089196063230e+000°)
1.62181009735893e+001	(1.99964977806911e+001dB,-1.57676603489980e+000°)
1.65958690743756e+001	(1.99963428276276e+001dB,-1.61347444357493e+000°)
1.69824365246174e+001	(1.99961805777766e+001dB,-1.65103652934673e+000°)
1.73780082874937e+001	(1.99960106878222e+001dB,-1.68947207892444e+000°)
1.77827941003892e+001	(1.99958327983237e+001dB,-1.72880133291450e+000°)
1.81970085860998e+001	(1.99956465329608e+001dB,-1.76904499589469e+000°)
1.86208713666287e+001	(1.99954514977437e+001dB,-1.81022424668722e+000°)
1.90546071796325e+001	(1.99952472801873e+001dB,-1.85236074883336e+000°)
1.94984459975804e+001	(1.99950334484458e+001dB,-1.89547666127125e+000°)
1.99526231496888e+001	(1.99948095504086e+001dB,-1.93959464921893e+000°)
2.04173794466953e+001	(1.99945751127531e+001dB,-1.98473789526431e+000°)
2.08929613085404e+001	(1.99943296399545e+001dB,-2.03093011066341e+000°)
2.13796208950223e+001	(1.99940726132493e+001dB,-2.07819554684848e+000°)
2.18776162394955e+001	(1.99938034895514e+001dB,-2.12655900714681e+000°)
2.23872113856834e+001	(1.99935217003178e+001dB,-2.17604585871142e+000°)
2.29086765276777e+001	(1.99932266503620e+001dB,-2.22668204466390e+000°)
2.34422881531992e+001	(1.99929177166131e+001dB,-2.27849409645004e+000°)
2.39883291901949e+001	(1.99925942468171e+001dB,-2.33150914640803e+000°)
2.45470891568503e+001	(1.99922555581799e+001dB,-2.38575494054902e+000°)
2.51188643150958e+001	(1.99919009359462e+001dB,-2.44125985154926e+000°)
2.57039578276886e+001	(1.99915296319147e+001dB,-2.49805289195279e+000°)
2.63026799189538e+001	(1.99911408628846e+001dB,-2.55616372758296e+000°)
2.69153480392691e+001	(1.99907338090317e+001dB,-2.61562269116092e+000°)
2.75422870333816e+001	(1.99903076122093e+001dB,-2.67646079612828e+000°)
2.81838293126445e+001	(1.99898613741732e+001dB,-2.73870975067108e+000°)
2.88403150312660e+001	(1.99893941547245e+001dB,-2.80240197194099e+000°)
2.95120922666638e+001	(1.99889049697687e+001dB,-2.86757060046950e+000°)
3.01995172040201e+001	(1.99883927892871e+001dB,-2.93424951476992e+000°)
3.09029543251359e+001	(1.99878565352158e+001dB,-3.00247334612120e+000°)
3.16227766016838e+001	(1.99872950792292e+001dB,-3.07227749352679e+000°)
3.23593656929628e+001	(1.99867072404238e+001dB,-3.14369813884088e+000°)
3.31131121482591e+001	(1.99860917828970e+001dB,-3.21677226205328e+000°)
3.38844156139202e+001	(1.99854474132188e+001dB,-3.29153765672329e+000°)
3.46736850452531e+001	(1.99847727777885e+001dB,-3.36803294555166e+000°)
3.54813389233575e+001	(1.99840664600751e+001dB,-3.44629759607845e+000°)
3.63078054770101e+001	(1.99833269777334e+001dB,-3.52637193649354e+000°)
3.71535229097172e+001	(1.99825527795931e+001dB,-3.60829717154489e+000°)
3.80189396320561e+001	(1.99817422425142e+001dB,-3.69211539852822e+000°)
3.89045144994280e+001	(1.99808936681034e+001dB,-3.77786962334015e+000°)
3.98107170553497e+001	(1.99800052792863e+001dB,-3.86560377657520e+000°)
4.07380277804112e+001	(1.99790752167298e+001dB,-3.95536272964497e+000°)
4.16869383470335e+001	(1.99781015351072e+001dB,-4.04719231089603e+000°)
4.26579518801592e+001	(1.99770821992019e+001dB,-4.14113932170087e+000°)
4.36515832240165e+001	(1.99760150798414e+001dB,-4.23725155249387e+000°)
4.46683592150962e+001	(1.99748979496562e+001dB,-4.33557779872208e+000°)
4.57088189614874e+001	(1.99737284786570e+001dB,-4.43616787667756e+000°)
4.67735141287197e+001	(1.99725042296219e+001dB,-4.53907263917588e+000°)
4.78630092322638e+001	(1.99712226532878e+001dB,-4.64434399104180e+000°)
4.89778819368445e+001	(1.99698810833389e+001dB,-4.75203490436040e+000°)
5.01187233627271e+001	(1.99684767311831e+001dB,-4.86219943344862e+000°)
5.12861383991364e+001	(1.99670066805111e+001dB,-4.97489272949823e+000°)
5.24807460249772e+001	(1.99654678816285e+001dB,-5.09017105483797e+000°)
5.37031796370252e+001	(1.99638571455543e+001dB,-5.20809179675816e+000°)
5.49540873857624e+001	(1.99621711378770e+001dB,-5.32871348083712e+000°)
5.62341325190348e+001	(1.99604063723610e+001dB,-5.45209578370418e+000°)
5.75439937337156e+001	(1.99585592042944e+001dB,-5.57829954516903e+000°)
5.88843655355588e+001	(1.99566258235708e+001dB,-5.70738677964254e+000°)
6.02559586074357e+001	(1.99546022474958e+001dB,-5.83942068676855e+000°)
6.16595001861481e+001	(1.99524843133112e+001dB,-5.97446566118043e+000°)
6.30957344480192e+001	(1.99502676704278e+001dB,-6.11258730129073e+000°)
6.45654229034654e+001	(1.99479477723589e+001dB,-6.25385241701520e+000°)
6.60693448007595e+001	(1.99455198683467e+001dB,-6.39832903632681e+000°)
6.76082975391980e+001	(1.99429789946737e+001dB,-6.54608641052767e+000°)
6.91830970918935e+001	(1.99403199656507e+001dB,-6.69719501812002e+000°)
7.07945784384136e+001	(1.99375373642752e+001dB,-6.85172656714944e+000°)
7.24435960074988e+001	(1.99346255325525e+001dB,-7.00975399588606e+000°)
7.41310241300916e+001	(1.99315785614725e+001dB,-7.17135147170048e+000°)
7.58577575029182e+001	(1.99283902806364e+001dB,-7.33659438798309e+000°)
7.76247116628690e+001	(1.99250542475281e+001dB,-7.50555935894619e+000°)
7.94328234724279e+001	(1.99215637364243e+001dB,-7.67832421213886e+000°)
8.12830516164097e+001	(1.99179117269398e+001dB,-7.85496797849510e+000°)
8.31763771102669e+001	(1.99140908922044e+001dB,-8.03557087972557e+000°)
8.51138038202374e+001	(1.99100935866689e+001dB,-8.22021431285285e+000°)
8.70963589956078e+001	(1.99059118335393e+001dB,-8.40898083167974e+000°)
8.91250938133743e+001	(1.99015373118387e+001dB,-8.60195412496925e+000°)
9.12010839355907e+001	(1.98969613430983e+001dB,-8.79921899110347e+000°)
9.33254300796988e+001	(1.98921748776813e+001dB,-9.00086130897768e+000°)
9.54992586021433e+001	(1.98871684807428e+001dB,-9.20696800487457e+000°)
9.77237220955808e+001	(1.98819323178341e+001dB,-9.41762701505159e+000°)
9.99999999999997e+001	(1.98764561401584e+001dB,-9.63292724376340e+000°)
1.02329299228075e+002	(1.98707292694910e+001dB,-9.85295851642977e+000°)
1.04712854805090e+002	(1.98647405827758e+001dB,-1.00778115276479e+001°)
1.07151930523760e+002	(1.98584784964158e+001dB,-1.03075777837373e+001°)
1.09647819614318e+002	(1.98519309502763e+001dB,-1.05423495394947e+001°)
1.12201845430196e+002	(1.98450853914252e+001dB,-1.07822197288259e+001°)
1.14815362149688e+002	(1.98379287576356e+001dB,-1.10272818889128e+001°)
1.17489755493953e+002	(1.98304474606810e+001dB,-1.12776300775645e+001°)
1.20226443461741e+002	(1.98226273694601e+001dB,-1.15333587833933e+001°)
1.23026877081238e+002	(1.98144537929871e+001dB,-1.17945628284509e+001°)
1.25892541179416e+002	(1.98059114632949e+001dB,-1.20613372629550e+001°)
1.28824955169313e+002	(1.97969845182984e+001dB,-1.23337772517305e+001°)
1.31825673855640e+002	(1.97876564846740e+001dB,-1.26119779519926e+001°)
1.34896288259165e+002	(1.97779102608153e+001dB,-1.28960343820943e+001°)
1.38038426460288e+002	(1.97677280999331e+001dB,-1.31860412808680e+001°)
1.41253754462275e+002	(1.97570915933720e+001dB,-1.34820929571954e+001°)
1.44543977074592e+002	(1.97459816542254e+001dB,-1.37842831294472e+001°)
1.47910838816820e+002	(1.97343785013359e+001dB,-1.40927047544497e+001°)
1.51356124843620e+002	(1.97222616437760e+001dB,-1.44074498456498e+001°)
1.54881661891248e+002	(1.97096098659132e+001dB,-1.47286092801701e+001°)
1.58489319246111e+002	(1.96964012131696e+001dB,-1.50562725944736e+001°)
1.62181009735892e+002	(1.96826129785950e+001dB,-1.53905277683853e+001°)
1.65958690743755e+002	(1.96682216903821e+001dB,-1.57314609972563e+001°)
1.69824365246174e+002	(1.96532031004586e+001dB,-1.60791564520965e+001°)
1.73780082874937e+002	(1.96375321743011e+001dB,-1.64336960275518e+001°)
1.77827941003892e+002	(1.96211830821237e+001dB,-1.67951590776561e+001°)
1.81970085860998e+002	(1.96041291916021e+001dB,-1.71636221393516e+001°)
1.86208713666286e+002	(1.95863430623019e+001dB,-1.75391586438414e+001°)
1.90546071796324e+002	(1.95677964419884e+001dB,-1.79218386159158e+001°)
1.94984459975804e+002	(1.95484602650008e+001dB,-1.83117283614813e+001°)
1.99526231496887e+002	(1.95283046528816e+001dB,-1.87088901436152e+001°)
2.04173794466952e+002	(1.95072989174561e+001dB,-1.91133818475725e+001°)
2.08929613085403e+002	(1.94854115665636e+001dB,-1.95252566352844e+001°)
2.13796208950222e+002	(1.94626103126435e+001dB,-1.99445625900087e+001°)
2.18776162394954e+002	(1.94388620843823e+001dB,-2.03713423519193e+001°)
2.23872113856833e+002	(1.94141330416296e+001dB,-2.08056327455622e+001°)
2.29086765276776e+002	(1.93883885937881e+001dB,-2.12474644002480e+001°)
2.34422881531991e+002	(1.93615934218794e+001dB,-2.16968613646024e+001°)
2.39883291901948e+002	(1.93337115044861e+001dB,-2.21538407166552e+001°)
2.45470891568502e+002	(1.93047061477570e+001dB,-2.26184121710079e+001°)
2.51188643150957e+002	(1.92745400196576e+001dB,-2.30905776847889e+001°)
2.57039578276885e+002	(1.92431751886318e+001dB,-2.35703310642704e+001°)
2.63026799189537e+002	(1.92105731668260e+001dB,-2.40576575741911e+001°)
2.69153480392690e+002	(1.91766949580081e+001dB,-2.45525335519927e+001°)
2.75422870333816e+002	(1.91415011102904e+001dB,-2.50549260293434e+001°)
2.81838293126444e+002	(1.91049517737410e+001dB,-2.55647923634724e+001°)
2.88403150312659e+002	(1.90670067629385e+001dB,-2.60820798809900e+001°)
2.95120922666637e+002	(1.90276256244927e+001dB,-2.66067255369982e+001°)
3.01995172040200e+002	(1.89867677095175e+001dB,-2.71386555924142e+001°)
3.09029543251358e+002	(1.89443922510040e+001dB,-2.76777853125333e+001°)
3.16227766016837e+002	(1.89004584459984e+001dB,-2.82240186899272e+001°)
3.23593656929627e+002	(1.88549255424450e+001dB,-2.87772481948338e+001°)
3.31131121482590e+002	(1.88077529305071e+001dB,-2.93373545562114e+001°)
3.38844156139201e+002	(1.87589002381276e+001dB,-2.99042065766252e+001°)
3.46736850452530e+002	(1.87083274305399e+001dB,-3.04776609840902e+001°)
3.54813389233574e+002	(1.86559949133898e+001dB,-3.10575623239123e+001°)
3.63078054770100e+002	(1.86018636390703e+001dB,-3.16437428934511e+001°)
3.71535229097171e+002	(1.85458952158252e+001dB,-3.22360227225636e+001°)
3.80189396320559e+002	(1.84880520191197e+001dB,-3.28342096022864e+001°)
3.89045144994279e+002	(1.84282973047308e+001dB,-3.34380991640612e+001°)
3.98107170553495e+002	(1.83665953229594e+001dB,-3.40474750115223e+001°)
4.07380277804111e+002	(1.83029114333256e+001dB,-3.46621089065260e+001°)
4.16869383470333e+002	(1.82372122190672e+001dB,-3.52817610107324e+001°)
4.26579518801591e+002	(1.81694656007298e+001dB,-3.59061801836326e+001°)
4.36515832240164e+002	(1.80996409481074e+001dB,-3.65351043374741e+001°)
4.46683592150961e+002	(1.80277091897744e+001dB,-3.71682608490550e+001°)
4.57088189614873e+002	(1.79536429194366e+001dB,-3.78053670278625e+001°)
4.67735141287196e+002	(1.78774164983239e+001dB,-3.84461306395088e+001°)
4.78630092322636e+002	(1.77990061528545e+001dB,-3.90902504828892e+001°)
4.89778819368444e+002	(1.77183900668136e+001dB,-3.97374170189543e+001°)
5.01187233627270e+002	(1.76355484673131e+001dB,-4.03873130484558e+001°)
5.12861383991362e+002	(1.75504637038343e+001dB,-4.10396144355138e+001°)
5.24807460249770e+002	(1.74631203196965e+001dB,-4.16939908733489e+001°)
5.37031796370250e+002	(1.73735051153477e+001dB,-4.23501066880671e+001°)
5.49540873857622e+002	(1.72816072029348e+001dB,-4.30076216759436e+001°)
5.62341325190346e+002	(1.71874180516775e+001dB,-4.36661919692784e+001°)
5.75439937337154e+002	(1.70909315236485e+001dB,-4.43254709255565e+001°)
5.88843655355586e+002	(1.69921438996404e+001dB,-4.49851100343754e+001°)
6.02559586074355e+002	(1.68910538948910e+001dB,-4.56447598363910e+001°)
6.16595001861479e+002	(1.67876626645243e+001dB,-4.63040708483877e+001°)
6.30957344480190e+002	(1.66819737986579e+001dB,-4.69626944885091e+001°)
6.45654229034652e+002	(1.65739933072225e+001dB,-4.76202839956792e+001°)
6.60693448007592e+002	(1.64637295946283e+001dB,-4.82764953373173e+001°)
6.76082975391978e+002	(1.63511934245050e+001dB,-4.89309880995863e+001°)
6.91830970918933e+002	(1.62363978748281e+001dB,-4.95834263546260e+001°)
7.07945784384134e+002	(1.61193582838266e+001dB,-5.02334794994876e+001°)
7.24435960074986e+002	(1.60000921871424e+001dB,-5.08808230618214e+001°)
7.41310241300914e+002	(1.58786192467820e+001dB,-5.15251394677461e+001°)
7.58577575029180e+002	(1.57549611724602e+001dB,-5.21661187677595e+001°)
7.76247116628688e+002	(1.56291416359905e+001dB,-5.28034593170113e+001°)
7.94328234724277e+002	(1.55011861794193e+001dB,-5.34368684067583e+001°)
8.12830516164095e+002	(1.53711221176343e+001dB,-5.40660628443323e+001°)
8.31763771102666e+002	(1.52389784362036e+001dB,-5.46907694794865e+001°)
8.51138038202372e+002	(1.51047856852155e+001dB,-5.53107256755142e+001°)
8.70963589956076e+002	(1.49685758698966e+001dB,-5.59256797240679e+001°)
8.91250938133741e+002	(1.48303823387795e+001dB,-5.65353912031248e+001°)
9.12010839355905e+002	(1.46902396701817e+001dB,-5.71396312780442e+001°)
9.33254300796986e+002	(1.45481835577372e+001dB,-5.77381829461452e+001°)
9.54992586021431e+002	(1.44042506956945e+001dB,-5.83308412256744e+001°)
9.77237220955805e+002	(1.42584786646617e+001dB,-5.89174132904530e+001°)
9.99999999999994e+002	(1.41109058184419e+001dB,-5.94977185518656e+001°)
1.02329299228075e+003	(1.39615711725564e+001dB,-6.00715886901899e+001°)
1.04712854805089e+003	(1.38105142950080e+001dB,-6.06388676375616e+001°)
1.07151930523760e+003	(1.36577751997866e+001dB,-6.11994115151160e+001°)
1.09647819614318e+003	(1.35033942435672e+001dB,-6.17530885270597e+001°)
1.12201845430196e+003	(1.33474120259971e+001dB,-6.22997788145839e+001°)
1.14815362149688e+003	(1.31898692939181e+001dB,-6.28393742726599e+001°)
1.17489755493952e+003	(1.30308068498136e+001dB,-6.33717783328356e+001°)
1.20226443461741e+003	(1.28702654647228e+001dB,-6.38969057151987e+001°)
1.23026877081237e+003	(1.27082857958103e+001dB,-6.44146821526823e+001°)
1.25892541179416e+003	(1.25449083087356e+001dB,-6.49250440908680e+001°)
1.28824955169313e+003	(1.23801732049174e+001dB,-6.54279383663892e+001°)
1.31825673855640e+003	(1.22141203537496e+001dB,-6.59233218669631e+001°)
1.34896288259165e+003	(1.20467892297823e+001dB,-6.64111611759803e+001°)
1.38038426460288e+003	(1.18782188548497e+001dB,-6.68914322044656e+001°)
1.41253754462275e+003	(1.17084477450881e+001dB,-6.73641198130885e+001°)
1.44543977074592e+003	(1.15375138627651e+001dB,-6.78292174267583e+001°)
1.47910838816820e+003	(1.13654545728088e+001dB,-6.82867266441846e+001°)
1.51356124843620e+003	(1.11923066039069e+001dB,-6.87366568446191e+001°)
1.54881661891247e+003	(1.10181060140264e+001dB,-6.91790247938330e+001°)
1.58489319246110e+003	(1.08428881601868e+001dB,-6.96138542512130e+001°)
1.62181009735892e+003	(1.06666876723072e+001dB,-7.00411755796915e+001°)
1.65958690743755e+003	(1.04895384309390e+001dB,-7.04610253600640e+001°)
1.69824365246173e+003	(1.03114735486854e+001dB,-7.08734460110786e+001°)
1.73780082874936e+003	(1.01325253551069e+001dB,-7.12784854165299e+001°)
1.77827941003891e+003	(9.95272538490494e+000dB,-7.16761965604345e+001°)
1.81970085860997e+003	(9.77210436917853e+000dB,-7.20666371712227e+001°)
1.86208713666286e+003	(9.59069222954675e+000dB,-7.24498693757409e+001°)
1.90546071796323e+003	(9.40851807493311e+000dB,-7.28259593637324e+001°)
1.94984459975803e+003	(9.22561020081115e+000dB,-7.31949770633410e+001°)
1.99526231496887e+003	(9.04199609071516e+000dB,-7.35569958280699e+001°)
2.04173794466952e+003	(8.85770241982552e+000dB,-7.39120921355260e+001°)
2.08929613085403e+003	(8.67275506044483e+000dB,-7.42603452981800e+001°)
2.13796208950222e+003	(8.48717908918754e+000dB,-7.46018371862922e+001°)
2.18776162394954e+003	(8.30099879571414e+000dB,-7.49366519630689e+001°)
2.23872113856832e+003	(8.11423769284801e+000dB,-7.52648758320472e+001°)
2.29086765276776e+003	(7.92691852792207e+000dB,-7.55865967966427e+001°)
2.34422881531991e+003	(7.73906329521020e+000dB,-7.59019044317375e+001°)
2.39883291901947e+003	(7.55069324930713e+000dB,-7.62108896671384e+001°)
2.45470891568501e+003	(7.36182891932882e+000dB,-7.65136445826910e+001°)
2.51188643150956e+003	(7.17249012381359e+000dB,-7.68102622148016e+001°)
2.57039578276885e+003	(6.98269598621286e+000dB,-7.71008363740847e+001°)
2.63026799189536e+003	(6.79246495086779e+000dB,-7.73854614738323e+001°)
2.69153480392690e+003	(6.60181479937635e+000dB,-7.76642323689748e+001°)
2.75422870333815e+003	(6.41076266726277e+000dB,-7.79372442051930e+001°)
2.81838293126443e+003	(6.21932506086834e+000dB,-7.82045922778232e+001°)
2.88403150312659e+003	(6.02751787438964e+000dB,-7.84663719001892e+001°)
2.95120922666636e+003	(5.83535640699683e+000dB,-7.87226782809917e+001°)
3.01995172040199e+003	(5.64285537997088e+000dB,-7.89736064103783e+001°)
3.09029543251357e+003	(5.45002895380433e+000dB,-7.92192509543202e+001°)
3.16227766016836e+003	(5.25689074521615e+000dB,-7.94597061569205e+001°)
3.23593656929626e+003	(5.06345384403610e+000dB,-7.96950657502843e+001°)
3.31131121482589e+003	(4.86973082991903e+000dB,-7.99254228715853e+001°)
3.38844156139200e+003	(4.67573378885432e+000dB,-8.01508699869683e+001°)
3.46736850452529e+003	(4.48147432943948e+000dB,-8.03714988219391e+001°)
3.54813389233573e+003	(4.28696359889135e+000dB,-8.05874002978959e+001°)
3.63078054770099e+003	(4.09221229877164e+000dB,-8.07986644744717e+001°)
3.71535229097170e+003	(3.89723070040706e+000dB,-8.10053804973628e+001°)
3.80189396320558e+003	(3.70202865998744e+000dB,-8.12076365513313e+001°)
3.89045144994278e+003	(3.50661563332785e+000dB,-8.14055198180815e+001°)
3.98107170553494e+003	(3.31100069028368e+000dB,-8.15991164387177e+001°)
4.07380277804110e+003	(3.11519252880953e+000dB,-8.17885114805067e+001°)
4.16869383470332e+003	(2.91919948865549e+000dB,-8.19737889076760e+001°)
4.26579518801589e+003	(2.72302956469576e+000dB,-8.21550315559938e+001°)
4.36515832240162e+003	(2.52669041988670e+000dB,-8.23323211108847e+001°)
4.46683592150960e+003	(2.33018939785285e+000dB,-8.25057380888488e+001°)
4.57088189614871e+003	(2.13353353510084e+000dB,-8.26753618219627e+001°)
4.67735141287194e+003	(1.93672957286246e+000dB,-8.28412704452498e+001°)
4.78630092322634e+003	(1.73978396856916e+000dB,-8.30035408867220e+001°)
4.89778819368442e+003	(1.54270290696136e+000dB,-8.31622488598992e+001°)
5.01187233627268e+003	(1.34549231083680e+000dB,-8.33174688586301e+001°)
5.12861383991361e+003	(1.14815785144279e+000dB,-8.34692741540413e+001°)
5.24807460249768e+003	(9.50704958518012e-001dB,-8.36177367934551e+001°)
5.37031796370248e+003	(7.53138829990099e-001dB,-8.37629276011234e+001°)
5.49540873857620e+003	(5.55464441335550e-001dB,-8.39049161806348e+001°)
5.62341325190344e+003	(3.57686554609117e-001dB,-8.40437709188603e+001°)
5.75439937337152e+003	(1.59809727150004e-001dB,-8.41795589913092e+001°)
