Freq.	V(outint)
1.00000000000000e+001	(1.99885495545665e+001dB,-2.91391345299989e+000°)
1.02329299228075e+001	(1.99880206684865e+001dB,-2.98166613695054e+000°)
1.04712854805090e+001	(1.99874669257976e+001dB,-3.05098834352211e+000°)
1.07151930523761e+001	(1.99868871616838e+001dB,-3.12191601601931e+000°)
1.09647819614319e+001	(1.99862801570709e+001dB,-3.19448589123573e+000°)
1.12201845430196e+001	(1.99856446361304e+001dB,-3.26873551484333e+000°)
1.14815362149688e+001	(1.99849792636718e+001dB,-3.34470325692334e+000°)
1.17489755493953e+001	(1.99842826424178e+001dB,-3.42242832762697e+000°)
1.20226443461741e+001	(1.99835533101591e+001dB,-3.50195079295274e+000°)
1.23026877081238e+001	(1.99827897367822e+001dB,-3.58331159062635e+000°)
1.25892541179417e+001	(1.99819903211653e+001dB,-3.66655254606691e+000°)
1.28824955169313e+001	(1.99811533879372e+001dB,-3.75171638842225e+000°)
1.31825673855641e+001	(1.99802771840940e+001dB,-3.83884676665418e+000°)
1.34896288259165e+001	(1.99793598754667e+001dB,-3.92798826565261e+000°)
1.38038426460288e+001	(1.99783995430348e+001dB,-4.01918642235573e+000°)
1.41253754462275e+001	(1.99773941790788e+001dB,-4.11248774185106e+000°)
1.44543977074593e+001	(1.99763416831661e+001dB,-4.20793971343035e+000°)
1.47910838816821e+001	(1.99752398579641e+001dB,-4.30559082656849e+000°)
1.51356124843621e+001	(1.99740864048717e+001dB,-4.40549058679436e+000°)
1.54881661891248e+001	(1.99728789194650e+001dB,-4.50768953141877e+000°)
1.58489319246111e+001	(1.99716148867489e+001dB,-4.61223924508159e+000°)
1.62181009735893e+001	(1.99702916762066e+001dB,-4.71919237507724e+000°)
1.65958690743756e+001	(1.99689065366413e+001dB,-4.82860264641451e+000°)
1.69824365246174e+001	(1.99674565908015e+001dB,-4.94052487656293e+000°)
1.73780082874937e+001	(1.99659388297821e+001dB,-5.05501498983441e+000°)
1.77827941003892e+001	(1.99643501071939e+001dB,-5.17213003134488e+000°)
1.81970085860998e+001	(1.99626871330944e+001dB,-5.29192818049646e+000°)
1.86208713666287e+001	(1.99609464676693e+001dB,-5.41446876391626e+000°)
1.90546071796325e+001	(1.99591245146597e+001dB,-5.53981226778326e+000°)
1.94984459975804e+001	(1.99572175145245e+001dB,-5.66802034946974e+000°)
1.99526231496888e+001	(1.99552215373309e+001dB,-5.79915584841837e+000°)
2.04173794466953e+001	(1.99531324753647e+001dB,-5.93328279617077e+000°)
2.08929613085404e+001	(1.99509460354511e+001dB,-6.07046642545726e+000°)
2.13796208950223e+001	(1.99486577309800e+001dB,-6.21077317825148e+000°)
2.18776162394955e+001	(1.99462628736252e+001dB,-6.35427071268707e+000°)
2.23872113856834e+001	(1.99437565647514e+001dB,-6.50102790872675e+000°)
2.29086765276777e+001	(1.99411336865011e+001dB,-6.65111487246700e+000°)
2.34422881531992e+001	(1.99383888925524e+001dB,-6.80460293895404e+000°)
2.39883291901949e+001	(1.99355165985426e+001dB,-6.96156467337895e+000°)
2.45470891568503e+001	(1.99325109721494e+001dB,-7.12207387051168e+000°)
2.51188643150958e+001	(1.99293659228238e+001dB,-7.28620555222477e+000°)
2.57039578276886e+001	(1.99260750911690e+001dB,-7.45403596294928e+000°)
2.63026799189538e+001	(1.99226318379598e+001dB,-7.62564256289570e+000°)
2.69153480392691e+001	(1.99190292327980e+001dB,-7.80110401886310e+000°)
2.75422870333816e+001	(1.99152600424008e+001dB,-7.98050019245013e+000°)
2.81838293126445e+001	(1.99113167185189e+001dB,-8.16391212547086e+000°)
2.88403150312660e+001	(1.99071913854824e+001dB,-8.35142202236814e+000°)
2.95120922666638e+001	(1.99028758273747e+001dB,-8.54311322940647e+000°)
3.01995172040201e+001	(1.98983614748356e+001dB,-8.73907021041495e+000°)
3.09029543251359e+001	(1.98936393914944e+001dB,-8.93937851884019e+000°)
3.16227766016838e+001	(1.98887002600399e+001dB,-9.14412476585714e+000°)
3.23593656929628e+001	(1.98835343679302e+001dB,-9.35339658427481e+000°)
3.31131121482591e+001	(1.98781315927527e+001dB,-9.56728258796182e+000°)
3.38844156139202e+001	(1.98724813872441e+001dB,-9.78587232650607e+000°)
3.46736850452531e+001	(1.98665727639825e+001dB,-1.00092562348104e+001°)
3.54813389233575e+001	(1.98603942797684e+001dB,-1.02375255773159e+001°)
3.63078054770101e+001	(1.98539340197121e+001dB,-1.04707723865335e+001°)
3.71535229097172e+001	(1.98471795810507e+001dB,-1.07090893955539e+001°)
3.80189396320561e+001	(1.98401180567192e+001dB,-1.09525699641966e+001°)
3.89045144994280e+001	(1.98327360187044e+001dB,-1.12013079984487e+001°)
3.98107170553497e+001	(1.98250195012176e+001dB,-1.14553978628389e+001°)
4.07380277804112e+001	(1.98169539837208e+001dB,-1.17149342853816e+001°)
4.16869383470335e+001	(1.98085243738512e+001dB,-1.19800122547221e+001°)
4.26579518801592e+001	(1.97997149902907e+001dB,-1.22507269091116e+001°)
4.36515832240165e+001	(1.97905095456349e+001dB,-1.25271734168349e+001°)
4.46683592150962e+001	(1.97808911293189e+001dB,-1.28094468477168e+001°)
4.57088189614874e+001	(1.97708421906662e+001dB,-1.30976420353336e+001°)
4.67735141287197e+001	(1.97603445221319e+001dB,-1.33918534295611e+001°)
4.78630092322638e+001	(1.97493792428193e+001dB,-1.36921749391011e+001°)
4.89778819368445e+001	(1.97379267823542e+001dB,-1.39986997636348e+001°)
5.01187233627271e+001	(1.97259668652104e+001dB,-1.43115202152722e+001°)
5.12861383991364e+001	(1.97134784955878e+001dB,-1.46307275289820e+001°)
5.24807460249772e+001	(1.97004399429501e+001dB,-1.49564116617128e+001°)
5.37031796370252e+001	(1.96868287283406e+001dB,-1.52886610799425e+001°)
5.49540873857624e+001	(1.96726216115987e+001dB,-1.56275625354326e+001°)
5.62341325190348e+001	(1.96577945796136e+001dB,-1.59732008289964e+001°)
5.75439937337156e+001	(1.96423228357542e+001dB,-1.63256585621453e+001°)
5.88843655355588e+001	(1.96261807906270e+001dB,-1.66850158765233e+001°)
6.02559586074357e+001	(1.96093420543200e+001dB,-1.70513501811054e+001°)
6.16595001861481e+001	(1.95917794303000e+001dB,-1.74247358672010e+001°)
6.30957344480192e+001	(1.95734649111361e+001dB,-1.78052440113789e+001°)
6.45654229034654e+001	(1.95543696762327e+001dB,-1.81929420665178e+001°)
6.60693448007595e+001	(1.95344640917587e+001dB,-1.85878935412725e+001°)
6.76082975391980e+001	(1.95137177129687e+001dB,-1.89901576683543e+001°)
6.91830970918935e+001	(1.94920992891137e+001dB,-1.93997890621272e+001°)
7.07945784384136e+001	(1.94695767711455e+001dB,-1.98168373661438e+001°)
7.24435960074988e+001	(1.94461173224203e+001dB,-2.02413468913692e+001°)
7.41310241300916e+001	(1.94216873326081e+001dB,-2.06733562459772e+001°)
7.58577575029182e+001	(1.93962524350143e+001dB,-2.11128979577447e+001°)
7.76247116628690e+001	(1.93697775275179e+001dB,-2.15599980902196e+001°)
7.94328234724279e+001	(1.93422267973251e+001dB,-2.20146758539950e+001°)
8.12830516164097e+001	(1.93135637497311e+001dB,-2.24769432145800e+001°)
8.31763771102669e+001	(1.92837512410738e+001dB,-2.29468044985257e+001°)
8.51138038202374e+001	(1.92527515160499e+001dB,-2.34242559996315e+001°)
8.70963589956078e+001	(1.92205262495501e+001dB,-2.39092855872219e+001°)
8.91250938133743e+001	(1.91870365931510e+001dB,-2.44018723186566e+001°)
9.12010839355907e+001	(1.91522432263807e+001dB,-2.49019860583944e+001°)
9.33254300796988e+001	(1.91161064128511e+001dB,-2.54095871060928e+001°)
9.54992586021433e+001	(1.90785860613190e+001dB,-2.59246258363723e+001°)
9.77237220955808e+001	(1.90396417917109e+001dB,-2.64470423530131e+001°)
9.99999999999997e+001	(1.89992330061078e+001dB,-2.69767661604730e+001°)
1.02329299228075e+002	(1.89573189646503e+001dB,-2.75137158557232e+001°)
1.04712854805090e+002	(1.89138588662815e+001dB,-2.80577988434812e+001°)
1.07151930523760e+002	(1.88688119342028e+001dB,-2.86089110779792e+001°)
1.09647819614318e+002	(1.88221375058681e+001dB,-2.91669368344415e+001°)
1.12201845430196e+002	(1.87737951272957e+001dB,-2.97317485134420e+001°)
1.14815362149688e+002	(1.87237446514226e+001dB,-3.03032064812840e+001°)
1.17489755493953e+002	(1.86719463401778e+001dB,-3.08811589494726e+001°)
1.20226443461741e+002	(1.86183609698940e+001dB,-3.14654418962429e+001°)
1.23026877081238e+002	(1.85629499396275e+001dB,-3.20558790329578e+001°)
1.25892541179416e+002	(1.85056753819013e+001dB,-3.26522818179972e+001°)
1.28824955169313e+002	(1.84465002753383e+001dB,-3.32544495205256e+001°)
1.31825673855640e+002	(1.83853885586006e+001dB,-3.38621693362459e+001°)
1.34896288259165e+002	(1.83223052450094e+001dB,-3.44752165569275e+001°)
1.38038426460288e+002	(1.82572165371766e+001dB,-3.50933547951319e+001°)
1.41253754462275e+002	(1.81900899409443e+001dB,-3.57163362651621e+001°)
1.44543977074592e+002	(1.81208943779024e+001dB,-3.63439021208207e+001°)
1.47910838816820e+002	(1.80496002957267e+001dB,-3.69757828500981e+001°)
1.51356124843620e+002	(1.79761797755700e+001dB,-3.76116987264166e+001°)
1.54881661891248e+002	(1.79006066357281e+001dB,-3.82513603155417e+001°)
1.58489319246111e+002	(1.78228565308095e+001dB,-3.88944690367476e+001°)
1.62181009735892e+002	(1.77429070456447e+001dB,-3.95407177762855e+001°)
1.65958690743755e+002	(1.76607377831944e+001dB,-4.01897915506783e+001°)
1.69824365246174e+002	(1.75763304457470e+001dB,-4.08413682168371e+001°)
1.73780082874937e+002	(1.74896689087349e+001dB,-4.14951192254961e+001°)
1.77827941003892e+002	(1.74007392865486e+001dB,-4.21507104139846e+001°)
1.81970085860998e+002	(1.73095299897871e+001dB,-4.28078028339129e+001°)
1.86208713666286e+002	(1.72160317734474e+001dB,-4.34660536089513e+001°)
1.90546071796324e+002	(1.71202377756318e+001dB,-4.41251168175309e+001°)
1.94984459975804e+002	(1.70221435464295e+001dB,-4.47846443950055e+001°)
1.99526231496887e+002	(1.69217470667156e+001dB,-4.54442870495811e+001°)
2.04173794466952e+002	(1.68190487566991e+001dB,-4.61036951861563e+001°)
2.08929613085403e+002	(1.67140514741431e+001dB,-4.67625198321225e+001°)
2.13796208950222e+002	(1.66067605022731e+001dB,-4.74204135591481e+001°)
2.18776162394954e+002	(1.64971835274818e+001dB,-4.80770313950222e+001°)
2.23872113856833e+002	(1.63853306070303e+001dB,-4.87320317197466e+001°)
2.29086765276776e+002	(1.62712141270320e+001dB,-4.93850771402584e+001°)
2.34422881531991e+002	(1.61548487510916e+001dB,-5.00358353384136e+001°)
2.39883291901948e+002	(1.60362513600453e+001dB,-5.06839798871752e+001°)
2.45470891568502e+002	(1.59154409833247e+001dB,-5.13291910303176e+001°)
2.51188643150957e+002	(1.57924387225253e+001dB,-5.19711564213709e+001°)
2.57039578276885e+002	(1.56672676678201e+001dB,-5.26095718179859e+001°)
2.63026799189537e+002	(1.55399528079028e+001dB,-5.32441417283832e+001°)
2.69153480392690e+002	(1.54105209341816e+001dB,-5.38745800070657e+001°)
2.75422870333816e+002	(1.52790005399749e+001dB,-5.45006103974954e+001°)
2.81838293126444e+002	(1.51454217154739e+001dB,-5.51219670199689e+001°)
2.88403150312659e+002	(1.50098160392496e+001dB,-5.57383948034623e+001°)
2.95120922666637e+002	(1.48722164670775e+001dB,-5.63496498607333e+001°)
3.01995172040200e+002	(1.47326572188466e+001dB,-5.69554998064816e+001°)
3.09029543251358e+002	(1.45911736642996e+001dB,-5.75557240188501e+001°)
3.16227766016837e+002	(1.44478022083278e+001dB,-5.81501138450096e+001°)
3.23593656929627e+002	(1.43025801765124e+001dB,-5.87384727519922e+001°)
3.31131121482590e+002	(1.41555457015662e+001dB,-5.93206164243278e+001°)
3.38844156139201e+002	(1.40067376112881e+001dB,-5.98963728103869e+001°)
3.46736850452530e+002	(1.38561953185966e+001dB,-6.04655821196374e+001°)
3.54813389233574e+002	(1.37039587141594e+001dB,-6.10280967732895e+001°)
3.63078054770100e+002	(1.35500680620854e+001dB,-6.15837813110211e+001°)
3.71535229097171e+002	(1.33945638990926e+001dB,-6.21325122566523e+001°)
3.80189396320559e+002	(1.32374869375111e+001dB,-6.26741779457761e+001°)
3.89045144994279e+002	(1.30788779724307e+001dB,-6.32086783184427e+001°)
3.98107170553495e+002	(1.29187777932465e+001dB,-6.37359246800543e+001°)
4.07380277804111e+002	(1.27572270998098e+001dB,-6.42558394336462e+001°)
4.16869383470333e+002	(1.25942664233387e+001dB,-6.47683557867182e+001°)
4.26579518801591e+002	(1.24299360522009e+001dB,-6.52734174357382e+001°)
4.36515832240164e+002	(1.22642759626343e+001dB,-6.57709782313707e+001°)
4.46683592150961e+002	(1.20973257544337e+001dB,-6.62610018273927e+001°)
4.57088189614873e+002	(1.19291245915916e+001dB,-6.67434613161443e+001°)
4.67735141287196e+002	(1.17597111478519e+001dB,-6.72183388532373e+001°)
4.78630092322636e+002	(1.15891235570991e+001dB,-6.76856252741011e+001°)
4.89778819368444e+002	(1.14173993684849e+001dB,-6.81453197047908e+001°)
5.01187233627270e+002	(1.12445755061660e+001dB,-6.85974291693277e+001°)
5.12861383991362e+002	(1.10706882335084e+001dB,-6.90419681956730e+001°)
5.24807460249770e+002	(1.08957731215980e+001dB,-6.94789584222688e+001°)
5.37031796370250e+002	(1.07198650218801e+001dB,-6.99084282069158e+001°)
5.49540873857622e+002	(1.05429980427418e+001dB,-7.03304122395847e+001°)
5.62341325190346e+002	(1.03652055298425e+001dB,-7.07449511606000e+001°)
5.75439937337154e+002	(1.01865200499903e+001dB,-7.11520911854720e+001°)
5.88843655355586e+002	(1.00069733783603e+001dB,-7.15518837375010e+001°)
6.02559586074355e+002	(9.82659648884719e+000dB,-7.19443850891303e+001°)
6.16595001861479e+002	(9.64541954734590e+000dB,-7.23296560128835e+001°)
6.30957344480190e+002	(9.46347190775569e+000dB,-7.27077614425916e+001°)
6.45654229034652e+002	(9.28078211050505e+000dB,-7.30787701454908e+001°)
6.60693448007592e+002	(9.09737788340037e+000dB,-7.34427544056545e+001°)
6.76082975391978e+002	(8.91328614460598e+000dB,-7.37997897191228e+001°)
6.91830970918933e+002	(8.72853300756970e+000dB,-7.41499545009853e+001°)
7.07945784384134e+002	(8.54314378771446e+000dB,-7.44933298045932e+001°)
7.24435960074986e+002	(8.35714301072444e+000dB,-7.48299990529890e+001°)
7.41310241300914e+002	(8.17055442226204e+000dB,-7.51600477825715e+001°)
7.58577575029180e+002	(7.98340099895949e+000dB,-7.54835633989483e+001°)
7.76247116628688e+002	(7.79570496053836e+000dB,-7.58006349448709e+001°)
7.94328234724277e+002	(7.60748778291743e+000dB,-7.61113528800934e+001°)
8.12830516164095e+002	(7.41877021217887e+000dB,-7.64158088729569e+001°)
8.31763771102666e+002	(7.22957227927036e+000dB,-7.67140956034565e+001°)
8.51138038202372e+002	(7.03991331532931e+000dB,-7.70063065775230e+001°)
8.70963589956076e+002	(6.84981196752356e+000dB,-7.72925359522178e+001°)
8.91250938133741e+002	(6.65928621531039e+000dB,-7.75728783715199e+001°)
9.12010839355905e+002	(6.46835338702361e+000dB,-7.78474288123676e+001°)
9.33254300796986e+002	(6.27703017670568e+000dB,-7.81162824406002e+001°)
9.54992586021431e+002	(6.08533266110895e+000dB,-7.83795344764374e+001°)
9.77237220955805e+002	(5.89327631679636e+000dB,-7.86372800691258e+001°)
9.99999999999994e+002	(5.70087603727899e+000dB,-7.88896141803790e+001°)
1.02329299228075e+003	(5.50814615013318e+000dB,-7.91366314762353e+001°)
1.04712854805089e+003	(5.31510043404611e+000dB,-7.93784262269589e+001°)
1.07151930523760e+003	(5.12175213574373e+000dB,-7.96150922146121e+001°)
1.09647819614318e+003	(4.92811398676005e+000dB,-7.98467226479318e+001°)
1.12201845430196e+003	(4.73419822001164e+000dB,-8.00734100841493e+001°)
1.14815362149688e+003	(4.54001658614511e+000dB,-8.02952463573993e+001°)
1.17489755493952e+003	(4.34558036962989e+000dB,-8.05123225133723e+001°)
1.20226443461741e+003	(4.15090040457183e+000dB,-8.07247287498755e+001°)
1.23026877081237e+003	(3.95598709022716e+000dB,-8.09325543629744e+001°)
1.25892541179416e+003	(3.76085040619904e+000dB,-8.11358876984002e+001°)
1.28824955169313e+003	(3.56549992730207e+000dB,-8.13348161079186e+001°)
1.31825673855640e+003	(3.36994483808267e+000dB,-8.15294259103650e+001°)
1.34896288259165e+003	(3.17419394698610e+000dB,-8.17198023570651e+001°)
1.38038426460288e+003	(2.97825570016225e+000dB,-8.19060296013694e+001°)
1.41253754462275e+003	(2.78213819490530e+000dB,-8.20881906720425e+001°)
1.44543977074592e+003	(2.58584919272341e+000dB,-8.22663674502600e+001°)
1.47910838816820e+003	(2.38939613203667e+000dB,-8.24406406499751e+001°)
1.51356124843620e+003	(2.19278614050289e+000dB,-8.26110898014311e+001°)
1.54881661891247e+003	(1.99602604697188e+000dB,-8.27777932376043e+001°)
1.58489319246110e+003	(1.79912239307054e+000dB,-8.29408280833741e+001°)
1.62181009735892e+003	(1.60208144442148e+000dB,-8.31002702472271e+001°)
1.65958690743755e+003	(1.40490920149942e+000dB,-8.32561944153121e+001°)
1.69824365246173e+003	(1.20761141012984e+000dB,-8.34086740476722e+001°)
1.73780082874936e+003	(1.01019357163552e+000dB,-8.35577813764908e+001°)
1.77827941003891e+003	(8.12660952636820e-001dB,-8.37035874061966e+001°)
1.81970085860997e+003	(6.15018594512311e-001dB,-8.38461619152818e+001°)
1.86208713666286e+003	(4.17271322526672e-001dB,-8.39855734596952e+001°)
1.90546071796323e+003	(2.19423754633105e-001dB,-8.41218893776823e+001°)
1.94984459975803e+003	(2.14803099578905e-002dB,-8.42551757959500e+001°)
1.99526231496887e+003	(-1.76554783025084e-001dB,-8.43854976370406e+001°)
2.04173794466952e+003	(-3.74677478621979e-001dB,-8.45129186278104e+001°)
2.08929613085403e+003	(-5.72883906340563e-001dB,-8.46375013089093e+001°)
2.13796208950222e+003	(-7.71170363597655e-001dB,-8.47593070451700e+001°)
2.18776162394954e+003	(-9.69533308704106e-001dB,-8.48783960368169e+001°)
2.23872113856832e+003	(-1.16796935411916e+000dB,-8.49948273314127e+001°)
2.29086765276776e+003	(-1.36647525996589e+000dB,-8.51086588364669e+001°)
2.34422881531991e+003	(-1.56504792779971e+000dB,-8.52199473326326e+001°)
2.39883291901947e+003	(-1.76368439462162e+000dB,-8.53287484874262e+001°)
2.45470891568501e+003	(-1.96238182712839e+000dB,-8.54351168694067e+001°)
2.51188643150956e+003	(-2.16113751619173e+000dB,-8.55391059627579e+001°)
2.57039578276885e+003	(-2.35994887155860e+000dB,-8.56407681822179e+001°)
2.63026799189536e+003	(-2.55881341676508e+000dB,-8.57401548883074e+001°)
2.69153480392690e+003	(-2.75772878425635e+000dB,-8.58373164028096e+001°)
2.75422870333815e+003	(-2.95669271070547e+000dB,-8.59323020244592e+001°)
2.81838293126443e+003	(-3.15570303252358e+000dB,-8.60251600448005e+001°)
2.88403150312659e+003	(-3.35475768155489e+000dB,-8.61159377641779e+001°)
2.95120922666636e+003	(-3.55385468094934e+000dB,-8.62046815078249e+001°)
3.01995172040199e+003	(-3.75299214120645e+000dB,-8.62914366420207e+001°)
3.09029543251357e+003	(-3.95216825638387e+000dB,-8.63762475902848e+001°)
3.16227766016836e+003	(-4.15138130046440e+000dB,-8.64591578495843e+001°)
3.23593656929626e+003	(-4.35062962387525e+000dB,-8.65402100065291e+001°)
3.31131121482589e+003	(-4.54991165015392e+000dB,-8.66194457535323e+001°)
3.38844156139200e+003	(-4.74922587275466e+000dB,-8.66969059049164e+001°)
3.46736850452529e+003	(-4.94857085199031e+000dB,-8.67726304129465e+001°)
3.54813389233573e+003	(-5.14794521210377e+000dB,-8.68466583837735e+001°)
3.63078054770099e+003	(-5.34734763846437e+000dB,-8.69190280932720e+001°)
3.71535229097170e+003	(-5.54677687488379e+000dB,-8.69897770027588e+001°)
3.80189396320558e+003	(-5.74623172104687e+000dB,-8.70589417745810e+001°)
3.89045144994278e+003	(-5.94571103005262e+000dB,-8.71265582875601e+001°)
3.98107170553494e+003	(-6.14521370606093e+000dB,-8.71926616522839e+001°)
4.07380277804110e+003	(-6.34473870204065e+000dB,-8.72572862262362e+001°)
4.16869383470332e+003	(-6.54428501761481e+000dB,-8.73204656287571e+001°)
4.26579518801589e+003	(-6.74385169699917e+000dB,-8.73822327558264e+001°)
4.36515832240162e+003	(-6.94343782702989e+000dB,-8.74426197946632e+001°)
4.46683592150960e+003	(-7.14304253527697e+000dB,-8.75016582381383e+001°)
4.57088189614871e+003	(-7.34266498823947e+000dB,-8.75593788989928e+001°)
4.67735141287194e+003	(-7.54230438961957e+000dB,-8.76158119238599e+001°)
4.78630092322634e+003	(-7.74195997867163e+000dB,-8.76709868070866e+001°)
4.89778819368442e+003	(-7.94163102862345e+000dB,-8.77249324043522e+001°)
5.01187233627268e+003	(-8.14131684516649e+000dB,-8.77776769460821e+001°)
5.12861383991361e+003	(-8.34101676501219e+000dB,-8.78292480506544e+001°)
5.24807460249768e+003	(-8.54073015451154e+000dB,-8.78796727373987e+001°)
5.37031796370248e+003	(-8.74045640833519e+000dB,-8.79289774393863e+001°)
5.49540873857620e+003	(-8.94019494821148e+000dB,-8.79771880160112e+001°)
5.62341325190344e+003	(-9.13994522172003e+000dB,-8.80243297653614e+001°)
