Freq.	V(outint)/V(Vin)
1.00000000000000e+001	(1.98997022179460e+001dB,1.71318749015700e+002°)
1.02329299228075e+001	(1.98950418061740e+001dB,1.71119723714007e+002°)
1.04712854805090e+001	(1.98901671102164e+001dB,1.70916285948434e+002°)
1.07151930523761e+001	(1.98850685345663e+001dB,1.70708348381962e+002°)
1.09647819614319e+001	(1.98797360781616e+001dB,1.70495822684200e+002°)
1.12201845430196e+001	(1.98741593195026e+001dB,1.70278619575299e+002°)
1.14815362149688e+001	(1.98683274014393e+001dB,1.70056648874849e+002°)
1.17489755493953e+001	(1.98622290156409e+001dB,1.69829819556047e+002°)
1.20226443461741e+001	(1.98558523867673e+001dB,1.69598039805476e+002°)
1.23026877081238e+001	(1.98491852563623e+001dB,1.69361217088795e+002°)
1.25892541179417e+001	(1.98422148664942e+001dB,1.69119258222697e+002°)
1.28824955169313e+001	(1.98349279431695e+001dB,1.68872069453476e+002°)
1.31825673855641e+001	(1.98273106795552e+001dB,1.68619556542547e+002°)
1.34896288259165e+001	(1.98193487190431e+001dB,1.68361624859294e+002°)
1.38038426460288e+001	(1.98110271382001e+001dB,1.68098179481609e+002°)
1.41253754462275e+001	(1.98023304296480e+001dB,1.67829125304489e+002°)
1.44543977074593e+001	(1.97932424849268e+001dB,1.67554367157070e+002°)
1.47910838816821e+001	(1.97837465773976e+001dB,1.67273809928480e+002°)
1.51356124843621e+001	(1.97738253452482e+001dB,1.66987358702868e+002°)
1.54881661891248e+001	(1.97634607746722e+001dB,1.66694918903996e+002°)
1.58489319246111e+001	(1.97526341832965e+001dB,1.66396396449747e+002°)
1.62181009735893e+001	(1.97413262039422e+001dB,1.66091697916904e+002°)
1.65958690743756e+001	(1.97295167688079e+001dB,1.65780730716542e+002°)
1.69824365246174e+001	(1.97171850941757e+001dB,1.65463403280344e+002°)
1.73780082874937e+001	(1.97043096657440e+001dB,1.65139625258147e+002°)
1.77827941003892e+001	(1.96908682247035e+001dB,1.64809307726985e+002°)
1.81970085860998e+001	(1.96768377546769e+001dB,1.64472363411869e+002°)
1.86208713666287e+001	(1.96621944696553e+001dB,1.64128706918495e+002°)
1.90546071796325e+001	(1.96469138030687e+001dB,1.63778254978050e+002°)
1.94984459975804e+001	(1.96309703981401e+001dB,1.63420926704196e+002°)
1.99526231496888e+001	(1.96143380996779e+001dB,1.63056643862303e+002°)
2.04173794466953e+001	(1.95969899474721e+001dB,1.62685331150887e+002°)
2.08929613085404e+001	(1.95788981714657e+001dB,1.62306916495173e+002°)
2.13796208950223e+001	(1.95600341888808e+001dB,1.61921331352601e+002°)
2.18776162394955e+001	(1.95403686034863e+001dB,1.61528511030010e+002°)
2.23872113856834e+001	(1.95198712071991e+001dB,1.61128395012138e+002°)
2.29086765276777e+001	(1.94985109842174e+001dB,1.60720927300958e+002°)
2.34422881531992e+001	(1.94762561178868e+001dB,1.60306056765281e+002°)
2.39883291901949e+001	(1.94530740005059e+001dB,1.59883737499892e+002°)
2.45470891568503e+001	(1.94289312462775e+001dB,1.59453929193392e+002°)
2.51188643150958e+001	(1.94037937076110e+001dB,1.59016597503754e+002°)
2.57039578276886e+001	(1.93776264949828e+001dB,1.58571714440474e+002°)
2.63026799189538e+001	(1.93503940005543e+001dB,1.58119258752005e+002°)
2.69153480392691e+001	(1.93220599257422e+001dB,1.57659216317066e+002°)
2.75422870333816e+001	(1.92925873129290e+001dB,1.57191580538182e+002°)
2.81838293126445e+001	(1.92619385814870e+001dB,1.56716352735703e+002°)
2.88403150312660e+001	(1.92300755682765e+001dB,1.56233542540355e+002°)
2.95120922666638e+001	(1.91969595727644e+001dB,1.55743168282194e+002°)
3.01995172040201e+001	(1.91625514068828e+001dB,1.55245257373714e+002°)
3.09029543251359e+001	(1.91268114497313e+001dB,1.54739846684658e+002°)
3.16227766016838e+001	(1.90896997071919e+001dB,1.54226982905939e+002°)
3.23593656929628e+001	(1.90511758765019e+001dB,1.53706722899964e+002°)
3.31131121482591e+001	(1.90111994157907e+001dB,1.53179134034486e+002°)
3.38844156139202e+001	(1.89697296185536e+001dB,1.52644294497020e+002°)
3.46736850452531e+001	(1.89267256929911e+001dB,1.52102293586779e+002°)
3.54813389233575e+001	(1.88821468461029e+001dB,1.51553231980992e+002°)
3.63078054770101e+001	(1.88359523723765e+001dB,1.50997221972437e+002°)
3.71535229097172e+001	(1.87881017468621e+001dB,1.50434387675030e+002°)
3.80189396320561e+001	(1.87385547223774e+001dB,1.49864865194296e+002°)
3.89045144994280e+001	(1.86872714305299e+001dB,1.49288802759638e+002°)
3.98107170553497e+001	(1.86342124861955e+001dB,1.48706360815406e+002°)
4.07380277804112e+001	(1.85793390950355e+001dB,1.48117712067895e+002°)
4.16869383470335e+001	(1.85226131635848e+001dB,1.47523041485604e+002°)
4.26579518801592e+001	(1.84639974113905e+001dB,1.46922546250279e+002°)
4.36515832240165e+001	(1.84034554846326e+001dB,1.46316435656558e+002°)
4.46683592150962e+001	(1.83409520706120e+001dB,1.45704930958334e+002°)
4.57088189614874e+001	(1.82764530124499e+001dB,1.45088265160285e+002°)
4.67735141287197e+001	(1.82099254233046e+001dB,1.44466682753451e+002°)
4.78630092322638e+001	(1.81413377993816e+001dB,1.43840439394113e+002°)
4.89778819368445e+001	(1.80706601309883e+001dB,1.43209801525738e+002°)
5.01187233627271e+001	(1.79978640108659e+001dB,1.42575045944198e+002°)
5.12861383991364e+001	(1.79229227390257e+001dB,1.41936459307014e+002°)
5.24807460249772e+001	(1.78458114233123e+001dB,1.41294337587875e+002°)
5.37031796370252e+001	(1.77665070749280e+001dB,1.40648985478229e+002°)
5.49540873857624e+001	(1.76849886981708e+001dB,1.40000715738269e+002°)
5.62341325190348e+001	(1.76012373736649e+001dB,1.39349848500167e+002°)
5.75439937337156e+001	(1.75152363344008e+001dB,1.38696710526915e+002°)
5.88843655355588e+001	(1.74269710339504e+001dB,1.38041634430615e+002°)
6.02559586074357e+001	(1.73364292062741e+001dB,1.37384957854521e+002°)
6.16595001861481e+001	(1.72436009166074e+001dB,1.36727022623541e+002°)
6.30957344480192e+001	(1.71484786029781e+001dB,1.36068173868273e+002°)
6.45654229034654e+001	(1.70510571079912e+001dB,1.35408759127952e+002°)
6.60693448007595e+001	(1.69513337005968e+001dB,1.34749127437954e+002°)
6.76082975391980e+001	(1.68493080876467e+001dB,1.34089628407654e+002°)
6.91830970918935e+001	(1.67449824151361e+001dB,1.33430611294589e+002°)
7.07945784384136e+001	(1.66383612591193e+001dB,1.32772424080884e+002°)
7.24435960074988e+001	(1.65294516063806e+001dB,1.32115412557898e+002°)
7.41310241300916e+001	(1.64182628250339e+001dB,1.31459919424945e+002°)
7.58577575029182e+001	(1.63048066253125e+001dB,1.30806283407757e+002°)
7.76247116628690e+001	(1.61890970108969e+001dB,1.30154838402153e+002°)
7.94328234724279e+001	(1.60711502212057e+001dB,1.29505912648055e+002°)
8.12830516164097e+001	(1.59509846651499e+001dB,1.28859827938664e+002°)
8.31763771102669e+001	(1.58286208469171e+001dB,1.28216898869187e+002°)
8.51138038202374e+001	(1.57040812844075e+001dB,1.27577432129082e+002°)
8.70963589956078e+001	(1.55773904209951e+001dB,1.26941725841285e+002°)
8.91250938133743e+001	(1.54485745313261e+001dB,1.26310068951415e+002°)
9.12010839355907e+001	(1.53176616218964e+001dB,1.25682740669390e+002°)
9.33254300796988e+001	(1.51846813271724e+001dB,1.25060009965385e+002°)
9.54992586021433e+001	(1.50496648020269e+001dB,1.24442135121519e+002°)
9.77237220955808e+001	(1.49126446112689e+001dB,1.23829363340124e+002°)
9.99999999999997e+001	(1.47736546170341e+001dB,1.23221930408957e+002°)
1.02329299228075e+002	(1.46327298647904e+001dB,1.22620060423196e+002°)
1.04712854805090e+002	(1.44899064686904e+001dB,1.22023965563619e+002°)
1.07151930523760e+002	(1.43452214969711e+001dB,1.21433845929912e+002°)
1.09647819614318e+002	(1.41987128580669e+001dB,1.20849889427676e+002°)
1.12201845430196e+002	(1.40504191880613e+001dB,1.20272271707304e+002°)
1.14815362149688e+002	(1.39003797400570e+001dB,1.19701156152632e+002°)
1.17489755493953e+002	(1.37486342759960e+001dB,1.19136693916944e+002°)
1.20226443461741e+002	(1.35952229614113e+001dB,1.18579024003698e+002°)
1.23026877081238e+002	(1.34401862635390e+001dB,1.18028273389172e+002°)
1.25892541179416e+002	(1.32835648531660e+001dB,1.17484557184029e+002°)
1.28824955169313e+002	(1.31253995105376e+001dB,1.16947978830756e+002°)
1.31825673855640e+002	(1.29657310355935e+001dB,1.16418630333802e+002°)
1.34896288259165e+002	(1.28046001627546e+001dB,1.15896592519279e+002°)
1.38038426460288e+002	(1.26420474804287e+001dB,1.15381935321016e+002°)
1.41253754462275e+002	(1.24781133553599e+001dB,1.14874718089857e+002°)
1.44543977074592e+002	(1.23128378619016e+001dB,1.14374989923121e+002°)
1.47910838816820e+002	(1.21462607162506e+001dB,1.13882790011220e+002°)
1.51356124843620e+002	(1.19784212156431e+001dB,1.13398147998570e+002°)
1.54881661891248e+002	(1.18093581824785e+001dB,1.12921084356027e+002°)
1.58489319246111e+002	(1.16391099133043e+001dB,1.12451610762217e+002°)
1.62181009735892e+002	(1.14677141325698e+001dB,1.11989730491304e+002°)
1.65958690743755e+002	(1.12952079510299e+001dB,1.11535438804868e+002°)
1.69824365246174e+002	(1.11216278286600e+001dB,1.11088723345750e+002°)
1.73780082874937e+002	(1.09470095419254e+001dB,1.10649564531879e+002°)
1.77827941003892e+002	(1.07713881552322e+001dB,1.10217935948253e+002°)
1.81970085860998e+002	(1.05947979963773e+001dB,1.09793804735452e+002°)
1.86208713666286e+002	(1.04172726358041e+001dB,1.09377131973166e+002°)
1.90546071796324e+002	(1.02388448694626e+001dB,1.08967873057445e+002°)
1.94984459975804e+002	(1.00595467050731e+001dB,1.08565978070485e+002°)
1.99526231496887e+002	(9.87940935158296e+000dB,1.08171392141931e+002°)
2.04173794466952e+002	(9.69846321161359e+000dB,1.07784055800837e+002°)
2.08929613085403e+002	(9.51673787668872e+000dB,1.07403905317522e+002°)
2.13796208950222e+002	(9.33426212504326e+000dB,1.07030873034712e+002°)
2.18776162394954e+002	(9.15106392181286e+000dB,1.06664887687478e+002°)
2.23872113856833e+002	(8.96717042141041e+000dB,1.06305874711571e+002°)
2.29086765276776e+002	(8.78260797190164e+000dB,1.05953756539862e+002°)
2.34422881531991e+002	(8.59740212119862e+000dB,1.05608452886706e+002°)
2.39883291901948e+002	(8.41157762489705e+000dB,1.05269881020100e+002°)
2.45470891568502e+002	(8.22515845559144e+000dB,1.04937956021608e+002°)
2.51188643150957e+002	(8.03816781350970e+000dB,1.04612591034073e+002°)
2.57039578276885e+002	(7.85062813831767e+000dB,1.04293697497217e+002°)
2.63026799189537e+002	(7.66256112195198e+000dB,1.03981185371260e+002°)
2.69153480392690e+002	(7.47398772234821e+000dB,1.03674963348761e+002°)
2.75422870333816e+002	(7.28492817794010e+000dB,1.03374939054889e+002°)
2.81838293126444e+002	(7.09540202281316e+000dB,1.03081019236410e+002°)
2.88403150312659e+002	(6.90542810240488e+000dB,1.02793109939663e+002°)
2.95120922666637e+002	(6.71502458965103e+000dB,1.02511116677853e+002°)
3.01995172040200e+002	(6.52420900148587e+000dB,1.02234944587986e+002°)
3.09029543251358e+002	(6.33299821561069e+000dB,1.01964498577805e+002°)
3.16227766016837e+002	(6.14140848745309e+000dB,1.01699683463072e+002°)
3.23593656929627e+002	(5.94945546724539e+000dB,1.01440404095585e+002°)
3.31131121482590e+002	(5.75715421715753e+000dB,1.01186565482285e+002°)
3.38844156139201e+002	(5.56451922842570e+000dB,1.00938072895842e+002°)
3.46736850452530e+002	(5.37156443842380e+000dB,1.00694831977081e+002°)
3.54813389233574e+002	(5.17830324763020e+000dB,1.00456748829640e+002°)
3.63078054770100e+002	(4.98474853644732e+000dB,1.00223730107203e+002°)
3.71535229097171e+002	(4.79091268183657e+000dB,9.99956830936994e+001°)
3.80189396320559e+002	(4.59680757373520e+000dB,9.97725157768036e+001°)
3.89045144994279e+002	(4.40244463122617e+000dB,9.95541369150940e+001°)
3.98107170553495e+002	(4.20783481843570e+000dB,9.93404560992070e+001°)
4.07380277804111e+002	(4.01298866013666e+000dB,9.91313838073161e+001°)
4.16869383470333e+002	(3.81791625703956e+000dB,9.89268314552545e+001°)
4.26579518801591e+002	(3.62262730075541e+000dB,9.87267114415892e+001°)
4.36515832240164e+002	(3.42713108841783e+000dB,9.85309371879443e+001°)
4.46683592150961e+002	(3.23143653695412e+000dB,9.83394231748580e+001°)
4.57088189614873e+002	(3.03555219699728e+000dB,9.81520849734488e+001°)
4.67735141287196e+002	(2.83948626643306e+000dB,9.79688392731521e+001°)
4.78630092322636e+002	(2.64324660357808e+000dB,9.77896039057796e+001°)
4.89778819368444e+002	(2.44684073998654e+000dB,9.76142978661404e+001°)
5.01187233627270e+002	(2.25027589288461e+000dB,9.74428413294536e+001°)
5.12861383991362e+002	(2.05355897723321e+000dB,9.72751556657677e+001°)
5.24807460249770e+002	(1.85669661742066e+000dB,9.71111634515967e+001°)
5.37031796370250e+002	(1.65969515858801e+000dB,9.69507884789667e+001°)
5.49540873857622e+002	(1.46256067759082e+000dB,9.67939557620596e+001°)
5.62341325190346e+002	(1.26529899360181e+000dB,9.66405915416312e+001°)
5.75439937337154e+002	(1.06791567835963e+000dB,9.64906232873690e+001°)
5.88843655355586e+002	(8.70416066069711e-001dB,9.63439796983472e+001°)
6.02559586074355e+002	(6.72805262963368e-001dB,9.62005907017282e+001°)
6.16595001861479e+002	(4.75088156522171e-001dB,9.60603874498497e+001°)
6.30957344480190e+002	(2.77269424374644e-001dB,9.59233023158287e+001°)
6.45654229034652e+002	(7.93535428729353e-002dB,9.57892688878086e+001°)
6.60693448007592e+002	(-1.18655204643022e-001dB,9.56582219619620e+001°)
6.76082975391978e+002	(-3.16752719885676e-001dB,9.55300975343626e+001°)
6.91830970918933e+002	(-5.14935081956454e-001dB,9.54048327918253e+001°)
7.07945784384134e+002	(-7.13198539970553e-001dB,9.52823661018129e+001°)
7.24435960074986e+002	(-9.11539505961790e-001dB,9.51626370014975e+001°)
7.41310241300914e+002	(-1.10995454805910e+000dB,9.50455861860618e+001°)
7.58577575029180e+002	(-1.30844038392666e+000dB,9.49311554963183e+001°)
7.76247116628688e+002	(-1.50699387445930e+000dB,9.48192879057199e+001°)
7.94328234724277e+002	(-1.70561201772526e+000dB,9.47099275068300e+001°)
8.12830516164095e+002	(-1.90429194314794e+000dB,9.46030194973153e+001°)
8.31763771102666e+002	(-2.10303090591915e+000dB,9.44985101655221e+001°)
8.51138038202372e+002	(-2.30182628163565e+000dB,9.43963468756892e+001°)
8.70963589956076e+002	(-2.50067556115152e+000dB,9.42964780528498e+001°)
8.91250938133741e+002	(-2.69957634563886e+000dB,9.41988531674693e+001°)
9.12010839355905e+002	(-2.89852634184922e+000dB,9.41034227198633e+001°)
9.33254300796986e+002	(-3.09752335756885e+000dB,9.40101382244361e+001°)
9.54992586021431e+002	(-3.29656529726053e+000dB,9.39189521937776e+001°)
9.77237220955805e+002	(-3.49565015788509e+000dB,9.38298181226536e+001°)
9.99999999999994e+002	(-3.69477602489617e+000dB,9.37426904719201e+001°)
1.02329299228075e+003	(-3.89394106840139e+000dB,9.36575246523935e+001°)
1.04712854805089e+003	(-4.09314353948391e+000dB,9.35742770087019e+001°)
1.07151930523760e+003	(-4.29238176667803e+000dB,9.34929048031423e+001°)
1.09647819614318e+003	(-4.49165415259300e+000dB,9.34133661995682e+001°)
1.12201845430196e+003	(-4.69095917067922e+000dB,9.33356202473272e+001°)
1.14815362149688e+003	(-4.89029536213125e+000dB,9.32596268652671e+001°)
1.17489755493952e+003	(-5.08966133292225e+000dB,9.31853468258298e+001°)
1.20226443461741e+003	(-5.28905575096459e+000dB,9.31127417392466e+001°)
1.23026877081237e+003	(-5.48847734339157e+000dB,9.30417740378507e+001°)
1.25892541179416e+003	(-5.68792489395550e+000dB,9.29724069605193e+001°)
1.28824955169313e+003	(-5.88739724053719e+000dB,9.29046045372565e+001°)
1.31825673855640e+003	(-6.08689327276256e+000dB,9.28383315739284e+001°)
1.34896288259165e+003	(-6.28641192972188e+000dB,9.27735536371590e+001°)
1.38038426460288e+003	(-6.48595219778731e+000dB,9.27102370393951e+001°)
1.41253754462275e+003	(-6.68551310852498e+000dB,9.26483488241484e+001°)
1.44543977074592e+003	(-6.88509373669738e+000dB,9.25878567514202e+001°)
1.47910838816820e+003	(-7.08469319835242e+000dB,9.25287292833152e+001°)
1.51356124843620e+003	(-7.28431064899563e+000dB,9.24709355698488e+001°)
1.54881661891247e+003	(-7.48394528184189e+000dB,9.24144454349522e+001°)
1.58489319246110e+003	(-7.68359632614335e+000dB,9.23592293626787e+001°)
1.62181009735892e+003	(-7.88326304559043e+000dB,9.23052584836145e+001°)
1.65958690743755e+003	(-8.08294473678262e+000dB,9.22525045614959e+001°)
1.69824365246173e+003	(-8.28264072776637e+000dB,9.22009399800350e+001°)
1.73780082874936e+003	(-8.48235037663695e+000dB,9.21505377299553e+001°)
1.77827941003891e+003	(-8.68207307020169e+000dB,9.21012713962378e+001°)
1.81970085860997e+003	(-8.88180822270205e+000dB,9.20531151455791e+001°)
1.86208713666286e+003	(-9.08155527459167e+000dB,9.20060437140600e+001°)
1.90546071796323e+003	(-9.28131369136851e+000dB,9.19600323950265e+001°)
1.94984459975803e+003	(-9.48108296245817e+000dB,9.19150570271810e+001°)
1.99526231496887e+003	(-9.68086260014666e+000dB,9.18710939828842e+001°)
2.04173794466952e+003	(-9.88065213856020e+000dB,9.18281201566653e+001°)
2.08929613085403e+003	(-1.00804511326901e+001dB,9.17861129539414e+001°)
2.13796208950222e+003	(-1.02802591574606e+001dB,9.17450502799426e+001°)
2.18776162394954e+003	(-1.04800758068385e+001dB,9.17049105288420e+001°)
2.23872113856832e+003	(-1.06799006929813e+001dB,9.16656725730895e+001°)
2.29086765276776e+003	(-1.08797334454240e+001dB,9.16273157529457e+001°)
2.34422881531991e+003	(-1.10795737103013e+001dB,9.15898198662165e+001°)
2.39883291901947e+003	(-1.12794211496047e+001dB,9.15531651581826e+001°)
2.45470891568501e+003	(-1.14792754404723e+001dB,9.15173323117256e+001°)
2.51188643150956e+003	(-1.16791362745102e+001dB,9.14823024376445e+001°)
2.57039578276885e+003	(-1.18790033571442e+001dB,9.14480570651636e+001°)
2.63026799189536e+003	(-1.20788764070000e+001dB,9.14145781326258e+001°)
2.69153480392690e+003	(-1.22787551553114e+001dB,9.13818479783718e+001°)
2.75422870333815e+003	(-1.24786393453543e+001dB,9.13498493318006e+001°)
2.81838293126443e+003	(-1.26785287319060e+001dB,9.13185653046084e+001°)
2.88403150312659e+003	(-1.28784230807291e+001dB,9.12879793822054e+001°)
2.95120922666636e+003	(-1.30783221680776e+001dB,9.12580754153042e+001°)
3.01995172040199e+003	(-1.32782257802254e+001dB,9.12288376116808e+001°)
3.09029543251357e+003	(-1.34781337130156e+001dB,9.12002505281016e+001°)
3.16227766016836e+003	(-1.36780457714302e+001dB,9.11722990624168e+001°)
3.23593656929626e+003	(-1.38779617691785e+001dB,9.11449684458154e+001°)
3.31131121482589e+003	(-1.40778815283039e+001dB,9.11182442352393e+001°)
3.38844156139200e+003	(-1.42778048788089e+001dB,9.10921123059541e+001°)
3.46736850452529e+003	(-1.44777316582956e+001dB,9.10665588442735e+001°)
3.54813389233573e+003	(-1.46776617116230e+001dB,9.10415703404340e+001°)
3.63078054770099e+003	(-1.48775948905797e+001dB,9.10171335816180e+001°)
3.71535229097170e+003	(-1.50775310535705e+001dB,9.09932356451214e+001°)
3.80189396320558e+003	(-1.52774700653171e+001dB,9.09698638916643e+001°)
3.89045144994278e+003	(-1.54774117965726e+001dB,9.09470059588399e+001°)
3.98107170553494e+003	(-1.56773561238484e+001dB,9.09246497547017e+001°)
4.07380277804110e+003	(-1.58773029291528e+001dB,9.09027834514833e+001°)
4.16869383470332e+003	(-1.60772520997417e+001dB,9.08813954794503e+001°)
4.26579518801589e+003	(-1.62772035278805e+001dB,9.08604745208807e+001°)
4.36515832240162e+003	(-1.64771571106156e+001dB,9.08400095041710e+001°)
4.46683592150960e+003	(-1.66771127495575e+001dB,9.08199895980659e+001°)
4.57088189614871e+003	(-1.68770703506720e+001dB,9.08004042060088e+001°)
4.67735141287194e+003	(-1.70770298240816e+001dB,9.07812429606103e+001°)
4.78630092322634e+003	(-1.72769910838753e+001dB,9.07624957182329e+001°)
4.89778819368442e+003	(-1.74769540479266e+001dB,9.07441525536879e+001°)
5.01187233627268e+003	(-1.76769186377200e+001dB,9.07262037550443e+001°)
5.12861383991361e+003	(-1.78768847781844e+001dB,9.07086398185455e+001°)
5.24807460249768e+003	(-1.80768523975349e+001dB,9.06914514436315e+001°)
5.37031796370248e+003	(-1.82768214271200e+001dB,9.06746295280656e+001°)
5.49540873857620e+003	(-1.84767918012768e+001dB,9.06581651631621e+001°)
5.62341325190344e+003	(-1.86767634571919e+001dB,9.06420496291125e+001°)
5.75439937337152e+003	(-1.88767363347682e+001dB,9.06262743904092e+001°)
5.88843655355584e+003	(-1.90767103764978e+001dB,9.06108310913638e+001°)
6.02559586074353e+003	(-1.92766855273401e+001dB,9.05957115517171e+001°)
