Freq.	V(v01)
1.00000000000000e+003	(-4.21711291954422e-002dB,1.78751153308673e+002°)
1.00461579027840e+003	(-4.21904347402580e-002dB,1.78745340169566e+002°)
1.00925288607668e+003	(-4.22099218942121e-002dB,1.78739499516560e+002°)
1.01391138573668e+003	(-4.22295923936029e-002dB,1.78733631213081e+002°)
1.01859138805412e+003	(-4.22494479918277e-002dB,1.78727735121793e+002°)
1.02329299228075e+003	(-4.22694904596097e-002dB,1.78721811104589e+002°)
1.02801629812647e+003	(-4.22897215851267e-002dB,1.78715859022583e+002°)
1.03276140576140e+003	(-4.23101431742535e-002dB,1.78709878736109e+002°)
1.03752841581801e+003	(-4.23307570506532e-002dB,1.78703870104712e+002°)
1.04231742939330e+003	(-4.23515650560838e-002dB,1.78697832987142e+002°)
1.04712854805090e+003	(-4.23725690504857e-002dB,1.78691767241354e+002°)
1.05196187382322e+003	(-4.23937709122115e-002dB,1.78685672724493e+002°)
1.05681750921366e+003	(-4.24151725382417e-002dB,1.78679549292897e+002°)
1.06169555719873e+003	(-4.24367758443605e-002dB,1.78673396802085e+002°)
1.06659612123026e+003	(-4.24585827653214e-002dB,1.78667215106754e+002°)
1.07151930523761e+003	(-4.24805952550844e-002dB,1.78661004060771e+002°)
1.07646521362984e+003	(-4.25028152870375e-002dB,1.78654763517170e+002°)
1.08143395129794e+003	(-4.25252448541340e-002dB,1.78648493328143e+002°)
1.08642562361707e+003	(-4.25478859691911e-002dB,1.78642193345034e+002°)
1.09144033644876e+003	(-4.25707406650054e-002dB,1.78635863418334e+002°)
1.09647819614319e+003	(-4.25938109945965e-002dB,1.78629503397675e+002°)
1.10153930954142e+003	(-4.26170990315175e-002dB,1.78623113131821e+002°)
1.10662378397767e+003	(-4.26406068698829e-002dB,1.78616692468665e+002°)
1.11173172728159e+003	(-4.26643366247457e-002dB,1.78610241255219e+002°)
1.11686324778056e+003	(-4.26882904322675e-002dB,1.78603759337610e+002°)
1.12201845430197e+003	(-4.27124704499320e-002dB,1.78597246561073e+002°)
1.12719745617551e+003	(-4.27368788567729e-002dB,1.78590702769942e+002°)
1.13240036323556e+003	(-4.27615178536379e-002dB,1.78584127807647e+002°)
1.13762728582343e+003	(-4.27863896633555e-002dB,1.78577521516704e+002°)
1.14287833478977e+003	(-4.28114965310646e-002dB,1.78570883738707e+002°)
1.14815362149688e+003	(-4.28368407243626e-002dB,1.78564214314327e+002°)
1.15345325782109e+003	(-4.28624245336005e-002dB,1.78557513083298e+002°)
1.15877735615513e+003	(-4.28882502720912e-002dB,1.78550779884414e+002°)
1.16412602941049e+003	(-4.29143202763753e-002dB,1.78544014555521e+002°)
1.16949939101987e+003	(-4.29406369065001e-002dB,1.78537216933506e+002°)
1.17489755493953e+003	(-4.29672025462057e-002dB,1.78530386854298e+002°)
1.18032063565173e+003	(-4.29940196032586e-002dB,1.78523524152851e+002°)
1.18576874816716e+003	(-4.30210905096336e-002dB,1.78516628663142e+002°)
1.19124200802738e+003	(-4.30484177218158e-002dB,1.78509700218164e+002°)
1.19674053130725e+003	(-4.30760037210679e-002dB,1.78502738649914e+002°)
1.20226443461742e+003	(-4.31038510137144e-002dB,1.78495743789389e+002°)
1.20781383510678e+003	(-4.31319621313471e-002dB,1.78488715466576e+002°)
1.21338885046498e+003	(-4.31603396311697e-002dB,1.78481653510446e+002°)
1.21898959892487e+003	(-4.31889860962671e-002dB,1.78474557748942e+002°)
1.22461619926505e+003	(-4.32179041358275e-002dB,1.78467428008978e+002°)
1.23026877081238e+003	(-4.32470963855008e-002dB,1.78460264116422e+002°)
1.23594743344451e+003	(-4.32765655076649e-002dB,1.78453065896096e+002°)
1.24165230759241e+003	(-4.33063141916724e-002dB,1.78445833171759e+002°)
1.24738351424295e+003	(-4.33363451542056e-002dB,1.78438565766108e+002°)
1.25314117494142e+003	(-4.33666611395474e-002dB,1.78431263500762e+002°)
1.25892541179417e+003	(-4.33972649198819e-002dB,1.78423926196256e+002°)
1.26473634747115e+003	(-4.34281592956412e-002dB,1.78416553672032e+002°)
1.27057410520855e+003	(-4.34593470957332e-002dB,1.78409145746431e+002°)
1.27643880881135e+003	(-4.34908311779513e-002dB,1.78401702236684e+002°)
1.28233058265603e+003	(-4.35226144291997e-002dB,1.78394222958901e+002°)
1.28824955169314e+003	(-4.35546997659379e-002dB,1.78386707728062e+002°)
1.29419584144999e+003	(-4.35870901343363e-002dB,1.78379156358011e+002°)
1.30016957803329e+003	(-4.36197885107633e-002dB,1.78371568661444e+002°)
1.30617088813185e+003	(-4.36527979020565e-002dB,1.78363944449899e+002°)
1.31219989901921e+003	(-4.36861213458149e-002dB,1.78356283533747e+002°)
1.31825673855641e+003	(-4.37197619108667e-002dB,1.78348585722184e+002°)
1.32434153519467e+003	(-4.37537226974517e-002dB,1.78340850823219e+002°)
1.33045441797810e+003	(-4.37880068377044e-002dB,1.78333078643665e+002°)
1.33659551654645e+003	(-4.38226174959998e-002dB,1.78325268989130e+002°)
1.34276496113787e+003	(-4.38575578691881e-002dB,1.78317421664003e+002°)
1.34896288259166e+003	(-4.38928311871205e-002dB,1.78309536471450e+002°)
1.35518941235104e+003	(-4.39284407129385e-002dB,1.78301613213398e+002°)
1.36144468246596e+003	(-4.39643897434293e-002dB,1.78293651690526e+002°)
1.36772882559585e+003	(-4.40006816094482e-002dB,1.78285651702258e+002°)
1.37404197501252e+003	(-4.40373196762894e-002dB,1.78277613046745e+002°)
1.38038426460289e+003	(-4.40743073440541e-002dB,1.78269535520864e+002°)
1.38675582887189e+003	(-4.41116480480946e-002dB,1.78261418920195e+002°)
1.39315680294531e+003	(-4.41493452593413e-002dB,1.78253263039023e+002°)
1.39958732257262e+003	(-4.41874024847690e-002dB,1.78245067670314e+002°)
1.40604752412992e+003	(-4.42258232677770e-002dB,1.78236832605715e+002°)
1.41253754462276e+003	(-4.42646111886096e-002dB,1.78228557635533e+002°)
1.41905752168910e+003	(-4.43037698647454e-002dB,1.78220242548731e+002°)
1.42560759360219e+003	(-4.43433029514026e-002dB,1.78211887132910e+002°)
1.43218789927355e+003	(-4.43832141418567e-002dB,1.78203491174303e+002°)
1.43879857825585e+003	(-4.44235071679870e-002dB,1.78195054457758e+002°)
1.44543977074593e+003	(-4.44641858006522e-002dB,1.78186576766727e+002°)
1.45211161758775e+003	(-4.45052538501305e-002dB,1.78178057883257e+002°)
1.45881426027536e+003	(-4.45467151666332e-002dB,1.78169497587973e+002°)
1.46554784095592e+003	(-4.45885736406999e-002dB,1.78160895660067e+002°)
1.47231250243273e+003	(-4.46308332037124e-002dB,1.78152251877287e+002°)
1.47910838816821e+003	(-4.46734978283086e-002dB,1.78143566015921e+002°)
1.48593564228701e+003	(-4.47165715289350e-002dB,1.78134837850788e+002°)
1.49279440957900e+003	(-4.47600583622684e-002dB,1.78126067155220e+002°)
1.49968483550238e+003	(-4.48039624277519e-002dB,1.78117253701052e+002°)
1.50660706618675e+003	(-4.48482878680321e-002dB,1.78108397258606e+002°)
1.51356124843622e+003	(-4.48930388695558e-002dB,1.78099497596680e+002°)
1.52054752973250e+003	(-4.49382196629652e-002dB,1.78090554482533e+002°)
1.52756605823808e+003	(-4.49838345237131e-002dB,1.78081567681869e+002°)
1.53461698279930e+003	(-4.50298877725120e-002dB,1.78072536958826e+002°)
1.54170045294957e+003	(-4.50763837759647e-002dB,1.78063462075960e+002°)
1.54881661891249e+003	(-4.51233269469670e-002dB,1.78054342794229e+002°)
1.55596563160508e+003	(-4.51707217453654e-002dB,1.78045178872981e+002°)
1.56314764264096e+003	(-4.52185726784709e-002dB,1.78035970069937e+002°)
1.57036280433356e+003	(-4.52668843015946e-002dB,1.78026716141179e+002°)
1.57761126969936e+003	(-4.53156612186544e-002dB,1.78017416841128e+002°)
1.58489319246112e+003	(-4.53649080827419e-002dB,1.78008071922537e+002°)
1.59220872705118e+003	(-4.54146295966732e-002dB,1.77998681136469e+002°)
1.59955802861468e+003	(-4.54648305136376e-002dB,1.77989244232284e+002°)
1.60694125301289e+003	(-4.55155156377431e-002dB,1.77979760957622e+002°)
1.61435855682650e+003	(-4.55666898246568e-002dB,1.77970231058387e+002°)
1.62181009735894e+003	(-4.56183579822181e-002dB,1.77960654278731e+002°)
1.62929603263973e+003	(-4.56705250710211e-002dB,1.77951030361035e+002°)
1.63681652142782e+003	(-4.57231961051293e-002dB,1.77941359045895e+002°)
1.64437172321494e+003	(-4.57763761526584e-002dB,1.77931640072106e+002°)
1.65196179822903e+003	(-4.58300703364035e-002dB,1.77921873176638e+002°)
1.65958690743757e+003	(-4.58842838345891e-002dB,1.77912058094627e+002°)
1.66724721255107e+003	(-4.59390218814391e-002dB,1.77902194559349e+002°)
1.67494287602645e+003	(-4.59942897679393e-002dB,1.77892282302211e+002°)
1.68267406107048e+003	(-4.60500928424686e-002dB,1.77882321052724e+002°)
1.69044093164328e+003	(-4.61064365115013e-002dB,1.77872310538490e+002°)
1.69824365246176e+003	(-4.61633262403716e-002dB,1.77862250485182e+002°)
1.70608238900314e+003	(-4.62207675538969e-002dB,1.77852140616524e+002°)
1.71395730750844e+003	(-4.62787660372041e-002dB,1.77841980654273e+002°)
1.72186857498602e+003	(-4.63373273363704e-002dB,1.77831770318199e+002°)
1.72981635921511e+003	(-4.63964571592702e-002dB,1.77821509326067e+002°)
1.73780082874939e+003	(-4.64561612762609e-002dB,1.77811197393614e+002°)
1.74582215292052e+003	(-4.65164455209728e-002dB,1.77800834234530e+002°)
1.75388050184177e+003	(-4.65773157911355e-002dB,1.77790419560440e+002°)
1.76197604641164e+003	(-4.66387780492601e-002dB,1.77779953080879e+002°)
1.77010895831743e+003	(-4.67008383235725e-002dB,1.77769434503277e+002°)
1.77827941003894e+003	(-4.67635027087521e-002dB,1.77758863532929e+002°)
1.78648757485206e+003	(-4.68267773667496e-002dB,1.77748239872982e+002°)
1.79473362683254e+003	(-4.68906685276984e-002dB,1.77737563224410e+002°)
1.80301774085958e+003	(-4.69551824906877e-002dB,1.77726833285988e+002°)
1.81134009261962e+003	(-4.70203256246637e-002dB,1.77716049754278e+002°)
1.81970085861000e+003	(-4.70861043692922e-002dB,1.77705212323597e+002°)
1.82810021614276e+003	(-4.71525252358650e-002dB,1.77694320686002e+002°)
1.83653834334836e+003	(-4.72195948081933e-002dB,1.77683374531261e+002°)
1.84501541917949e+003	(-4.72873197435286e-002dB,1.77672373546832e+002°)
1.85353162341483e+003	(-4.73557067734467e-002dB,1.77661317417840e+002°)
1.86208713666288e+003	(-4.74247627048769e-002dB,1.77650205827049e+002°)
1.87068214036582e+003	(-4.74944944209732e-002dB,1.77639038454841e+002°)
1.87931681680328e+003	(-4.75649088821387e-002dB,1.77627814979192e+002°)
1.88799134909631e+003	(-4.76360131269565e-002dB,1.77616535075640e+002°)
1.89670592121116e+003	(-4.77078142732867e-002dB,1.77605198417268e+002°)
1.90546071796326e+003	(-4.77803195191876e-002dB,1.77593804674674e+002°)
1.91425592502110e+003	(-4.78535361439597e-002dB,1.77582353515941e+002°)
1.92309172891017e+003	(-4.79274715092348e-002dB,1.77570844606619e+002°)
1.93196831701694e+003	(-4.80021330600003e-002dB,1.77559277609691e+002°)
1.94088587759280e+003	(-4.80775283256789e-002dB,1.77547652185547e+002°)
1.94984459975806e+003	(-4.81536649212494e-002dB,1.77535967991959e+002°)
1.95884467350601e+003	(-4.82305505483151e-002dB,1.77524224684049e+002°)
1.96788628970686e+003	(-4.83081929962923e-002dB,1.77512421914265e+002°)
1.97696964011188e+003	(-4.83866001434458e-002dB,1.77500559332347e+002°)
1.98609491735739e+003	(-4.84657799581898e-002dB,1.77488636585301e+002°)
1.99526231496890e+003	(-4.85457405001469e-002dB,1.77476653317370e+002°)
2.00447202736518e+003	(-4.86264899214155e-002dB,1.77464609170001e+002°)
2.01372424986241e+003	(-4.87080364677518e-002dB,1.77452503781816e+002°)
2.02301917867829e+003	(-4.87903884798559e-002dB,1.77440336788580e+002°)
2.03235701093624e+003	(-4.88735543945267e-002dB,1.77428107823172e+002°)
2.04173794466955e+003	(-4.89575427460516e-002dB,1.77415816515551e+002°)
2.05116217882559e+003	(-4.90423621674099e-002dB,1.77403462492725e+002°)
2.06062991327002e+003	(-4.91280213916072e-002dB,1.77391045378716e+002°)
2.07014134879106e+003	(-4.92145292530792e-002dB,1.77378564794530e+002°)
2.07969668710372e+003	(-4.93018946889151e-002dB,1.77366020358121e+002°)
2.08929613085406e+003	(-4.93901267403765e-002dB,1.77353411684358e+002°)
2.09893988362355e+003	(-4.94792345541554e-002dB,1.77340738384989e+002°)
2.10862814993331e+003	(-4.95692273839161e-002dB,1.77328000068607e+002°)
2.11836113524852e+003	(-4.96601145916514e-002dB,1.77315196340615e+002°)
2.12813904598273e+003	(-4.97519056492253e-002dB,1.77302326803187e+002°)
2.13796208950225e+003	(-4.98446101397512e-002dB,1.77289391055237e+002°)
2.14783047413056e+003	(-4.99382377592178e-002dB,1.77276388692375e+002°)
2.15774440915269e+003	(-5.00327983179738e-002dB,1.77263319306872e+002°)
2.16770410481972e+003	(-5.01283017422651e-002dB,1.77250182487625e+002°)
2.17770977235318e+003	(-5.02247580758654e-002dB,1.77236977820113e+002°)
2.18776162394958e+003	(-5.03221774816805e-002dB,1.77223704886361e+002°)
2.19785987278485e+003	(-5.04205702433432e-002dB,1.77210363264898e+002°)
2.20800473301892e+003	(-5.05199467669656e-002dB,1.77196952530719e+002°)
2.21819641980024e+003	(-5.06203175826897e-002dB,1.77183472255241e+002°)
2.22843514927033e+003	(-5.07216933465811e-002dB,1.77169922006263e+002°)
2.23872113856836e+003	(-5.08240848422276e-002dB,1.77156301347922e+002°)
2.24905460583581e+003	(-5.09275029825898e-002dB,1.77142609840655e+002°)
2.25943577022100e+003	(-5.10319588117831e-002dB,1.77128847041146e+002°)
2.26986485188385e+003	(-5.11374635069576e-002dB,1.77115012502293e+002°)
2.28034207200044e+003	(-5.12440283800728e-002dB,1.77101105773154e+002°)
2.29086765276780e+003	(-5.13516648798578e-002dB,1.77087126398905e+002°)
2.30144181740853e+003	(-5.14603845937324e-002dB,1.77073073920796e+002°)
2.31206479017562e+003	(-5.15701992497553e-002dB,1.77058947876100e+002°)
2.32273679635713e+003	(-5.16811207186369e-002dB,1.77044747798067e+002°)
2.33345806228103e+003	(-5.17931610157190e-002dB,1.77030473215877e+002°)
2.34422881531995e+003	(-5.19063323030727e-002dB,1.77016123654588e+002°)
2.35504928389604e+003	(-5.20206468916100e-002dB,1.77001698635090e+002°)
2.36591969748579e+003	(-5.21361172431162e-002dB,1.76987197674050e+002°)
2.37684028662490e+003	(-5.22527559725596e-002dB,1.76972620283866e+002°)
2.38781128291321e+003	(-5.23705758501851e-002dB,1.76957965972608e+002°)
2.39883291901952e+003	(-5.24895898037900e-002dB,1.76943234243973e+002°)
2.40990542868662e+003	(-5.26098109209842e-002dB,1.76928424597224e+002°)
2.42102904673621e+003	(-5.27312524515413e-002dB,1.76913536527142e+002°)
2.43220400907384e+003	(-5.28539278097283e-002dB,1.76898569523964e+002°)
2.44343055269400e+003	(-5.29778505767212e-002dB,1.76883523073333e+002°)
2.45470891568506e+003	(-5.31030345030002e-002dB,1.76868396656236e+002°)
2.46603933723437e+003	(-5.32294935109027e-002dB,1.76853189748951e+002°)
2.47742205763332e+003	(-5.33572416970726e-002dB,1.76837901822983e+002°)
2.48885731828242e+003	(-5.34862933350784e-002dB,1.76822532345008e+002°)
2.50034536169646e+003	(-5.36166628780019e-002dB,1.76807080776809e+002°)
2.51188643150961e+003	(-5.37483649611003e-002dB,1.76791546575220e+002°)
2.52348077248061e+003	(-5.38814144045281e-002dB,1.76775929192057e+002°)
2.53512863049794e+003	(-5.40158262160347e-002dB,1.76760228074057e+002°)
2.54683025258507e+003	(-5.41516155938696e-002dB,1.76744442662815e+002°)
2.55858588690568e+003	(-5.42887979294893e-002dB,1.76728572394718e+002°)
2.57039578276890e+003	(-5.44273888105907e-002dB,1.76712616700876e+002°)
2.58226019063463e+003	(-5.45674040239919e-002dB,1.76696575007055e+002°)
2.59417936211885e+003	(-5.47088595586482e-002dB,1.76680446733613e+002°)
2.60615354999893e+003	(-5.48517716087252e-002dB,1.76664231295422e+002°)
2.61818300821902e+003	(-5.49961565766868e-002dB,1.76647928101804e+002°)
2.63026799189542e+003	(-5.51420310764854e-002dB,1.76631536556456e+002°)
2.64240875732198e+003	(-5.52894119367883e-002dB,1.76615056057379e+002°)
2.65460556197557e+003	(-5.54383162042708e-002dB,1.76598485996798e+002°)
2.66685866452151e+003	(-5.55887611469152e-002dB,1.76581825761095e+002°)
2.67916832481907e+003	(-5.57407642574732e-002dB,1.76565074730723e+002°)
2.69153480392695e+003	(-5.58943432568858e-002dB,1.76548232280138e+002°)
2.70395836410888e+003	(-5.60495160978705e-002dB,1.76531297777710e+002°)
2.71643926883912e+003	(-5.62063009684482e-002dB,1.76514270585648e+002°)
2.72897778280808e+003	(-5.63647162956425e-002dB,1.76497150059919e+002°)
2.74157417192792e+003	(-5.65247807492295e-002dB,1.76479935550160e+002°)
2.75422870333820e+003	(-5.66865132454990e-002dB,1.76462626399599e+002°)
2.76694164541155e+003	(-5.68499329511097e-002dB,1.76445221944965e+002°)
2.77971326775933e+003	(-5.70150592871172e-002dB,1.76427721516403e+002°)
2.79254384123738e+003	(-5.71819119328516e-002dB,1.76410124437382e+002°)
2.80543363795175e+003	(-5.73505108301269e-002dB,1.76392430024610e+002°)
2.81838293126449e+003	(-5.75208761873615e-002dB,1.76374637587938e+002°)
2.83139199579942e+003	(-5.76930284838111e-002dB,1.76356746430270e+002°)
2.84446110744795e+003	(-5.78669884739105e-002dB,1.76338755847464e+002°)
2.85759054337499e+003	(-5.80427771916569e-002dB,1.76320665128239e+002°)
2.87078058202473e+003	(-5.82204159551357e-002dB,1.76302473554077e+002°)
2.88403150312665e+003	(-5.83999263710716e-002dB,1.76284180399122e+002°)
2.89734358770136e+003	(-5.85813303394909e-002dB,1.76265784930079e+002°)
2.91071711806665e+003	(-5.87646500584665e-002dB,1.76247286406112e+002°)
2.92415237784338e+003	(-5.89499080290261e-002dB,1.76228684078739e+002°)
2.93764965196157e+003	(-5.91371270599583e-002dB,1.76209977191725e+002°)
2.95120922666643e+003	(-5.93263302730002e-002dB,1.76191164980973e+002°)
2.96483138952438e+003	(-5.95175411078207e-002dB,1.76172246674415e+002°)
2.97851642942923e+003	(-5.97107833273464e-002dB,1.76153221491902e+002°)
2.99226463660823e+003	(-5.99060810230845e-002dB,1.76134088645085e+002°)
3.00607630262827e+003	(-6.01034586205044e-002dB,1.76114847337305e+002°)
3.01995172040206e+003	(-6.03029408846289e-002dB,1.76095496763472e+002°)
3.03389118419431e+003	(-6.05045529256548e-002dB,1.76076036109942e+002°)
3.04789498962803e+003	(-6.07083202047585e-002dB,1.76056464554404e+002°)
3.06196343369072e+003	(-6.09142685398901e-002dB,1.76036781265747e+002°)
3.07609681474075e+003	(-6.11224241118709e-002dB,1.76016985403938e+002°)
3.09029543251364e+003	(-6.13328134704202e-002dB,1.75997076119895e+002°)
3.10455958812840e+003	(-6.15454635404313e-002dB,1.75977052555352e+002°)
3.11888958409398e+003	(-6.17604016283184e-002dB,1.75956913842730e+002°)
3.13328572431563e+003	(-6.19776554285037e-002dB,1.75936659105002e+002°)
3.14774831410136e+003	(-6.21972530300557e-002dB,1.75916287455550e+002°)
3.16227766016843e+003	(-6.24192229233734e-002dB,1.75895797998033e+002°)
3.17687407064982e+003	(-6.26435940071640e-002dB,1.75875189826237e+002°)
3.19153785510081e+003	(-6.28703955954281e-002dB,1.75854462023938e+002°)
3.20626932450551e+003	(-6.30996574245724e-002dB,1.75833613664744e+002°)
3.22106879128348e+003	(-6.33314096608620e-002dB,1.75812643811956e+002°)
3.23593656929633e+003	(-6.35656829077670e-002dB,1.75791551518408e+002°)
3.25087297385439e+003	(-6.38025082136151e-002dB,1.75770335826312e+002°)
3.26587832172341e+003	(-6.40419170794049e-002dB,1.75748995767103e+002°)
3.28095293113124e+003	(-6.42839414667165e-002dB,1.75727530361275e+002°)
3.29609712177463e+003	(-6.45286138058203e-002dB,1.75705938618218e+002°)
3.31131121482596e+003	(-6.47759670039586e-002dB,1.75684219536049e+002°)
3.32659553294010e+003	(-6.50260344537646e-002dB,1.75662372101445e+002°)
3.34195040026120e+003	(-6.52788500419314e-002dB,1.75640395289467e+002°)
3.35737614242960e+003	(-6.55344481579760e-002dB,1.75618288063386e+002°)
3.37287308658874e+003	(-6.57928637032406e-002dB,1.75596049374502e+002°)
3.38844156139208e+003	(-6.60541321000751e-002dB,1.75573678161959e+002°)
3.40408189701006e+003	(-6.63182893012213e-002dB,1.75551173352565e+002°)
3.41979442513714e+003	(-6.65853717993610e-002dB,1.75528533860595e+002°)
3.43557947899880e+003	(-6.68554166369631e-002dB,1.75505758587602e+002°)
3.45143739335862e+003	(-6.71284614161483e-002dB,1.75482846422220e+002°)
3.46736850452537e+003	(-6.74045443090295e-002dB,1.75459796239962e+002°)
3.48337315036018e+003	(-6.76837040680407e-002dB,1.75436606903018e+002°)
3.49945167028363e+003	(-6.79659800366219e-002dB,1.75413277260044e+002°)
3.51560440528304e+003	(-6.82514121601044e-002dB,1.75389806145953e+002°)
3.53183169791963e+003	(-6.85400409967963e-002dB,1.75366192381697e+002°)
3.54813389233581e+003	(-6.88319077294019e-002dB,1.75342434774050e+002°)
3.56451133426250e+003	(-6.91270541765309e-002dB,1.75318532115379e+002°)
