Freq.	V(v02)
1.00000000000000e+003	(4.02128658453216e-001dB,1.79056391289381e+002°)
1.00461579027840e+003	(4.02097855554875e-001dB,1.79052003075452e+002°)
1.00925288607668e+003	(4.02066764632729e-001dB,1.79047594149000e+002°)
1.01391138573668e+003	(4.02035382965393e-001dB,1.79043164408002e+002°)
1.01859138805412e+003	(4.02003707805230e-001dB,1.79038713749873e+002°)
1.02329299228075e+003	(4.01971736378124e-001dB,1.79034242071462e+002°)
1.02801629812647e+003	(4.01939465883127e-001dB,1.79029749269050e+002°)
1.03276140576140e+003	(4.01906893492341e-001dB,1.79025235238345e+002°)
1.03752841581801e+003	(4.01874016350509e-001dB,1.79020699874475e+002°)
1.04231742939330e+003	(4.01840831574781e-001dB,1.79016143071990e+002°)
1.04712854805090e+003	(4.01807336254477e-001dB,1.79011564724854e+002°)
1.05196187382322e+003	(4.01773527450773e-001dB,1.79006964726439e+002°)
1.05681750921366e+003	(4.01739402196412e-001dB,1.79002342969526e+002°)
1.06169555719873e+003	(4.01704957495417e-001dB,1.78997699346297e+002°)
1.06659612123026e+003	(4.01670190322849e-001dB,1.78993033748333e+002°)
1.07151930523761e+003	(4.01635097624433e-001dB,1.78988346066608e+002°)
1.07646521362984e+003	(4.01599676316328e-001dB,1.78983636191486e+002°)
1.08143395129794e+003	(4.01563923284825e-001dB,1.78978904012714e+002°)
1.08642562361707e+003	(4.01527835385990e-001dB,1.78974149419422e+002°)
1.09144033644876e+003	(4.01491409445418e-001dB,1.78969372300116e+002°)
1.09647819614319e+003	(4.01454642257929e-001dB,1.78964572542673e+002°)
1.10153930954142e+003	(4.01417530587136e-001dB,1.78959750034336e+002°)
1.10662378397767e+003	(4.01380071165339e-001dB,1.78954904661714e+002°)
1.11173172728159e+003	(4.01342260693036e-001dB,1.78950036310770e+002°)
1.11686324778056e+003	(4.01304095838602e-001dB,1.78945144866823e+002°)
1.12201845430197e+003	(4.01265573238099e-001dB,1.78940230214541e+002°)
1.12719745617551e+003	(4.01226689494832e-001dB,1.78935292237934e+002°)
1.13240036323556e+003	(4.01187441179033e-001dB,1.78930330820352e+002°)
1.13762728582343e+003	(4.01147824827548e-001dB,1.78925345844480e+002°)
1.14287833478977e+003	(4.01107836943466e-001dB,1.78920337192331e+002°)
1.14815362149688e+003	(4.01067473995845e-001dB,1.78915304745243e+002°)
1.15345325782109e+003	(4.01026732419257e-001dB,1.78910248383873e+002°)
1.15877735615513e+003	(4.00985608613517e-001dB,1.78905167988194e+002°)
1.16412602941049e+003	(4.00944098943310e-001dB,1.78900063437486e+002°)
1.16949939101987e+003	(4.00902199737793e-001dB,1.78894934610336e+002°)
1.17489755493953e+003	(4.00859907290317e-001dB,1.78889781384626e+002°)
1.18032063565173e+003	(4.00817217857945e-001dB,1.78884603637534e+002°)
1.18576874816716e+003	(4.00774127661172e-001dB,1.78879401245528e+002°)
1.19124200802738e+003	(4.00730632883484e-001dB,1.78874174084355e+002°)
1.19674053130725e+003	(4.00686729671071e-001dB,1.78868922029043e+002°)
1.20226443461742e+003	(4.00642414132310e-001dB,1.78863644953891e+002°)
1.20781383510678e+003	(4.00597682337503e-001dB,1.78858342732464e+002°)
1.21338885046498e+003	(4.00552530318395e-001dB,1.78853015237587e+002°)
1.21898959892487e+003	(4.00506954067814e-001dB,1.78847662341344e+002°)
1.22461619926505e+003	(4.00460949539272e-001dB,1.78842283915065e+002°)
1.23026877081238e+003	(4.00414512646533e-001dB,1.78836879829325e+002°)
1.23594743344451e+003	(4.00367639263269e-001dB,1.78831449953938e+002°)
1.24165230759241e+003	(4.00320325222532e-001dB,1.78825994157948e+002°)
1.24738351424295e+003	(4.00272566316421e-001dB,1.78820512309628e+002°)
1.25314117494142e+003	(4.00224358295646e-001dB,1.78815004276469e+002°)
1.25892541179417e+003	(4.00175696869062e-001dB,1.78809469925178e+002°)
1.26473634747115e+003	(4.00126577703276e-001dB,1.78803909121666e+002°)
1.27057410520855e+003	(4.00076996422154e-001dB,1.78798321731052e+002°)
1.27643880881135e+003	(4.00026948606445e-001dB,1.78792707617644e+002°)
1.28233058265603e+003	(3.99976429793273e-001dB,1.78787066644944e+002°)
1.28824955169314e+003	(3.99925435475713e-001dB,1.78781398675634e+002°)
1.29419584144999e+003	(3.99873961102298e-001dB,1.78775703571574e+002°)
1.30016957803329e+003	(3.99822002076603e-001dB,1.78769981193793e+002°)
1.30617088813185e+003	(3.99769553756752e-001dB,1.78764231402482e+002°)
1.31219989901921e+003	(3.99716611454877e-001dB,1.78758454056990e+002°)
1.31825673855641e+003	(3.99663170436781e-001dB,1.78752649015815e+002°)
1.32434153519467e+003	(3.99609225921300e-001dB,1.78746816136597e+002°)
1.33045441797810e+003	(3.99554773079915e-001dB,1.78740955276115e+002°)
1.33659551654645e+003	(3.99499807036179e-001dB,1.78735066290273e+002°)
1.34276496113787e+003	(3.99444322865263e-001dB,1.78729149034098e+002°)
1.34896288259166e+003	(3.99388315593424e-001dB,1.78723203361734e+002°)
1.35518941235104e+003	(3.99331780197504e-001dB,1.78717229126430e+002°)
1.36144468246596e+003	(3.99274711604373e-001dB,1.78711226180535e+002°)
1.36772882559585e+003	(3.99217104690439e-001dB,1.78705194375493e+002°)
1.37404197501252e+003	(3.99158954281107e-001dB,1.78699133561832e+002°)
1.38038426460289e+003	(3.99100255150197e-001dB,1.78693043589158e+002°)
1.38675582887189e+003	(3.99041002019482e-001dB,1.78686924306147e+002°)
1.39315680294531e+003	(3.98981189558027e-001dB,1.78680775560536e+002°)
1.39958732257262e+003	(3.98920812381686e-001dB,1.78674597199121e+002°)
1.40604752412992e+003	(3.98859865052578e-001dB,1.78668389067740e+002°)
1.41253754462276e+003	(3.98798342078420e-001dB,1.78662151011273e+002°)
1.41905752168910e+003	(3.98736237911998e-001dB,1.78655882873628e+002°)
1.42560759360219e+003	(3.98673546950599e-001dB,1.78649584497739e+002°)
1.43218789927355e+003	(3.98610263535359e-001dB,1.78643255725551e+002°)
1.43879857825585e+003	(3.98546381950747e-001dB,1.78636896398017e+002°)
1.44543977074593e+003	(3.98481896423844e-001dB,1.78630506355086e+002°)
1.45211161758775e+003	(3.98416801123822e-001dB,1.78624085435698e+002°)
1.45881426027536e+003	(3.98351090161267e-001dB,1.78617633477772e+002°)
1.46554784095592e+003	(3.98284757587599e-001dB,1.78611150318198e+002°)
1.47231250243273e+003	(3.98217797394359e-001dB,1.78604635792829e+002°)
1.47910838816821e+003	(3.98150203512638e-001dB,1.78598089736474e+002°)
1.48593564228701e+003	(3.98081969812383e-001dB,1.78591511982885e+002°)
1.49279440957900e+003	(3.98013090101750e-001dB,1.78584902364749e+002°)
1.49968483550238e+003	(3.97943558126404e-001dB,1.78578260713679e+002°)
1.50660706618675e+003	(3.97873367568898e-001dB,1.78571586860209e+002°)
1.51356124843622e+003	(3.97802512047929e-001dB,1.78564880633775e+002°)
1.52054752973250e+003	(3.97730985117684e-001dB,1.78558141862714e+002°)
1.52756605823808e+003	(3.97658780267121e-001dB,1.78551370374252e+002°)
1.53461698279930e+003	(3.97585890919254e-001dB,1.78544565994491e+002°)
1.54170045294957e+003	(3.97512310430424e-001dB,1.78537728548404e+002°)
1.54881661891249e+003	(3.97438032089630e-001dB,1.78530857859820e+002°)
1.55596563160508e+003	(3.97363049117708e-001dB,1.78523953751417e+002°)
1.56314764264096e+003	(3.97287354666628e-001dB,1.78517016044713e+002°)
1.57036280433356e+003	(3.97210941818734e-001dB,1.78510044560051e+002°)
1.57761126969936e+003	(3.97133803585992e-001dB,1.78503039116593e+002°)
1.58489319246112e+003	(3.97055932909145e-001dB,1.78495999532304e+002°)
1.59220872705118e+003	(3.96977322657076e-001dB,1.78488925623950e+002°)
1.59955802861468e+003	(3.96897965625841e-001dB,1.78481817207077e+002°)
1.60694125301289e+003	(3.96817854537960e-001dB,1.78474674096006e+002°)
1.61435855682650e+003	(3.96736982041614e-001dB,1.78467496103822e+002°)
1.62181009735894e+003	(3.96655340709791e-001dB,1.78460283042358e+002°)
1.62929603263973e+003	(3.96572923039439e-001dB,1.78453034722190e+002°)
1.63681652142782e+003	(3.96489721450607e-001dB,1.78445750952620e+002°)
1.64437172321494e+003	(3.96405728285711e-001dB,1.78438431541667e+002°)
1.65196179822903e+003	(3.96320935808470e-001dB,1.78431076296054e+002°)
1.65958690743757e+003	(3.96235336203216e-001dB,1.78423685021196e+002°)
1.66724721255107e+003	(3.96148921573865e-001dB,1.78416257521189e+002°)
1.67494287602645e+003	(3.96061683943110e-001dB,1.78408793598796e+002°)
1.68267406107048e+003	(3.95973615251480e-001dB,1.78401293055437e+002°)
1.69044093164328e+003	(3.95884707356387e-001dB,1.78393755691174e+002°)
1.69824365246176e+003	(3.95794952031221e-001dB,1.78386181304697e+002°)
1.70608238900314e+003	(3.95704340964429e-001dB,1.78378569693315e+002°)
1.71395730750844e+003	(3.95612865758486e-001dB,1.78370920652942e+002°)
1.72186857498602e+003	(3.95520517929020e-001dB,1.78363233978079e+002°)
1.72981635921511e+003	(3.95427288903706e-001dB,1.78355509461806e+002°)
1.73780082874939e+003	(3.95333170021404e-001dB,1.78347746895769e+002°)
1.74582215292052e+003	(3.95238152531023e-001dB,1.78339946070159e+002°)
1.75388050184177e+003	(3.95142227590606e-001dB,1.78332106773705e+002°)
1.76197604641164e+003	(3.95045386266240e-001dB,1.78324228793659e+002°)
1.77010895831743e+003	(3.94947619531008e-001dB,1.78316311915778e+002°)
1.77827941003894e+003	(3.94848918263918e-001dB,1.78308355924313e+002°)
1.78648757485206e+003	(3.94749273248865e-001dB,1.78300360601992e+002°)
1.79473362683254e+003	(3.94648675173548e-001dB,1.78292325730008e+002°)
1.80301774085958e+003	(3.94547114628263e-001dB,1.78284251088000e+002°)
1.81134009261962e+003	(3.94444582104927e-001dB,1.78276136454041e+002°)
1.81970085861000e+003	(3.94341067995859e-001dB,1.78267981604621e+002°)
1.82810021614276e+003	(3.94236562592613e-001dB,1.78259786314633e+002°)
1.83653834334836e+003	(3.94131056084856e-001dB,1.78251550357354e+002°)
1.84501541917949e+003	(3.94024538559235e-001dB,1.78243273504432e+002°)
1.85353162341483e+003	(3.93916999998062e-001dB,1.78234955525867e+002°)
1.86208713666288e+003	(3.93808430278218e-001dB,1.78226596189999e+002°)
1.87068214036582e+003	(3.93698819169829e-001dB,1.78218195263485e+002°)
1.87931681680328e+003	(3.93588156335112e-001dB,1.78209752511287e+002°)
1.88799134909631e+003	(3.93476431327063e-001dB,1.78201267696653e+002°)
1.89670592121116e+003	(3.93363633588158e-001dB,1.78192740581101e+002°)
1.90546071796326e+003	(3.93249752449122e-001dB,1.78184170924398e+002°)
1.91425592502110e+003	(3.93134777127589e-001dB,1.78175558484546e+002°)
1.92309172891017e+003	(3.93018696726749e-001dB,1.78166903017762e+002°)
1.93196831701694e+003	(3.92901500234029e-001dB,1.78158204278460e+002°)
1.94088587759280e+003	(3.92783176519728e-001dB,1.78149462019232e+002°)
1.94984459975806e+003	(3.92663714335600e-001dB,1.78140675990830e+002°)
1.95884467350601e+003	(3.92543102313494e-001dB,1.78131845942148e+002°)
1.96788628970686e+003	(3.92421328963891e-001dB,1.78122971620199e+002°)
1.97696964011188e+003	(3.92298382674499e-001dB,1.78114052770100e+002°)
1.98609491735739e+003	(3.92174251708782e-001dB,1.78105089135046e+002°)
1.99526231496890e+003	(3.92048924204440e-001dB,1.78096080456299e+002°)
2.00447202736518e+003	(3.91922388171934e-001dB,1.78087026473159e+002°)
2.01372424986241e+003	(3.91794631493013e-001dB,1.78077926922947e+002°)
2.02301917867829e+003	(3.91665641919072e-001dB,1.78068781540986e+002°)
2.03235701093624e+003	(3.91535407069640e-001dB,1.78059590060575e+002°)
2.04173794466955e+003	(3.91403914430805e-001dB,1.78050352212971e+002°)
2.05116217882559e+003	(3.91271151353589e-001dB,1.78041067727367e+002°)
2.06062991327002e+003	(3.91137105052271e-001dB,1.78031736330869e+002°)
2.07014134879106e+003	(3.91001762602811e-001dB,1.78022357748473e+002°)
2.07969668710372e+003	(3.90865110941135e-001dB,1.78012931703043e+002°)
2.08929613085406e+003	(3.90727136861377e-001dB,1.78003457915290e+002°)
2.09893988362355e+003	(3.90587827014274e-001dB,1.77993936103745e+002°)
2.10862814993331e+003	(3.90447167905311e-001dB,1.77984365984736e+002°)
2.11836113524852e+003	(3.90305145892949e-001dB,1.77974747272369e+002°)
2.12813904598273e+003	(3.90161747186896e-001dB,1.77965079678495e+002°)
2.13796208950225e+003	(3.90016957846240e-001dB,1.77955362912693e+002°)
2.14783047413056e+003	(3.89870763777550e-001dB,1.77945596682241e+002°)
2.15774440915269e+003	(3.89723150733067e-001dB,1.77935780692092e+002°)
2.16770410481972e+003	(3.89574104308773e-001dB,1.77925914644848e+002°)
2.17770977235318e+003	(3.89423609942424e-001dB,1.77915998240733e+002°)
2.18776162394958e+003	(3.89271652911632e-001dB,1.77906031177569e+002°)
2.19785987278485e+003	(3.89118218331860e-001dB,1.77896013150745e+002°)
2.20800473301892e+003	(3.88963291154391e-001dB,1.77885943853195e+002°)
2.21819641980024e+003	(3.88806856164264e-001dB,1.77875822975366e+002°)
2.22843514927033e+003	(3.88648897978225e-001dB,1.77865650205192e+002°)
2.23872113856836e+003	(3.88489401042651e-001dB,1.77855425228065e+002°)
2.24905460583581e+003	(3.88328349631296e-001dB,1.77845147726809e+002°)
2.25943577022100e+003	(3.88165727843224e-001dB,1.77834817381644e+002°)
2.26986485188385e+003	(3.88001519600545e-001dB,1.77824433870164e+002°)
2.28034207200044e+003	(3.87835708646225e-001dB,1.77813996867303e+002°)
2.29086765276780e+003	(3.87668278541742e-001dB,1.77803506045304e+002°)
2.30144181740853e+003	(3.87499212664903e-001dB,1.77792961073690e+002°)
2.31206479017562e+003	(3.87328494207338e-001dB,1.77782361619231e+002°)
2.32273679635713e+003	(3.87156106172298e-001dB,1.77771707345914e+002°)
2.33345806228103e+003	(3.86982031372095e-001dB,1.77760997914908e+002°)
2.34422881531995e+003	(3.86806252425781e-001dB,1.77750232984534e+002°)
2.35504928389604e+003	(3.86628751756555e-001dB,1.77739412210231e+002°)
2.36591969748579e+003	(3.86449511589374e-001dB,1.77728535244521e+002°)
2.37684028662490e+003	(3.86268513948229e-001dB,1.77717601736975e+002°)
2.38781128291321e+003	(3.86085740653659e-001dB,1.77706611334178e+002°)
2.39883291901952e+003	(3.85901173320137e-001dB,1.77695563679698e+002°)
2.40990542868662e+003	(3.85714793353299e-001dB,1.77684458414043e+002°)
2.42102904673621e+003	(3.85526581947269e-001dB,1.77673295174629e+002°)
2.43220400907384e+003	(3.85336520081910e-001dB,1.77662073595744e+002°)
2.44343055269400e+003	(3.85144588520025e-001dB,1.77650793308508e+002°)
2.45470891568506e+003	(3.84950767804467e-001dB,1.77639453940837e+002°)
2.46603933723437e+003	(3.84755038255284e-001dB,1.77628055117400e+002°)
2.47742205763332e+003	(3.84557379966796e-001dB,1.77616596459589e+002°)
2.48885731828242e+003	(3.84357772804561e-001dB,1.77605077585468e+002°)
2.50034536169646e+003	(3.84156196402421e-001dB,1.77593498109742e+002°)
2.51188643150961e+003	(3.83952630159342e-001dB,1.77581857643712e+002°)
2.52348077248061e+003	(3.83747053236337e-001dB,1.77570155795231e+002°)
2.53512863049794e+003	(3.83539444553326e-001dB,1.77558392168667e+002°)
2.54683025258507e+003	(3.83329782785846e-001dB,1.77546566364858e+002°)
2.55858588690568e+003	(3.83118046361808e-001dB,1.77534677981068e+002°)
2.57039578276890e+003	(3.82904213458162e-001dB,1.77522726610940e+002°)
2.58226019063463e+003	(3.82688261997564e-001dB,1.77510711844460e+002°)
2.59417936211885e+003	(3.82470169644825e-001dB,1.77498633267900e+002°)
2.60615354999893e+003	(3.82249913803566e-001dB,1.77486490463781e+002°)
2.61818300821902e+003	(3.82027471612612e-001dB,1.77474283010822e+002°)
2.63026799189542e+003	(3.81802819942324e-001dB,1.77462010483891e+002°)
2.64240875732198e+003	(3.81575935391048e-001dB,1.77449672453961e+002°)
2.65460556197557e+003	(3.81346794281348e-001dB,1.77437268488057e+002°)
2.66685866452151e+003	(3.81115372656192e-001dB,1.77424798149207e+002°)
2.67916832481907e+003	(3.80881646275184e-001dB,1.77412260996392e+002°)
2.69153480392695e+003	(3.80645590610606e-001dB,1.77399656584494e+002°)
2.70395836410888e+003	(3.80407180843459e-001dB,1.77386984464244e+002°)
2.71643926883912e+003	(3.80166391859421e-001dB,1.77374244182168e+002°)
2.72897778280808e+003	(3.79923198244792e-001dB,1.77361435280534e+002°)
2.74157417192792e+003	(3.79677574282300e-001dB,1.77348557297296e+002°)
2.75422870333820e+003	(3.79429493946796e-001dB,1.77335609766040e+002°)
2.76694164541155e+003	(3.79178930901095e-001dB,1.77322592215927e+002°)
2.77971326775933e+003	(3.78925858491436e-001dB,1.77309504171631e+002°)
2.79254384123738e+003	(3.78670249743154e-001dB,1.77296345153290e+002°)
2.80543363795175e+003	(3.78412077356074e-001dB,1.77283114676436e+002°)
2.81838293126449e+003	(3.78151313699971e-001dB,1.77269812251943e+002°)
2.83139199579942e+003	(3.77887930809813e-001dB,1.77256437385961e+002°)
2.84446110744795e+003	(3.77621900381071e-001dB,1.77242989579855e+002°)
2.85759054337499e+003	(3.77353193764837e-001dB,1.77229468330141e+002°)
2.87078058202473e+003	(3.77081781962915e-001dB,1.77215873128425e+002°)
2.88403150312665e+003	(3.76807635622791e-001dB,1.77202203461332e+002°)
2.89734358770136e+003	(3.76530725032590e-001dB,1.77188458810445e+002°)
2.91071711806665e+003	(3.76251020115856e-001dB,1.77174638652232e+002°)
2.92415237784338e+003	(3.75968490426263e-001dB,1.77160742457985e+002°)
2.93764965196157e+003	(3.75683105142307e-001dB,1.77146769693740e+002°)
2.95120922666643e+003	(3.75394833061824e-001dB,1.77132719820216e+002°)
2.96483138952438e+003	(3.75103642596392e-001dB,1.77118592292736e+002°)
2.97851642942923e+003	(3.74809501765816e-001dB,1.77104386561158e+002°)
2.99226463660823e+003	(3.74512378192203e-001dB,1.77090102069798e+002°)
3.00607630262827e+003	(3.74212239094310e-001dB,1.77075738257353e+002°)
3.01995172040206e+003	(3.73909051281424e-001dB,1.77061294556829e+002°)
3.03389118419431e+003	(3.73602781147419e-001dB,1.77046770395457e+002°)
3.04789498962803e+003	(3.73293394664544e-001dB,1.77032165194619e+002°)
3.06196343369072e+003	(3.72980857377169e-001dB,1.77017478369760e+002°)
3.07609681474075e+003	(3.72665134395424e-001dB,1.77002709330312e+002°)
3.09029543251364e+003	(3.72346190388646e-001dB,1.76987857479608e+002°)
3.10455958812840e+003	(3.72023989578817e-001dB,1.76972922214795e+002°)
3.11888958409398e+003	(3.71698495733813e-001dB,1.76957902926752e+002°)
3.13328572431563e+003	(3.71369672160569e-001dB,1.76942798999995e+002°)
3.14774831410136e+003	(3.71037481698051e-001dB,1.76927609812595e+002°)
3.16227766016843e+003	(3.70701886710248e-001dB,1.76912334736082e+002°)
3.17687407064982e+003	(3.70362849078812e-001dB,1.76896973135352e+002°)
3.19153785510081e+003	(3.70020330195819e-001dB,1.76881524368576e+002°)
3.20626932450551e+003	(3.69674290956189e-001dB,1.76865987787104e+002°)
3.22106879128348e+003	(3.69324691750051e-001dB,1.76850362735361e+002°)
3.23593656929633e+003	(3.68971492455010e-001dB,1.76834648550757e+002°)
3.25087297385439e+003	(3.68614652428192e-001dB,1.76818844563579e+002°)
3.26587832172341e+003	(3.68254130498200e-001dB,1.76802950096892e+002°)
3.28095293113124e+003	(3.67889884956847e-001dB,1.76786964466433e+002°)
3.29609712177463e+003	(3.67521873550832e-001dB,1.76770886980503e+002°)
3.31131121482596e+003	(3.67150053473168e-001dB,1.76754716939862e+002°)
3.32659553294010e+003	(3.66774381354559e-001dB,1.76738453637618e+002°)
3.34195040026120e+003	(3.66394813254453e-001dB,1.76722096359112e+002°)
3.35737614242960e+003	(3.66011304652105e-001dB,1.76705644381807e+002°)
3.37287308658874e+003	(3.65623810437359e-001dB,1.76689096975172e+002°)
3.38844156139208e+003	(3.65232284901231e-001dB,1.76672453400561e+002°)
3.40408189701006e+003	(3.64836681726439e-001dB,1.76655712911093e+002°)
3.41979442513714e+003	(3.64436953977625e-001dB,1.76638874751534e+002°)
3.43557947899880e+003	(3.64033054091460e-001dB,1.76621938158167e+002°)
3.45143739335862e+003	(3.63624933866548e-001dB,1.76604902358666e+002°)
3.46736850452537e+003	(3.63212544453047e-001dB,1.76587766571970e+002°)
3.48337315036018e+003	(3.62795836342324e-001dB,1.76570530008148e+002°)
3.49945167028363e+003	(3.62374759356057e-001dB,1.76553191868265e+002°)
3.51560440528304e+003	(3.61949262635487e-001dB,1.76535751344249e+002°)
3.53183169791963e+003	(3.61519294630150e-001dB,1.76518207618747e+002°)
3.54813389233581e+003	(3.61084803086666e-001dB,1.76500559864989e+002°)
3.56451133426250e+003	(3.60645735037018e-001dB,1.76482807246639e+002°)
3.58096437102642e+003	(3.60202036786890e-001dB,1.76464948917651e+002°)
3.59749335155748e+003	(3.59753653903552e-001dB,1.76446984022118e+002°)
3.61409862639620e+003	(3.59300531203588e-001dB,1.76428911694122e+002°)
3.63078054770108e+003	(3.58842612740387e-001dB,1.76410731057577e+002°)
