Freq.	V(v02)
1.00000000000000e+003	(4.02128658453216e-001dB,1.79056391289381e+002°)
1.00046062307284e+003	(4.02125591047427e-001dB,1.79055953397156e+002°)
1.00092145831930e+003	(4.02122520785690e-001dB,1.79055515298719e+002°)
1.00138250583710e+003	(4.02119447665321e-001dB,1.79055076993969e+002°)
1.00184376572403e+003	(4.02116371683641e-001dB,1.79054638482806e+002°)
1.00230523807790e+003	(4.02113292837952e-001dB,1.79054199765127e+002°)
1.00276692299659e+003	(4.02110211125535e-001dB,1.79053760840832e+002°)
1.00322882057800e+003	(4.02107126543732e-001dB,1.79053321709818e+002°)
1.00369093092010e+003	(4.02104039089814e-001dB,1.79052882371985e+002°)
1.00415325412088e+003	(4.02100948761109e-001dB,1.79052442827230e+002°)
1.00461579027840e+003	(4.02097855554875e-001dB,1.79052003075452e+002°)
1.00507853949074e+003	(4.02094759468426e-001dB,1.79051563116549e+002°)
1.00554150185604e+003	(4.02091660499058e-001dB,1.79051122950420e+002°)
1.00600467747250e+003	(4.02088558644052e-001dB,1.79050682576963e+002°)
1.00646806643833e+003	(4.02085453900677e-001dB,1.79050241996075e+002°)
1.00693166885180e+003	(4.02082346266252e-001dB,1.79049801207655e+002°)
1.00739548481125e+003	(4.02079235738019e-001dB,1.79049360211601e+002°)
1.00785951441503e+003	(4.02076122313279e-001dB,1.79048919007810e+002°)
1.00832375776155e+003	(4.02073005989301e-001dB,1.79048477596181e+002°)
1.00878821494927e+003	(4.02069886763369e-001dB,1.79048035976612e+002°)
1.00925288607668e+003	(4.02066764632727e-001dB,1.79047594149000e+002°)
1.00971777124234e+003	(4.02063639594657e-001dB,1.79047152113243e+002°)
1.01018287054483e+003	(4.02060511646421e-001dB,1.79046709869239e+002°)
1.01064818408279e+003	(4.02057380785283e-001dB,1.79046267416885e+002°)
1.01111371195491e+003	(4.02054247008498e-001dB,1.79045824756079e+002°)
1.01157945425990e+003	(4.02051110313318e-001dB,1.79045381886718e+002°)
1.01204541109654e+003	(4.02047970697013e-001dB,1.79044938808700e+002°)
1.01251158256366e+003	(4.02044828156813e-001dB,1.79044495521922e+002°)
1.01297796876010e+003	(4.02041682689984e-001dB,1.79044052026281e+002°)
1.01344456978479e+003	(4.02038534293752e-001dB,1.79043608321676e+002°)
1.01391138573668e+003	(4.02035382965393e-001dB,1.79043164408002e+002°)
1.01437841671477e+003	(4.02032228702115e-001dB,1.79042720285158e+002°)
1.01484566281810e+003	(4.02029071501179e-001dB,1.79042275953039e+002°)
1.01531312414576e+003	(4.02025911359799e-001dB,1.79041831411544e+002°)
1.01578080079690e+003	(4.02022748275228e-001dB,1.79041386660570e+002°)
1.01624869287070e+003	(4.02019582244670e-001dB,1.79040941700012e+002°)
1.01671680046638e+003	(4.02016413265380e-001dB,1.79040496529769e+002°)
1.01718512368322e+003	(4.02013241334580e-001dB,1.79040051149737e+002°)
1.01765366262053e+003	(4.02010066449466e-001dB,1.79039605559812e+002°)
1.01812241737770e+003	(4.02006888607285e-001dB,1.79039159759892e+002°)
1.01859138805412e+003	(4.02003707805228e-001dB,1.79038713749873e+002°)
1.01906057474925e+003	(4.02000524040540e-001dB,1.79038267529651e+002°)
1.01952997756260e+003	(4.01997337310409e-001dB,1.79037821099124e+002°)
1.01999959659372e+003	(4.01994147612051e-001dB,1.79037374458187e+002°)
1.02046943194220e+003	(4.01990954942668e-001dB,1.79036927606738e+002°)
1.02093948370768e+003	(4.01987759299468e-001dB,1.79036480544672e+002°)
1.02140975198985e+003	(4.01984560679655e-001dB,1.79036033271885e+002°)
1.02188023688844e+003	(4.01981359080414e-001dB,1.79035585788275e+002°)
1.02235093850323e+003	(4.01978154498954e-001dB,1.79035138093737e+002°)
1.02282185693405e+003	(4.01974946932453e-001dB,1.79034690188167e+002°)
1.02329299228076e+003	(4.01971736378124e-001dB,1.79034242071462e+002°)
1.02376434464328e+003	(4.01968522833112e-001dB,1.79033793743517e+002°)
1.02423591412157e+003	(4.01965306294647e-001dB,1.79033345204229e+002°)
1.02470770081565e+003	(4.01962086759891e-001dB,1.79032896453493e+002°)
1.02517970482556e+003	(4.01958864226015e-001dB,1.79032447491205e+002°)
1.02565192625141e+003	(4.01955638690218e-001dB,1.79031998317261e+002°)
1.02612436519334e+003	(4.01952410149656e-001dB,1.79031548931557e+002°)
1.02659702175155e+003	(4.01949178601488e-001dB,1.79031099333988e+002°)
1.02706989602628e+003	(4.01945944042904e-001dB,1.79030649524450e+002°)
1.02754298811781e+003	(4.01942706471074e-001dB,1.79030199502839e+002°)
1.02801629812647e+003	(4.01939465883127e-001dB,1.79029749269050e+002°)
1.02848982615265e+003	(4.01936222276260e-001dB,1.79029298822979e+002°)
1.02896357229675e+003	(4.01932975647611e-001dB,1.79028848164520e+002°)
1.02943753665927e+003	(4.01929725994336e-001dB,1.79028397293570e+002°)
1.02991171934070e+003	(4.01926473313596e-001dB,1.79027946210023e+002°)
1.03038612044162e+003	(4.01923217602524e-001dB,1.79027494913775e+002°)
1.03086074006263e+003	(4.01919958858281e-001dB,1.79027043404721e+002°)
1.03133557830439e+003	(4.01916697077994e-001dB,1.79026591682756e+002°)
1.03181063526759e+003	(4.01913432258831e-001dB,1.79026139747775e+002°)
1.03228591105300e+003	(4.01910164397904e-001dB,1.79025687599673e+002°)
1.03276140576140e+003	(4.01906893492341e-001dB,1.79025235238345e+002°)
1.03323711949363e+003	(4.01903619539309e-001dB,1.79024782663686e+002°)
1.03371305235059e+003	(4.01900342535921e-001dB,1.79024329875590e+002°)
1.03418920443319e+003	(4.01897062479291e-001dB,1.79023876873953e+002°)
1.03466557584244e+003	(4.01893779366549e-001dB,1.79023423658669e+002°)
1.03514216667934e+003	(4.01890493194844e-001dB,1.79022970229632e+002°)
1.03561897704499e+003	(4.01887203961251e-001dB,1.79022516586738e+002°)
1.03609600704049e+003	(4.01883911662919e-001dB,1.79022062729881e+002°)
1.03657325676701e+003	(4.01880616296930e-001dB,1.79021608658955e+002°)
1.03705072632576e+003	(4.01877317860424e-001dB,1.79021154373855e+002°)
1.03752841581801e+003	(4.01874016350509e-001dB,1.79020699874475e+002°)
1.03800632534507e+003	(4.01870711764269e-001dB,1.79020245160709e+002°)
1.03848445500828e+003	(4.01867404098816e-001dB,1.79019790232452e+002°)
1.03896280490904e+003	(4.01864093351237e-001dB,1.79019335089598e+002°)
1.03944137514880e+003	(4.01860779518663e-001dB,1.79018879732040e+002°)
1.03992016582906e+003	(4.01857462598145e-001dB,1.79018424159673e+002°)
1.04039917705135e+003	(4.01854142586791e-001dB,1.79017968372391e+002°)
1.04087840891727e+003	(4.01850819481707e-001dB,1.79017512370088e+002°)
1.04135786152844e+003	(4.01847493279940e-001dB,1.79017056152658e+002°)
1.04183753498654e+003	(4.01844163978618e-001dB,1.79016599719994e+002°)
1.04231742939331e+003	(4.01840831574781e-001dB,1.79016143071990e+002°)
1.04279754485051e+003	(4.01837496065528e-001dB,1.79015686208541e+002°)
1.04327788145997e+003	(4.01834157447925e-001dB,1.79015229129539e+002°)
1.04375843932355e+003	(4.01830815719034e-001dB,1.79014771834878e+002°)
1.04423921854318e+003	(4.01827470875959e-001dB,1.79014314324452e+002°)
1.04472021922080e+003	(4.01824122915720e-001dB,1.79013856598154e+002°)
1.04520144145844e+003	(4.01820771835398e-001dB,1.79013398655877e+002°)
1.04568288535814e+003	(4.01817417632072e-001dB,1.79012940497516e+002°)
1.04616455102201e+003	(4.01814060302764e-001dB,1.79012482122963e+002°)
1.04664643855220e+003	(4.01810699844551e-001dB,1.79012023532111e+002°)
1.04712854805090e+003	(4.01807336254473e-001dB,1.79011564724854e+002°)
1.04761087962036e+003	(4.01803969529606e-001dB,1.79011105701084e+002°)
1.04809343336288e+003	(4.01800599666949e-001dB,1.79010646460695e+002°)
1.04857620938077e+003	(4.01797226663586e-001dB,1.79010187003580e+002°)
1.04905920777645e+003	(4.01793850516534e-001dB,1.79009727329632e+002°)
1.04954242865232e+003	(4.01790471222845e-001dB,1.79009267438743e+002°)
1.05002587211089e+003	(4.01787088779529e-001dB,1.79008807330807e+002°)
1.05050953825466e+003	(4.01783703183653e-001dB,1.79008347005715e+002°)
1.05099342718622e+003	(4.01780314432204e-001dB,1.79007886463362e+002°)
1.05147753900818e+003	(4.01776922522238e-001dB,1.79007425703639e+002°)
1.05196187382322e+003	(4.01773527450774e-001dB,1.79006964726439e+002°)
1.05244643173406e+003	(4.01770129214842e-001dB,1.79006503531654e+002°)
1.05293121284344e+003	(4.01766727811405e-001dB,1.79006042119177e+002°)
1.05341621725419e+003	(4.01763323237543e-001dB,1.79005580488901e+002°)
1.05390144506916e+003	(4.01759915490242e-001dB,1.79005118640717e+002°)
1.05438689639126e+003	(4.01756504566500e-001dB,1.79004656574519e+002°)
1.05487257132344e+003	(4.01753090463341e-001dB,1.79004194290197e+002°)
1.05535846996870e+003	(4.01749673177745e-001dB,1.79003731787645e+002°)
1.05584459243008e+003	(4.01746252706728e-001dB,1.79003269066755e+002°)
1.05633093881069e+003	(4.01742829047291e-001dB,1.79002806127417e+002°)
1.05681750921366e+003	(4.01739402196412e-001dB,1.79002342969526e+002°)
1.05730430374219e+003	(4.01735972151095e-001dB,1.79001879592971e+002°)
1.05779132249950e+003	(4.01732538908323e-001dB,1.79001415997646e+002°)
1.05827856558890e+003	(4.01729102465078e-001dB,1.79000952183442e+002°)
1.05876603311370e+003	(4.01725662818351e-001dB,1.79000488150250e+002°)
1.05925372517729e+003	(4.01722219965133e-001dB,1.79000023897963e+002°)
1.05974164188310e+003	(4.01718773902360e-001dB,1.78999559426472e+002°)
1.06022978333460e+003	(4.01715324627039e-001dB,1.78999094735668e+002°)
1.06071814963532e+003	(4.01711872136125e-001dB,1.78998629825443e+002°)
1.06120674088882e+003	(4.01708416426595e-001dB,1.78998164695689e+002°)
1.06169555719873e+003	(4.01704957495421e-001dB,1.78997699346297e+002°)
1.06218459866871e+003	(4.01701495339552e-001dB,1.78997233777158e+002°)
1.06267386540247e+003	(4.01698029955953e-001dB,1.78996767988163e+002°)
1.06316335750378e+003	(4.01694561341564e-001dB,1.78996301979204e+002°)
1.06365307507644e+003	(4.01691089493363e-001dB,1.78995835750171e+002°)
1.06414301822432e+003	(4.01687614408288e-001dB,1.78995369300957e+002°)
1.06463318705131e+003	(4.01684136083282e-001dB,1.78994902631451e+002°)
1.06512358166138e+003	(4.01680654515295e-001dB,1.78994435741545e+002°)
1.06561420215852e+003	(4.01677169701266e-001dB,1.78993968631129e+002°)
1.06610504864678e+003	(4.01673681638145e-001dB,1.78993501300095e+002°)
1.06659612123026e+003	(4.01670190322849e-001dB,1.78993033748333e+002°)
1.06708742001310e+003	(4.01666695752324e-001dB,1.78992565975734e+002°)
1.06757894509950e+003	(4.01663197923478e-001dB,1.78992097982189e+002°)
1.06807069659369e+003	(4.01659696833267e-001dB,1.78991629767587e+002°)
1.06856267459996e+003	(4.01656192478618e-001dB,1.78991161331820e+002°)
1.06905487922266e+003	(4.01652684856401e-001dB,1.78990692674779e+002°)
1.06954731056616e+003	(4.01649173963601e-001dB,1.78990223796353e+002°)
1.07003996873490e+003	(4.01645659797082e-001dB,1.78989754696432e+002°)
1.07053285383337e+003	(4.01642142353777e-001dB,1.78989285374908e+002°)
1.07102596596607e+003	(4.01638621630599e-001dB,1.78988815831670e+002°)
1.07151930523761e+003	(4.01635097624432e-001dB,1.78988346066608e+002°)
1.07201287175260e+003	(4.01631570332200e-001dB,1.78987876079613e+002°)
1.07250666561571e+003	(4.01628039750782e-001dB,1.78987405870575e+002°)
1.07300068693166e+003	(4.01624505877103e-001dB,1.78986935439383e+002°)
1.07349493580524e+003	(4.01620968708037e-001dB,1.78986464785927e+002°)
1.07398941234125e+003	(4.01617428240482e-001dB,1.78985993910098e+002°)
1.07448411664456e+003	(4.01613884471333e-001dB,1.78985522811785e+002°)
1.07497904882009e+003	(4.01610337397465e-001dB,1.78985051490877e+002°)
1.07547420897279e+003	(4.01606787015751e-001dB,1.78984579947265e+002°)
1.07596959720769e+003	(4.01603233323082e-001dB,1.78984108180838e+002°)
1.07646521362984e+003	(4.01599676316332e-001dB,1.78983636191486e+002°)
1.07696105834435e+003	(4.01596115992368e-001dB,1.78983163979097e+002°)
1.07745713145637e+003	(4.01592552348074e-001dB,1.78982691543562e+002°)
1.07795343307111e+003	(4.01588985380289e-001dB,1.78982218884770e+002°)
1.07844996329383e+003	(4.01585415085906e-001dB,1.78981746002610e+002°)
1.07894672222983e+003	(4.01581841461787e-001dB,1.78981272896971e+002°)
1.07944370998446e+003	(4.01578264504762e-001dB,1.78980799567742e+002°)
1.07994092666311e+003	(4.01574684211703e-001dB,1.78980326014813e+002°)
1.08043837237123e+003	(4.01571100579455e-001dB,1.78979852238073e+002°)
1.08093604721433e+003	(4.01567513604889e-001dB,1.78979378237410e+002°)
1.08143395129794e+003	(4.01563923284825e-001dB,1.78978904012714e+002°)
1.08193208472766e+003	(4.01560329616102e-001dB,1.78978429563873e+002°)
1.08243044760913e+003	(4.01556732595586e-001dB,1.78977954890776e+002°)
1.08292904004805e+003	(4.01553132220076e-001dB,1.78977479993312e+002°)
1.08342786215014e+003	(4.01549528486453e-001dB,1.78977004871369e+002°)
1.08392691402121e+003	(4.01545921391509e-001dB,1.78976529524837e+002°)
1.08442619576708e+003	(4.01542310932070e-001dB,1.78976053953603e+002°)
1.08492570749364e+003	(4.01538697104986e-001dB,1.78975578157556e+002°)
1.08542544930683e+003	(4.01535079907075e-001dB,1.78975102136585e+002°)
1.08592542131263e+003	(4.01531459335138e-001dB,1.78974625890578e+002°)
1.08642562361707e+003	(4.01527835385992e-001dB,1.78974149419422e+002°)
1.08692605632623e+003	(4.01524208056452e-001dB,1.78973672723008e+002°)
1.08742671954625e+003	(4.01520577343329e-001dB,1.78973195801221e+002°)
1.08792761338329e+003	(4.01516943243437e-001dB,1.78972718653952e+002°)
1.08842873794360e+003	(4.01513305753565e-001dB,1.78972241281087e+002°)
1.08893009333344e+003	(4.01509664870519e-001dB,1.78971763682514e+002°)
1.08943167965914e+003	(4.01506020591097e-001dB,1.78971285858122e+002°)
1.08993349702707e+003	(4.01502372912090e-001dB,1.78970807807799e+002°)
1.09043554554366e+003	(4.01498721830283e-001dB,1.78970329531432e+002°)
1.09093782531539e+003	(4.01495067342471e-001dB,1.78969851028908e+002°)
1.09144033644876e+003	(4.01491409445417e-001dB,1.78969372300116e+002°)
1.09194307905036e+003	(4.01487748135942e-001dB,1.78968893344944e+002°)
1.09244605322680e+003	(4.01484083410804e-001dB,1.78968414163278e+002°)
1.09294925908475e+003	(4.01480415266753e-001dB,1.78967934755006e+002°)
1.09345269673092e+003	(4.01476743700592e-001dB,1.78967455120016e+002°)
1.09395636627210e+003	(4.01473068709077e-001dB,1.78966975258194e+002°)
1.09446026781508e+003	(4.01469390288983e-001dB,1.78966495169429e+002°)
1.09496440146675e+003	(4.01465708437055e-001dB,1.78966014853607e+002°)
1.09546876733400e+003	(4.01462023150059e-001dB,1.78965534310616e+002°)
1.09597336552381e+003	(4.01458334424763e-001dB,1.78965053540342e+002°)
1.09647819614319e+003	(4.01454642257925e-001dB,1.78964572542673e+002°)
1.09698325929920e+003	(4.01450946646272e-001dB,1.78964091317495e+002°)
1.09748855509895e+003	(4.01447247586539e-001dB,1.78963609864696e+002°)
1.09799408364961e+003	(4.01443545075507e-001dB,1.78963128184163e+002°)
1.09849984505838e+003	(4.01439839109894e-001dB,1.78962646275781e+002°)
1.09900583943252e+003	(4.01436129686434e-001dB,1.78962164139438e+002°)
1.09951206687935e+003	(4.01432416801878e-001dB,1.78961681775021e+002°)
1.10001852750622e+003	(4.01428700452942e-001dB,1.78961199182416e+002°)
1.10052522142055e+003	(4.01424980636360e-001dB,1.78960716361509e+002°)
1.10103214872978e+003	(4.01421257348856e-001dB,1.78960233312187e+002°)
1.10153930954142e+003	(4.01417530587138e-001dB,1.78959750034336e+002°)
1.10204670396303e+003	(4.01413800347947e-001dB,1.78959266527843e+002°)
1.10255433210223e+003	(4.01410066627986e-001dB,1.78958782792595e+002°)
1.10306219406665e+003	(4.01406329423972e-001dB,1.78958298828476e+002°)
1.10357028996402e+003	(4.01402588732604e-001dB,1.78957814635373e+002°)
1.10407861990208e+003	(4.01398844550584e-001dB,1.78957330213173e+002°)
1.10458718398863e+003	(4.01395096874648e-001dB,1.78956845561761e+002°)
1.10509598233154e+003	(4.01391345701444e-001dB,1.78956360681023e+002°)
1.10560501503871e+003	(4.01387591027701e-001dB,1.78955875570846e+002°)
1.10611428221808e+003	(4.01383832850110e-001dB,1.78955390231114e+002°)
1.10662378397767e+003	(4.01380071165339e-001dB,1.78954904661714e+002°)
1.10713352042552e+003	(4.01376305970118e-001dB,1.78954418862531e+002°)
1.10764349166975e+003	(4.01372537261069e-001dB,1.78953932833451e+002°)
1.10815369781849e+003	(4.01368765034913e-001dB,1.78953446574360e+002°)
1.10866413897996e+003	(4.01364989288333e-001dB,1.78952960085142e+002°)
1.10917481526241e+003	(4.01361210017974e-001dB,1.78952473365684e+002°)
1.10968572677413e+003	(4.01357427220516e-001dB,1.78951986415871e+002°)
1.11019687362348e+003	(4.01353640892630e-001dB,1.78951499235588e+002°)
1.11070825591887e+003	(4.01349851030981e-001dB,1.78951011824720e+002°)
1.11121987376874e+003	(4.01346057632230e-001dB,1.78950524183152e+002°)
1.11173172728160e+003	(4.01342260693034e-001dB,1.78950036310770e+002°)
1.11224381656599e+003	(4.01338460210027e-001dB,1.78949548207458e+002°)
1.11275614173052e+003	(4.01334656179889e-001dB,1.78949059873102e+002°)
1.11326870288385e+003	(4.01330848599248e-001dB,1.78948571307586e+002°)
1.11378150013467e+003	(4.01327037464754e-001dB,1.78948082510796e+002°)
1.11429453359173e+003	(4.01323222773061e-001dB,1.78947593482615e+002°)
1.11480780336385e+003	(4.01319404520786e-001dB,1.78947104222929e+002°)
1.11532130955986e+003	(4.01315582704573e-001dB,1.78946614731622e+002°)
1.11583505228867e+003	(4.01311757321057e-001dB,1.78946125008580e+002°)
1.11634903165924e+003	(4.01307928366854e-001dB,1.78945635053685e+002°)
1.11686324778057e+003	(4.01304095838604e-001dB,1.78945144866823e+002°)
1.11737770076170e+003	(4.01300259732915e-001dB,1.78944654447879e+002°)
1.11789239071175e+003	(4.01296420046398e-001dB,1.78944163796736e+002°)
1.11840731773986e+003	(4.01292576775700e-001dB,1.78943672913279e+002°)
1.11892248195525e+003	(4.01288729917416e-001dB,1.78943181797392e+002°)
1.11943788346716e+003	(4.01284879468131e-001dB,1.78942690448958e+002°)
1.11995352238489e+003	(4.01281025424474e-001dB,1.78942198867863e+002°)
1.12046939881781e+003	(4.01277167783056e-001dB,1.78941707053990e+002°)
1.12098551287532e+003	(4.01273306540458e-001dB,1.78941215007223e+002°)
1.12150186466687e+003	(4.01269441693280e-001dB,1.78940722727445e+002°)
1.12201845430197e+003	(4.01265573238099e-001dB,1.78940230214541e+002°)
1.12253528189017e+003	(4.01261701171531e-001dB,1.78939737468395e+002°)
1.12305234754109e+003	(4.01257825490142e-001dB,1.78939244488889e+002°)
1.12356965136437e+003	(4.01253946190524e-001dB,1.78938751275908e+002°)
1.12408719346973e+003	(4.01250063269247e-001dB,1.78938257829335e+002°)
1.12460497396693e+003	(4.01246176722898e-001dB,1.78937764149053e+002°)
1.12512299296577e+003	(4.01242286548032e-001dB,1.78937270234947e+002°)
1.12564125057611e+003	(4.01238392741233e-001dB,1.78936776086898e+002°)
1.12615974690787e+003	(4.01234495299063e-001dB,1.78936281704791e+002°)
1.12667848207100e+003	(4.01230594218070e-001dB,1.78935787088509e+002°)
1.12719745617552e+003	(4.01226689494832e-001dB,1.78935292237934e+002°)
1.12771666933148e+003	(4.01222781125892e-001dB,1.78934797152950e+002°)
1.12823612164900e+003	(4.01218869107813e-001dB,1.78934301833440e+002°)
1.12875581323824e+003	(4.01214953437137e-001dB,1.78933806279287e+002°)
1.12927574420942e+003	(4.01211034110399e-001dB,1.78933310490373e+002°)
1.12979591467280e+003	(4.01207111124161e-001dB,1.78932814466582e+002°)
1.13031632473870e+003	(4.01203184474941e-001dB,1.78932318207795e+002°)
1.13083697451748e+003	(4.01199254159297e-001dB,1.78931821713897e+002°)
1.13135786411957e+003	(4.01195320173736e-001dB,1.78931324984768e+002°)
1.13187899365542e+003	(4.01191382514800e-001dB,1.78930828020293e+002°)
1.13240036323556e+003	(4.01187441179026e-001dB,1.78930330820352e+002°)
1.13292197297056e+003	(4.01183496162920e-001dB,1.78929833384830e+002°)
1.13344382297104e+003	(4.01179547462999e-001dB,1.78929335713607e+002°)
1.13396591334767e+003	(4.01175595075775e-001dB,1.78928837806566e+002°)
1.13448824421117e+003	(4.01171638997781e-001dB,1.78928339663590e+002°)
1.13501081567232e+003	(4.01167679225509e-001dB,1.78927841284561e+002°)
1.13553362784194e+003	(4.01163715755452e-001dB,1.78927342669360e+002°)
1.13605668083091e+003	(4.01159748584133e-001dB,1.78926843817869e+002°)
1.13657997475016e+003	(4.01155777708049e-001dB,1.78926344729971e+002°)
1.13710350971066e+003	(4.01151803123684e-001dB,1.78925845405548e+002°)
1.13762728582344e+003	(4.01147824827543e-001dB,1.78925345844480e+002°)
