Freq.	V(v03)
1.00000000000000e+003	(3.20142604554655e-001dB,1.78815910348995e+002°)
1.00461579027840e+003	(3.20195227056010e-001dB,1.78810380030579e+002°)
1.00925288607668e+003	(3.20248340320922e-001dB,1.78804823276540e+002°)
1.01391138573668e+003	(3.20301948962344e-001dB,1.78799239952043e+002°)
1.01859138805412e+003	(3.20356057637203e-001dB,1.78793629921449e+002°)
1.02329299228075e+003	(3.20410671046941e-001dB,1.78787993048308e+002°)
1.02801629812647e+003	(3.20465793937893e-001dB,1.78782329195352e+002°)
1.03276140576140e+003	(3.20521431101681e-001dB,1.78776638224490e+002°)
1.03752841581801e+003	(3.20577587375767e-001dB,1.78770919996800e+002°)
1.04231742939330e+003	(3.20634267643861e-001dB,1.78765174372524e+002°)
1.04712854805090e+003	(3.20691476836317e-001dB,1.78759401211058e+002°)
1.05196187382322e+003	(3.20749219930657e-001dB,1.78753600370950e+002°)
1.05681750921366e+003	(3.20807501952070e-001dB,1.78747771709890e+002°)
1.06169555719873e+003	(3.20866327973761e-001dB,1.78741915084702e+002°)
1.06659612123026e+003	(3.20925703117543e-001dB,1.78736030351342e+002°)
1.07151930523761e+003	(3.20985632554277e-001dB,1.78730117364884e+002°)
1.07646521362984e+003	(3.21046121504306e-001dB,1.78724175979520e+002°)
1.08143395129794e+003	(3.21107175238068e-001dB,1.78718206048547e+002°)
1.08642562361707e+003	(3.21168799076422e-001dB,1.78712207424363e+002°)
1.09144033644876e+003	(3.21230998391314e-001dB,1.78706179958457e+002°)
1.09647819614319e+003	(3.21293778606189e-001dB,1.78700123501407e+002°)
1.10153930954142e+003	(3.21357145196502e-001dB,1.78694037902865e+002°)
1.10662378397767e+003	(3.21421103690275e-001dB,1.78687923011554e+002°)
1.11173172728159e+003	(3.21485659668592e-001dB,1.78681778675259e+002°)
1.11686324778056e+003	(3.21550818766103e-001dB,1.78675604740821e+002°)
1.12201845430197e+003	(3.21616586671659e-001dB,1.78669401054126e+002°)
1.12719745617551e+003	(3.21682969128676e-001dB,1.78663167460099e+002°)
1.13240036323556e+003	(3.21749971935876e-001dB,1.78656903802696e+002°)
1.13762728582343e+003	(3.21817600947685e-001dB,1.78650609924893e+002°)
1.14287833478977e+003	(3.21885862074824e-001dB,1.78644285668685e+002°)
1.14815362149688e+003	(3.21954761284978e-001dB,1.78637930875067e+002°)
1.15345325782109e+003	(3.22024304603170e-001dB,1.78631545384034e+002°)
1.15877735615513e+003	(3.22094498112501e-001dB,1.78625129034572e+002°)
1.16412602941049e+003	(3.22165347954678e-001dB,1.78618681664642e+002°)
1.16949939101987e+003	(3.22236860330527e-001dB,1.78612203111181e+002°)
1.17489755493953e+003	(3.22309041500719e-001dB,1.78605693210085e+002°)
1.18032063565173e+003	(3.22381897786246e-001dB,1.78599151796206e+002°)
1.18576874816716e+003	(3.22455435569124e-001dB,1.78592578703340e+002°)
1.19124200802738e+003	(3.22529661292913e-001dB,1.78585973764217e+002°)
1.19674053130725e+003	(3.22604581463390e-001dB,1.78579336810494e+002°)
1.20226443461742e+003	(3.22680202649164e-001dB,1.78572667672745e+002°)
1.20781383510678e+003	(3.22756531482312e-001dB,1.78565966180451e+002°)
1.21338885046498e+003	(3.22833574659029e-001dB,1.78559232161990e+002°)
1.21898959892487e+003	(3.22911338940203e-001dB,1.78552465444629e+002°)
1.22461619926505e+003	(3.22989831152149e-001dB,1.78545665854512e+002°)
1.23026877081238e+003	(3.23069058187234e-001dB,1.78538833216652e+002°)
1.23594743344451e+003	(3.23149027004522e-001dB,1.78531967354920e+002°)
1.24165230759241e+003	(3.23229744630493e-001dB,1.78525068092033e+002°)
1.24738351424295e+003	(3.23311218159684e-001dB,1.78518135249550e+002°)
1.25314117494142e+003	(3.23393454755416e-001dB,1.78511168647853e+002°)
1.25892541179417e+003	(3.23476461650432e-001dB,1.78504168106142e+002°)
1.26473634747115e+003	(3.23560246147648e-001dB,1.78497133442424e+002°)
1.27057410520855e+003	(3.23644815620828e-001dB,1.78490064473500e+002°)
1.27643880881135e+003	(3.23730177515354e-001dB,1.78482961014956e+002°)
1.28233058265603e+003	(3.23816339348890e-001dB,1.78475822881150e+002°)
1.28824955169314e+003	(3.23903308712163e-001dB,1.78468649885204e+002°)
1.29419584144999e+003	(3.23991093269673e-001dB,1.78461441838990e+002°)
1.30016957803329e+003	(3.24079700760456e-001dB,1.78454198553118e+002°)
1.30617088813185e+003	(3.24169138998844e-001dB,1.78446919836926e+002°)
1.31219989901921e+003	(3.24259415875226e-001dB,1.78439605498469e+002°)
1.31825673855641e+003	(3.24350539356828e-001dB,1.78432255344505e+002°)
1.32434153519467e+003	(3.24442517488492e-001dB,1.78424869180485e+002°)
1.33045441797810e+003	(3.24535358393471e-001dB,1.78417446810538e+002°)
1.33659551654645e+003	(3.24629070274214e-001dB,1.78409988037462e+002°)
1.34276496113787e+003	(3.24723661413226e-001dB,1.78402492662709e+002°)
1.34896288259166e+003	(3.24819140173794e-001dB,1.78394960486373e+002°)
1.35518941235104e+003	(3.24915515000925e-001dB,1.78387391307179e+002°)
1.36144468246596e+003	(3.25012794422080e-001dB,1.78379784922466e+002°)
1.36772882559585e+003	(3.25110987048094e-001dB,1.78372141128179e+002°)
1.37404197501252e+003	(3.25210101574009e-001dB,1.78364459718851e+002°)
1.38038426460289e+003	(3.25310146779905e-001dB,1.78356740487593e+002°)
1.38675582887189e+003	(3.25411131531826e-001dB,1.78348983226078e+002°)
1.39315680294531e+003	(3.25513064782657e-001dB,1.78341187724528e+002°)
1.39958732257262e+003	(3.25615955572938e-001dB,1.78333353771703e+002°)
1.40604752412992e+003	(3.25719813031917e-001dB,1.78325481154879e+002°)
1.41253754462276e+003	(3.25824646378317e-001dB,1.78317569659844e+002°)
1.41905752168910e+003	(3.25930464921356e-001dB,1.78309619070874e+002°)
1.42560759360219e+003	(3.26037278061613e-001dB,1.78301629170725e+002°)
1.43218789927355e+003	(3.26145095292049e-001dB,1.78293599740615e+002°)
1.43879857825585e+003	(3.26253926198904e-001dB,1.78285530560209e+002°)
1.44543977074593e+003	(3.26363780462685e-001dB,1.78277421407605e+002°)
1.45211161758775e+003	(3.26474667859115e-001dB,1.78269272059317e+002°)
1.45881426027536e+003	(3.26586598260222e-001dB,1.78261082290261e+002°)
1.46554784095592e+003	(3.26699581635150e-001dB,1.78252851873737e+002°)
1.47231250243273e+003	(3.26813628051392e-001dB,1.78244580581416e+002°)
1.47910838816821e+003	(3.26928747675663e-001dB,1.78236268183321e+002°)
1.48593564228701e+003	(3.27044950774945e-001dB,1.78227914447810e+002°)
1.49279440957900e+003	(3.27162247717616e-001dB,1.78219519141564e+002°)
1.49968483550238e+003	(3.27280648974441e-001dB,1.78211082029563e+002°)
1.50660706618675e+003	(3.27400165119634e-001dB,1.78202602875074e+002°)
1.51356124843622e+003	(3.27520806831996e-001dB,1.78194081439634e+002°)
1.52054752973250e+003	(3.27642584895967e-001dB,1.78185517483028e+002°)
1.52756605823808e+003	(3.27765510202742e-001dB,1.78176910763276e+002°)
1.53461698279930e+003	(3.27889593751376e-001dB,1.78168261036610e+002°)
1.54170045294957e+003	(3.28014846649995e-001dB,1.78159568057461e+002°)
1.54881661891249e+003	(3.28141280116800e-001dB,1.78150831578436e+002°)
1.55596563160508e+003	(3.28268905481353e-001dB,1.78142051350302e+002°)
1.56314764264096e+003	(3.28397734185718e-001dB,1.78133227121965e+002°)
1.57036280433356e+003	(3.28527777785611e-001dB,1.78124358640453e+002°)
1.57761126969936e+003	(3.28659047951633e-001dB,1.78115445650893e+002°)
1.58489319246112e+003	(3.28791556470453e-001dB,1.78106487896496e+002°)
1.59220872705118e+003	(3.28925315246086e-001dB,1.78097485118531e+002°)
1.59955802861468e+003	(3.29060336301112e-001dB,1.78088437056309e+002°)
1.60694125301289e+003	(3.29196631777867e-001dB,1.78079343447162e+002°)
1.61435855682650e+003	(3.29334213939858e-001dB,1.78070204026420e+002°)
1.62181009735894e+003	(3.29473095172922e-001dB,1.78061018527391e+002°)
1.62929603263973e+003	(3.29613287986576e-001dB,1.78051786681339e+002°)
1.63681652142782e+003	(3.29754805015341e-001dB,1.78042508217464e+002°)
1.64437172321494e+003	(3.29897659020059e-001dB,1.78033182862876e+002°)
1.65196179822903e+003	(3.30041862889243e-001dB,1.78023810342578e+002°)
1.65958690743757e+003	(3.30187429640457e-001dB,1.78014390379437e+002°)
1.66724721255107e+003	(3.30334372421673e-001dB,1.78004922694169e+002°)
1.67494287602645e+003	(3.30482704512672e-001dB,1.77995407005305e+002°)
1.68267406107048e+003	(3.30632439326507e-001dB,1.77985843029178e+002°)
1.69044093164328e+003	(3.30783590410817e-001dB,1.77976230479892e+002°)
1.69824365246176e+003	(3.30936171449434e-001dB,1.77966569069301e+002°)
1.70608238900314e+003	(3.31090196263664e-001dB,1.77956858506983e+002°)
1.71395730750844e+003	(3.31245678813958e-001dB,1.77947098500214e+002°)
1.72186857498602e+003	(3.31402633201265e-001dB,1.77937288753945e+002°)
1.72981635921511e+003	(3.31561073668614e-001dB,1.77927428970776e+002°)
1.73780082874939e+003	(3.31721014602652e-001dB,1.77917518850927e+002°)
1.74582215292052e+003	(3.31882470535180e-001dB,1.77907558092216e+002°)
1.75388050184177e+003	(3.32045456144703e-001dB,1.77897546390026e+002°)
1.76197604641164e+003	(3.32209986258102e-001dB,1.77887483437286e+002°)
1.77010895831743e+003	(3.32376075852160e-001dB,1.77877368924437e+002°)
1.77827941003894e+003	(3.32543740055241e-001dB,1.77867202539404e+002°)
1.78648757485206e+003	(3.32712994148929e-001dB,1.77856983967572e+002°)
1.79473362683254e+003	(3.32883853569672e-001dB,1.77846712891754e+002°)
1.80301774085958e+003	(3.33056333910518e-001dB,1.77836388992163e+002°)
1.81134009261962e+003	(3.33230450922818e-001dB,1.77826011946382e+002°)
1.81970085861000e+003	(3.33406220517916e-001dB,1.77815581429332e+002°)
1.82810021614276e+003	(3.33583658768954e-001dB,1.77805097113245e+002°)
1.83653834334836e+003	(3.33762781912623e-001dB,1.77794558667630e+002°)
1.84501541917949e+003	(3.33943606350957e-001dB,1.77783965759246e+002°)
1.85353162341483e+003	(3.34126148653165e-001dB,1.77773318052064e+002°)
1.86208713666288e+003	(3.34310425557486e-001dB,1.77762615207239e+002°)
1.87068214036582e+003	(3.34496453972987e-001dB,1.77751856883076e+002°)
1.87931681680328e+003	(3.34684250981557e-001dB,1.77741042734997e+002°)
1.88799134909631e+003	(3.34873833839693e-001dB,1.77730172415506e+002°)
1.89670592121116e+003	(3.35065219980559e-001dB,1.77719245574158e+002°)
1.90546071796326e+003	(3.35258427015849e-001dB,1.77708261857521e+002°)
1.91425592502110e+003	(3.35453472737853e-001dB,1.77697220909140e+002°)
1.92309172891017e+003	(3.35650375121344e-001dB,1.77686122369506e+002°)
1.93196831701694e+003	(3.35849152325760e-001dB,1.77674965876014e+002°)
1.94088587759280e+003	(3.36049822697152e-001dB,1.77663751062931e+002°)
1.94984459975806e+003	(3.36252404770334e-001dB,1.77652477561356e+002°)
1.95884467350601e+003	(3.36456917270935e-001dB,1.77641144999181e+002°)
1.96788628970686e+003	(3.36663379117564e-001dB,1.77629753001054e+002°)
1.97696964011188e+003	(3.36871809424028e-001dB,1.77618301188343e+002°)
1.98609491735739e+003	(3.37082227501417e-001dB,1.77606789179089e+002°)
1.99526231496890e+003	(3.37294652860397e-001dB,1.77595216587972e+002°)
2.00447202736518e+003	(3.37509105213452e-001dB,1.77583583026268e+002°)
2.01372424986241e+003	(3.37725604477169e-001dB,1.77571888101806e+002°)
2.02301917867829e+003	(3.37944170774476e-001dB,1.77560131418929e+002°)
2.03235701093624e+003	(3.38164824437046e-001dB,1.77548312578447e+002°)
2.04173794466955e+003	(3.38387586007658e-001dB,1.77536431177597e+002°)
2.05116217882559e+003	(3.38612476242556e-001dB,1.77524486809999e+002°)
2.06062991327002e+003	(3.38839516113895e-001dB,1.77512479065609e+002°)
2.07014134879106e+003	(3.39068726812199e-001dB,1.77500407530673e+002°)
2.07969668710372e+003	(3.39300129748849e-001dB,1.77488271787685e+002°)
2.08929613085406e+003	(3.39533746558620e-001dB,1.77476071415336e+002°)
2.09893988362355e+003	(3.39769599102201e-001dB,1.77463805988466e+002°)
2.10862814993331e+003	(3.40007709468794e-001dB,1.77451475078020e+002°)
2.11836113524852e+003	(3.40248099978745e-001dB,1.77439078250996e+002°)
2.12813904598273e+003	(3.40490793186212e-001dB,1.77426615070393e+002°)
2.13796208950225e+003	(3.40735811881827e-001dB,1.77414085095165e+002°)
2.14783047413056e+003	(3.40983179095396e-001dB,1.77401487880167e+002°)
2.15774440915269e+003	(3.41232918098768e-001dB,1.77388822976100e+002°)
2.16770410481972e+003	(3.41485052408473e-001dB,1.77376089929465e+002°)
2.17770977235318e+003	(3.41739605788692e-001dB,1.77363288282502e+002°)
2.18776162394958e+003	(3.41996602254081e-001dB,1.77350417573138e+002°)
2.19785987278485e+003	(3.42256066072647e-001dB,1.77337477334934e+002°)
2.20800473301892e+003	(3.42518021768728e-001dB,1.77324467097022e+002°)
2.21819641980024e+003	(3.42782494126001e-001dB,1.77311386384054e+002°)
2.22843514927033e+003	(3.43049508190429e-001dB,1.77298234716140e+002°)
2.23872113856836e+003	(3.43319089273447e-001dB,1.77285011608791e+002°)
2.24905460583581e+003	(3.43591262954950e-001dB,1.77271716572855e+002°)
2.25943577022100e+003	(3.43866055086529e-001dB,1.77258349114460e+002°)
2.26986485188385e+003	(3.44143491794590e-001dB,1.77244908734950e+002°)
2.28034207200044e+003	(3.44423599483675e-001dB,1.77231394930820e+002°)
2.29086765276780e+003	(3.44706404839666e-001dB,1.77217807193656e+002°)
2.30144181740853e+003	(3.44991934833117e-001dB,1.77204145010064e+002°)
2.31206479017562e+003	(3.45280216722667e-001dB,1.77190407861611e+002°)
2.32273679635713e+003	(3.45571278058397e-001dB,1.77176595224749e+002°)
2.33345806228103e+003	(3.45865146685311e-001dB,1.77162706570754e+002°)
2.34422881531995e+003	(3.46161850746892e-001dB,1.77148741365652e+002°)
2.35504928389604e+003	(3.46461418688528e-001dB,1.77134699070149e+002°)
2.36591969748579e+003	(3.46763879261268e-001dB,1.77120579139559e+002°)
2.37684028662490e+003	(3.47069261525359e-001dB,1.77106381023733e+002°)
2.38781128291321e+003	(3.47377594853997e-001dB,1.77092104166981e+002°)
2.39883291901952e+003	(3.47688908937052e-001dB,1.77077748008000e+002°)
2.40990542868662e+003	(3.48003233784908e-001dB,1.77063311979791e+002°)
2.42102904673621e+003	(3.48320599732328e-001dB,1.77048795509591e+002°)
2.43220400907384e+003	(3.48641037442265e-001dB,1.77034198018783e+002°)
2.44343055269400e+003	(3.48964577909984e-001dB,1.77019518922821e+002°)
2.45470891568506e+003	(3.49291252466915e-001dB,1.77004757631148e+002°)
2.46603933723437e+003	(3.49621092784843e-001dB,1.76989913547109e+002°)
2.47742205763332e+003	(3.49954130880013e-001dB,1.76974986067868e+002°)
2.48885731828242e+003	(3.50290399117315e-001dB,1.76959974584324e+002°)
2.50034536169646e+003	(3.50629930214497e-001dB,1.76944878481018e+002°)
2.51188643150961e+003	(3.50972757246500e-001dB,1.76929697136047e+002°)
2.52348077248061e+003	(3.51318913649884e-001dB,1.76914429920974e+002°)
2.53512863049794e+003	(3.51668433227161e-001dB,1.76899076200730e+002°)
2.54683025258507e+003	(3.52021350151300e-001dB,1.76883635333527e+002°)
2.55858588690568e+003	(3.52377698970387e-001dB,1.76868106670759e+002°)
2.57039578276890e+003	(3.52737514612112e-001dB,1.76852489556903e+002°)
2.58226019063463e+003	(3.53100832388536e-001dB,1.76836783329423e+002°)
2.59417936211885e+003	(3.53467688000811e-001dB,1.76820987318666e+002°)
2.60615354999893e+003	(3.53838117544025e-001dB,1.76805100847764e+002°)
2.61818300821902e+003	(3.54212157512052e-001dB,1.76789123232525e+002°)
2.63026799189542e+003	(3.54589844802562e-001dB,1.76773053781330e+002°)
2.64240875732198e+003	(3.54971216722006e-001dB,1.76756891795023e+002°)
2.65460556197557e+003	(3.55356310990745e-001dB,1.76740636566803e+002°)
2.66685866452151e+003	(3.55745165748235e-001dB,1.76724287382111e+002°)
2.67916832481907e+003	(3.56137819558225e-001dB,1.76707843518515e+002°)
2.69153480392695e+003	(3.56534311414174e-001dB,1.76691304245598e+002°)
2.70395836410888e+003	(3.56934680744538e-001dB,1.76674668824835e+002°)
2.71643926883912e+003	(3.57338967418378e-001dB,1.76657936509476e+002°)
2.72897778280808e+003	(3.57747211750843e-001dB,1.76641106544425e+002°)
2.74157417192792e+003	(3.58159454508830e-001dB,1.76624178166114e+002°)
2.75422870333820e+003	(3.58575736916678e-001dB,1.76607150602374e+002°)
2.76694164541155e+003	(3.58996100662075e-001dB,1.76590023072312e+002°)
2.77971326775933e+003	(3.59420587901889e-001dB,1.76572794786173e+002°)
2.79254384123738e+003	(3.59849241268100e-001dB,1.76555464945212e+002°)
2.80543363795175e+003	(3.60282103873972e-001dB,1.76538032741556e+002°)
2.81838293126449e+003	(3.60719219320151e-001dB,1.76520497358064e+002°)
2.83139199579942e+003	(3.61160631700925e-001dB,1.76502857968187e+002°)
2.84446110744795e+003	(3.61606385610581e-001dB,1.76485113735828e+002°)
2.85759054337499e+003	(3.62056526149840e-001dB,1.76467263815188e+002°)
2.87078058202473e+003	(3.62511098932369e-001dB,1.76449307350625e+002°)
2.88403150312665e+003	(3.62970150091475e-001dB,1.76431243476495e+002°)
2.89734358770136e+003	(3.63433726286727e-001dB,1.76413071317005e+002°)
2.91071711806665e+003	(3.63901874710902e-001dB,1.76394789986051e+002°)
2.92415237784338e+003	(3.64374643096850e-001dB,1.76376398587055e+002°)
2.93764965196157e+003	(3.64852079724526e-001dB,1.76357896212810e+002°)
2.95120922666643e+003	(3.65334233428232e-001dB,1.76339281945307e+002°)
2.96483138952438e+003	(3.65821153603734e-001dB,1.76320554855564e+002°)
2.97851642942923e+003	(3.66312890215702e-001dB,1.76301714003461e+002°)
2.99226463660823e+003	(3.66809493805170e-001dB,1.76282758437558e+002°)
3.00607630262827e+003	(3.67311015497114e-001dB,1.76263687194915e+002°)
3.01995172040206e+003	(3.67817507008188e-001dB,1.76244499300914e+002°)
3.03389118419431e+003	(3.68329020654464e-001dB,1.76225193769068e+002°)
3.04789498962803e+003	(3.68845609359493e-001dB,1.76205769600835e+002°)
3.06196343369072e+003	(3.69367326662246e-001dB,1.76186225785422e+002°)
3.07609681474075e+003	(3.69894226725362e-001dB,1.76166561299586e+002°)
3.09029543251364e+003	(3.70426364343458e-001dB,1.76146775107441e+002°)
3.10455958812840e+003	(3.70963794951537e-001dB,1.76126866160241e+002°)
3.11888958409398e+003	(3.71506574633572e-001dB,1.76106833396184e+002°)
3.13328572431563e+003	(3.72054760131223e-001dB,1.76086675740188e+002°)
3.14774831410136e+003	(3.72608408852633e-001dB,1.76066392103680e+002°)
3.16227766016843e+003	(3.73167578881458e-001dB,1.76045981384374e+002°)
3.17687407064982e+003	(3.73732328985907e-001dB,1.76025442466044e+002°)
3.19153785510081e+003	(3.74302718628050e-001dB,1.76004774218294e+002°)
3.20626932450551e+003	(3.74878807973182e-001dB,1.75983975496322e+002°)
3.22106879128348e+003	(3.75460657899387e-001dB,1.75963045140683e+002°)
3.23593656929633e+003	(3.76048330007220e-001dB,1.75941981977046e+002°)
3.25087297385439e+003	(3.76641886629578e-001dB,1.75920784815939e+002°)
3.26587832172341e+003	(3.77241390841630e-001dB,1.75899452452500e+002°)
3.28095293113124e+003	(3.77846906471065e-001dB,1.75877983666217e+002°)
3.29609712177463e+003	(3.78458498108334e-001dB,1.75856377220662e+002°)
3.31131121482596e+003	(3.79076231117168e-001dB,1.75834631863222e+002°)
3.32659553294010e+003	(3.79700171645208e-001dB,1.75812746324826e+002°)
3.34195040026120e+003	(3.80330386634852e-001dB,1.75790719319657e+002°)
3.35737614242960e+003	(3.80966943834156e-001dB,1.75768549544877e+002°)
3.37287308658874e+003	(3.81609911808085e-001dB,1.75746235680322e+002°)
3.38844156139208e+003	(3.82259359949804e-001dB,1.75723776388214e+002°)
3.40408189701006e+003	(3.82915358492182e-001dB,1.75701170312847e+002°)
3.41979442513714e+003	(3.83577978519533e-001dB,1.75678416080286e+002°)
3.43557947899880e+003	(3.84247291979462e-001dB,1.75655512298041e+002°)
3.45143739335862e+003	(3.84923371694992e-001dB,1.75632457554747e+002°)
3.46736850452537e+003	(3.85606291376727e-001dB,1.75609250419832e+002°)
3.48337315036018e+003	(3.86296125635465e-001dB,1.75585889443182e+002°)
3.49945167028363e+003	(3.86992949994773e-001dB,1.75562373154791e+002°)
3.51560440528304e+003	(3.87696840903886e-001dB,1.75538700064413e+002°)
3.53183169791963e+003	(3.88407875750724e-001dB,1.75514868661202e+002°)
3.54813389233581e+003	(3.89126132875306e-001dB,1.75490877413344e+002°)
3.56451133426250e+003	(3.89851691583104e-001dB,1.75466724767681e+002°)
3.58096437102642e+003	(3.90584632158924e-001dB,1.75442409149329e+002°)
3.59749335155748e+003	(3.91325035880688e-001dB,1.75417928961286e+002°)
3.61409862639620e+003	(3.92072985033698e-001dB,1.75393282584035e+002°)
3.63078054770108e+003	(3.92828562925061e-001dB,1.75368468375131e+002°)
