Freq.	V(v04)
1.00000000000000e+003	(3.24627364750824e-001dB,1.79558388880769e+002°)
1.00461579027840e+003	(3.24721524900247e-001dB,1.79556327136492e+002°)
1.00925288607668e+003	(3.24816566040779e-001dB,1.79554255547967e+002°)
1.01391138573668e+003	(3.24912496506702e-001dB,1.79552174065135e+002°)
1.01859138805412e+003	(3.25009324712845e-001dB,1.79550082637637e+002°)
1.02329299228075e+003	(3.25107059155401e-001dB,1.79547981214818e+002°)
1.02801629812647e+003	(3.25205708412769e-001dB,1.79545869745718e+002°)
1.03276140576140e+003	(3.25305281146337e-001dB,1.79543748179077e+002°)
1.03752841581801e+003	(3.25405786101338e-001dB,1.79541616463325e+002°)
1.04231742939330e+003	(3.25507232107729e-001dB,1.79539474546586e+002°)
1.04712854805090e+003	(3.25609628080982e-001dB,1.79537322376672e+002°)
1.05196187382322e+003	(3.25712983023017e-001dB,1.79535159901079e+002°)
1.05681750921366e+003	(3.25817306023013e-001dB,1.79532987066992e+002°)
1.06169555719873e+003	(3.25922606258320e-001dB,1.79530803821272e+002°)
1.06659612123026e+003	(3.26028892995377e-001dB,1.79528610110462e+002°)
1.07151930523761e+003	(3.26136175590589e-001dB,1.79526405880781e+002°)
1.07646521362984e+003	(3.26244463491220e-001dB,1.79524191078120e+002°)
1.08143395129794e+003	(3.26353766236356e-001dB,1.79521965648043e+002°)
1.08642562361707e+003	(3.26464093457801e-001dB,1.79519729535780e+002°)
1.09144033644876e+003	(3.26575454881052e-001dB,1.79517482686228e+002°)
1.09647819614319e+003	(3.26687860326237e-001dB,1.79515225043947e+002°)
1.10153930954142e+003	(3.26801319709079e-001dB,1.79512956553157e+002°)
1.10662378397767e+003	(3.26915843041864e-001dB,1.79510677157734e+002°)
1.11173172728159e+003	(3.27031440434443e-001dB,1.79508386801210e+002°)
1.11686324778056e+003	(3.27148122095229e-001dB,1.79506085426769e+002°)
1.12201845430197e+003	(3.27265898332154e-001dB,1.79503772977241e+002°)
1.12719745617551e+003	(3.27384779553775e-001dB,1.79501449395105e+002°)
1.13240036323556e+003	(3.27504776270235e-001dB,1.79499114622481e+002°)
1.13762728582343e+003	(3.27625899094328e-001dB,1.79496768601129e+002°)
1.14287833478977e+003	(3.27748158742527e-001dB,1.79494411272448e+002°)
1.14815362149688e+003	(3.27871566036100e-001dB,1.79492042577468e+002°)
1.15345325782109e+003	(3.27996131902148e-001dB,1.79489662456850e+002°)
1.15877735615513e+003	(3.28121867374700e-001dB,1.79487270850885e+002°)
1.16412602941049e+003	(3.28248783595797e-001dB,1.79484867699486e+002°)
1.16949939101987e+003	(3.28376891816655e-001dB,1.79482452942189e+002°)
1.17489755493953e+003	(3.28506203398733e-001dB,1.79480026518146e+002°)
1.18032063565173e+003	(3.28636729814883e-001dB,1.79477588366127e+002°)
1.18576874816716e+003	(3.28768482650547e-001dB,1.79475138424509e+002°)
1.19124200802738e+003	(3.28901473604874e-001dB,1.79472676631281e+002°)
1.19674053130725e+003	(3.29035714491897e-001dB,1.79470202924035e+002°)
1.20226443461742e+003	(3.29171217241736e-001dB,1.79467717239965e+002°)
1.20781383510678e+003	(3.29307993901790e-001dB,1.79465219515862e+002°)
1.21338885046498e+003	(3.29446056638018e-001dB,1.79462709688112e+002°)
1.21898959892487e+003	(3.29585417736042e-001dB,1.79460187692692e+002°)
1.22461619926505e+003	(3.29726089602504e-001dB,1.79457653465165e+002°)
1.23026877081238e+003	(3.29868084766294e-001dB,1.79455106940679e+002°)
1.23594743344451e+003	(3.30011415879798e-001dB,1.79452548053961e+002°)
1.24165230759241e+003	(3.30156095720217e-001dB,1.79449976739315e+002°)
1.24738351424295e+003	(3.30302137190823e-001dB,1.79447392930617e+002°)
1.25314117494142e+003	(3.30449553322351e-001dB,1.79444796561311e+002°)
1.25892541179417e+003	(3.30598357274272e-001dB,1.79442187564407e+002°)
1.26473634747115e+003	(3.30748562336155e-001dB,1.79439565872476e+002°)
1.27057410520855e+003	(3.30900181929058e-001dB,1.79436931417645e+002°)
1.27643880881135e+003	(3.31053229606840e-001dB,1.79434284131594e+002°)
1.28233058265603e+003	(3.31207719057637e-001dB,1.79431623945552e+002°)
1.28824955169314e+003	(3.31363664105228e-001dB,1.79428950790294e+002°)
1.29419584144999e+003	(3.31521078710477e-001dB,1.79426264596134e+002°)
1.30016957803329e+003	(3.31679976972739e-001dB,1.79423565292924e+002°)
1.30617088813185e+003	(3.31840373131378e-001dB,1.79420852810048e+002°)
1.31219989901921e+003	(3.32002281567232e-001dB,1.79418127076417e+002°)
1.31825673855641e+003	(3.32165716804065e-001dB,1.79415388020466e+002°)
1.32434153519467e+003	(3.32330693510122e-001dB,1.79412635570152e+002°)
1.33045441797810e+003	(3.32497226499659e-001dB,1.79409869652942e+002°)
1.33659551654645e+003	(3.32665330734465e-001dB,1.79407090195817e+002°)
1.34276496113787e+003	(3.32835021325460e-001dB,1.79404297125263e+002°)
1.34896288259166e+003	(3.33006313534219e-001dB,1.79401490367266e+002°)
1.35518941235104e+003	(3.33179222774695e-001dB,1.79398669847310e+002°)
1.36144468246596e+003	(3.33353764614673e-001dB,1.79395835490370e+002°)
1.36772882559585e+003	(3.33529954777582e-001dB,1.79392987220908e+002°)
1.37404197501252e+003	(3.33707809144053e-001dB,1.79390124962868e+002°)
1.38038426460289e+003	(3.33887343753603e-001dB,1.79387248639672e+002°)
1.38675582887189e+003	(3.34068574806372e-001dB,1.79384358174213e+002°)
1.39315680294531e+003	(3.34251518664849e-001dB,1.79381453488853e+002°)
1.39958732257262e+003	(3.34436191855561e-001dB,1.79378534505414e+002°)
1.40604752412992e+003	(3.34622611070892e-001dB,1.79375601145176e+002°)
1.41253754462276e+003	(3.34810793170832e-001dB,1.79372653328872e+002°)
1.41905752168910e+003	(3.35000755184797e-001dB,1.79369690976679e+002°)
1.42560759360219e+003	(3.35192514313429e-001dB,1.79366714008217e+002°)
1.43218789927355e+003	(3.35386087930482e-001dB,1.79363722342541e+002°)
1.43879857825585e+003	(3.35581493584706e-001dB,1.79360715898136e+002°)
1.44543977074593e+003	(3.35778749001660e-001dB,1.79357694592911e+002°)
1.45211161758775e+003	(3.35977872085710e-001dB,1.79354658344195e+002°)
1.45881426027536e+003	(3.36178880921913e-001dB,1.79351607068731e+002°)
1.46554784095592e+003	(3.36381793778030e-001dB,1.79348540682667e+002°)
1.47231250243273e+003	(3.36586629106464e-001dB,1.79345459101555e+002°)
1.47910838816821e+003	(3.36793405546303e-001dB,1.79342362240341e+002°)
1.48593564228701e+003	(3.37002141925355e-001dB,1.79339250013362e+002°)
1.49279440957900e+003	(3.37212857262189e-001dB,1.79336122334336e+002°)
1.49968483550238e+003	(3.37425570768223e-001dB,1.79332979116363e+002°)
1.50660706618675e+003	(3.37640301849866e-001dB,1.79329820271909e+002°)
1.51356124843622e+003	(3.37857070110620e-001dB,1.79326645712808e+002°)
1.52054752973250e+003	(3.38075895353243e-001dB,1.79323455350251e+002°)
1.52756605823808e+003	(3.38296797581976e-001dB,1.79320249094782e+002°)
1.53461698279930e+003	(3.38519797004737e-001dB,1.79317026856289e+002°)
1.54170045294957e+003	(3.38744914035346e-001dB,1.79313788544000e+002°)
1.54881661891249e+003	(3.38972169295846e-001dB,1.79310534066473e+002°)
1.55596563160508e+003	(3.39201583618748e-001dB,1.79307263331592e+002°)
1.56314764264096e+003	(3.39433178049412e-001dB,1.79303976246560e+002°)
1.57036280433356e+003	(3.39666973848386e-001dB,1.79300672717889e+002°)
1.57761126969936e+003	(3.39902992493758e-001dB,1.79297352651396e+002°)
1.58489319246112e+003	(3.40141255683664e-001dB,1.79294015952194e+002°)
1.59220872705118e+003	(3.40381785338650e-001dB,1.79290662524687e+002°)
1.59955802861468e+003	(3.40624603604188e-001dB,1.79287292272558e+002°)
1.60694125301289e+003	(3.40869732853162e-001dB,1.79283905098767e+002°)
1.61435855682650e+003	(3.41117195688511e-001dB,1.79280500905539e+002°)
1.62181009735894e+003	(3.41367014945622e-001dB,1.79277079594358e+002°)
1.62929603263973e+003	(3.41619213695122e-001dB,1.79273641065961e+002°)
1.63681652142782e+003	(3.41873815245407e-001dB,1.79270185220325e+002°)
1.64437172321494e+003	(3.42130843145365e-001dB,1.79266711956665e+002°)
1.65196179822903e+003	(3.42390321187072e-001dB,1.79263221173421e+002°)
1.65958690743757e+003	(3.42652273408497e-001dB,1.79259712768254e+002°)
1.66724721255107e+003	(3.42916724096390e-001dB,1.79256186638031e+002°)
1.67494287602645e+003	(3.43183697788967e-001dB,1.79252642678826e+002°)
1.68267406107048e+003	(3.43453219278833e-001dB,1.79249080785902e+002°)
1.69044093164328e+003	(3.43725313615893e-001dB,1.79245500853709e+002°)
1.69824365246176e+003	(3.44000006110206e-001dB,1.79241902775870e+002°)
1.70608238900314e+003	(3.44277322334995e-001dB,1.79238286445177e+002°)
1.71395730750844e+003	(3.44557288129665e-001dB,1.79234651753578e+002°)
1.72186857498602e+003	(3.44839929602787e-001dB,1.79230998592169e+002°)
1.72981635921511e+003	(3.45125273135226e-001dB,1.79227326851186e+002°)
1.73780082874939e+003	(3.45413345383267e-001dB,1.79223636419993e+002°)
1.74582215292052e+003	(3.45704173281740e-001dB,1.79219927187073e+002°)
1.75388050184177e+003	(3.45997784047243e-001dB,1.79216199040021e+002°)
1.76197604641164e+003	(3.46294205181415e-001dB,1.79212451865530e+002°)
1.77010895831743e+003	(3.46593464474180e-001dB,1.79208685549384e+002°)
1.77827941003894e+003	(3.46895590007081e-001dB,1.79204899976446e+002°)
1.78648757485206e+003	(3.47200610156745e-001dB,1.79201095030648e+002°)
1.79473362683254e+003	(3.47508553598195e-001dB,1.79197270594980e+002°)
1.80301774085958e+003	(3.47819449308338e-001dB,1.79193426551484e+002°)
1.81134009261962e+003	(3.48133326569550e-001dB,1.79189562781234e+002°)
1.81970085861000e+003	(3.48450214973188e-001dB,1.79185679164334e+002°)
1.82810021614276e+003	(3.48770144423157e-001dB,1.79181775579901e+002°)
1.83653834334836e+003	(3.49093145139654e-001dB,1.79177851906059e+002°)
1.84501541917949e+003	(3.49419247662841e-001dB,1.79173908019920e+002°)
1.85353162341483e+003	(3.49748482856564e-001dB,1.79169943797581e+002°)
1.86208713666288e+003	(3.50080881912227e-001dB,1.79165959114106e+002°)
1.87068214036582e+003	(3.50416476352607e-001dB,1.79161953843516e+002°)
1.87931681680328e+003	(3.50755298035777e-001dB,1.79157927858778e+002°)
1.88799134909631e+003	(3.51097379159072e-001dB,1.79153881031792e+002°)
1.89670592121116e+003	(3.51442752263133e-001dB,1.79149813233376e+002°)
1.90546071796326e+003	(3.51791450235951e-001dB,1.79145724333258e+002°)
1.91425592502110e+003	(3.52143506317020e-001dB,1.79141614200059e+002°)
1.92309172891017e+003	(3.52498954101519e-001dB,1.79137482701283e+002°)
1.93196831701694e+003	(3.52857827544527e-001dB,1.79133329703301e+002°)
1.94088587759280e+003	(3.53220160965400e-001dB,1.79129155071340e+002°)
1.94984459975806e+003	(3.53585989052103e-001dB,1.79124958669467e+002°)
1.95884467350601e+003	(3.53955346865588e-001dB,1.79120740360578e+002°)
1.96788628970686e+003	(3.54328269844388e-001dB,1.79116500006381e+002°)
1.97696964011188e+003	(3.54704793809031e-001dB,1.79112237467384e+002°)
1.98609491735739e+003	(3.55084954966792e-001dB,1.79107952602879e+002°)
1.99526231496890e+003	(3.55468789916289e-001dB,1.79103645270929e+002°)
2.00447202736518e+003	(3.55856335652239e-001dB,1.79099315328349e+002°)
2.01372424986241e+003	(3.56247629570301e-001dB,1.79094962630697e+002°)
2.02301917867829e+003	(3.56642709471951e-001dB,1.79090587032255e+002°)
2.03235701093624e+003	(3.57041613569385e-001dB,1.79086188386012e+002°)
2.04173794466955e+003	(3.57444380490620e-001dB,1.79081766543651e+002°)
2.05116217882559e+003	(3.57851049284516e-001dB,1.79077321355531e+002°)
2.06062991327002e+003	(3.58261659425985e-001dB,1.79072852670674e+002°)
2.07014134879106e+003	(3.58676250821200e-001dB,1.79068360336742e+002°)
2.07969668710372e+003	(3.59094863812961e-001dB,1.79063844200027e+002°)
2.08929613085406e+003	(3.59517539186018e-001dB,1.79059304105429e+002°)
2.09893988362355e+003	(3.59944318172594e-001dB,1.79054739896442e+002°)
2.10862814993331e+003	(3.60375242457924e-001dB,1.79050151415134e+002°)
2.11836113524852e+003	(3.60810354185872e-001dB,1.79045538502128e+002°)
2.12813904598273e+003	(3.61249695964651e-001dB,1.79040900996590e+002°)
2.13796208950225e+003	(3.61693310872617e-001dB,1.79036238736202e+002°)
2.14783047413056e+003	(3.62141242464162e-001dB,1.79031551557149e+002°)
2.15774440915269e+003	(3.62593534775683e-001dB,1.79026839294097e+002°)
2.16770410481972e+003	(3.63050232331576e-001dB,1.79022101780177e+002°)
2.17770977235318e+003	(3.63511380150492e-001dB,1.79017338846962e+002°)
2.18776162394958e+003	(3.63977023751484e-001dB,1.79012550324447e+002°)
2.19785987278485e+003	(3.64447209160348e-001dB,1.79007736041031e+002°)
2.20800473301892e+003	(3.64921982916103e-001dB,1.79002895823494e+002°)
2.21819641980024e+003	(3.65401392077426e-001dB,1.78998029496978e+002°)
2.22843514927033e+003	(3.65885484229344e-001dB,1.78993136884966e+002°)
2.23872113856836e+003	(3.66374307489903e-001dB,1.78988217809255e+002°)
2.24905460583581e+003	(3.66867910516984e-001dB,1.78983272089942e+002°)
2.25943577022100e+003	(3.67366342515266e-001dB,1.78978299545395e+002°)
2.26986485188385e+003	(3.67869653243200e-001dB,1.78973299992235e+002°)
2.28034207200044e+003	(3.68377893020172e-001dB,1.78968273245309e+002°)
2.29086765276780e+003	(3.68891112733741e-001dB,1.78963219117669e+002°)
2.30144181740853e+003	(3.69409363846950e-001dB,1.78958137420547e+002°)
2.31206479017562e+003	(3.69932698405854e-001dB,1.78953027963332e+002°)
2.32273679635713e+003	(3.70461169047046e-001dB,1.78947890553544e+002°)
2.33345806228103e+003	(3.70994829005364e-001dB,1.78942724996809e+002°)
2.34422881531995e+003	(3.71533732121729e-001dB,1.78937531096834e+002°)
2.35504928389604e+003	(3.72077932851027e-001dB,1.78932308655380e+002°)
2.36591969748579e+003	(3.72627486270214e-001dB,1.78927057472239e+002°)
2.37684028662490e+003	(3.73182448086488e-001dB,1.78921777345202e+002°)
2.38781128291321e+003	(3.73742874645567e-001dB,1.78916468070037e+002°)
2.39883291901952e+003	(3.74308822940177e-001dB,1.78911129440458e+002°)
2.40990542868662e+003	(3.74880350618576e-001dB,1.78905761248096e+002°)
2.42102904673621e+003	(3.75457515993302e-001dB,1.78900363282476e+002°)
2.43220400907384e+003	(3.76040378050002e-001dB,1.78894935330980e+002°)
2.44343055269400e+003	(3.76628996456411e-001dB,1.78889477178823e+002°)
2.45470891568506e+003	(3.77223431571473e-001dB,1.78883988609023e+002°)
2.46603933723437e+003	(3.77823744454652e-001dB,1.78878469402365e+002°)
2.47742205763332e+003	(3.78429996875289e-001dB,1.78872919337377e+002°)
2.48885731828242e+003	(3.79042251322263e-001dB,1.78867338190293e+002°)
2.50034536169646e+003	(3.79660571013596e-001dB,1.78861725735023e+002°)
2.51188643150961e+003	(3.80285019906474e-001dB,1.78856081743120e+002°)
2.52348077248061e+003	(3.80915662707193e-001dB,1.78850405983748e+002°)
2.53512863049794e+003	(3.81552564881358e-001dB,1.78844698223643e+002°)
2.54683025258507e+003	(3.82195792664320e-001dB,1.78838958227086e+002°)
2.55858588690568e+003	(3.82845413071668e-001dB,1.78833185755861e+002°)
2.57039578276890e+003	(3.83501493909957e-001dB,1.78827380569226e+002°)
2.58226019063463e+003	(3.84164103787595e-001dB,1.78821542423869e+002°)
2.59417936211885e+003	(3.84833312125891e-001dB,1.78815671073877e+002°)
2.60615354999893e+003	(3.85509189170340e-001dB,1.78809766270698e+002°)
2.61818300821902e+003	(3.86191806002013e-001dB,1.78803827763098e+002°)
2.63026799189542e+003	(3.86881234549224e-001dB,1.78797855297127e+002°)
2.64240875732198e+003	(3.87577547599315e-001dB,1.78791848616078e+002°)
2.65460556197557e+003	(3.88280818810720e-001dB,1.78785807460445e+002°)
2.66685866452151e+003	(3.88991122725093e-001dB,1.78779731567883e+002°)
2.67916832481907e+003	(3.89708534779831e-001dB,1.78773620673169e+002°)
2.69153480392695e+003	(3.90433131320637e-001dB,1.78767474508154e+002°)
2.70395836410888e+003	(3.91164989614385e-001dB,1.78761292801722e+002°)
2.71643926883912e+003	(3.91904187862198e-001dB,1.78755075279750e+002°)
2.72897778280808e+003	(3.92650805212709e-001dB,1.78748821665055e+002°)
2.74157417192792e+003	(3.93404921775585e-001dB,1.78742531677357e+002°)
2.75422870333820e+003	(3.94166618635243e-001dB,1.78736205033226e+002°)
2.76694164541155e+003	(3.94935977864878e-001dB,1.78729841446036e+002°)
2.77971326775933e+003	(3.95713082540637e-001dB,1.78723440625921e+002°)
2.79254384123738e+003	(3.96498016756104e-001dB,1.78717002279718e+002°)
2.80543363795175e+003	(3.97290865636983e-001dB,1.78710526110926e+002°)
2.81838293126449e+003	(3.98091715356123e-001dB,1.78704011819647e+002°)
2.83139199579942e+003	(3.98900653148701e-001dB,1.78697459102540e+002°)
2.84446110744795e+003	(3.99717767327743e-001dB,1.78690867652764e+002°)
2.85759054337499e+003	(4.00543147299862e-001dB,1.78684237159928e+002°)
2.87078058202473e+003	(4.01376883581358e-001dB,1.78677567310031e+002°)
2.88403150312665e+003	(4.02219067814485e-001dB,1.78670857785413e+002°)
2.89734358770136e+003	(4.03069792784120e-001dB,1.78664108264691e+002°)
2.91071711806665e+003	(4.03929152434630e-001dB,1.78657318422705e+002°)
2.92415237784338e+003	(4.04797241887129e-001dB,1.78650487930461e+002°)
2.93764965196157e+003	(4.05674157456982e-001dB,1.78643616455065e+002°)
2.95120922666643e+003	(4.06559996671610e-001dB,1.78636703659665e+002°)
2.96483138952438e+003	(4.07454858288709e-001dB,1.78629749203388e+002°)
2.97851642942923e+003	(4.08358842314707e-001dB,1.78622752741279e+002°)
2.99226463660823e+003	(4.09272050023530e-001dB,1.78615713924230e+002°)
3.00607630262827e+003	(4.10194583975837e-001dB,1.78608632398920e+002°)
3.01995172040206e+003	(4.11126548038526e-001dB,1.78601507807744e+002°)
3.03389118419431e+003	(4.12068047404542e-001dB,1.78594339788744e+002°)
3.04789498962803e+003	(4.13019188613153e-001dB,1.78587127975541e+002°)
3.06196343369072e+003	(4.13980079570524e-001dB,1.78579871997264e+002°)
3.07609681474075e+003	(4.14950829570757e-001dB,1.78572571478473e+002°)
3.09029543251364e+003	(4.15931549317170e-001dB,1.78565226039090e+002°)
3.10455958812840e+003	(4.16922350944166e-001dB,1.78557835294320e+002°)
3.11888958409398e+003	(4.17923348039329e-001dB,1.78550398854572e+002°)
3.13328572431563e+003	(4.18934655666070e-001dB,1.78542916325387e+002°)
3.14774831410136e+003	(4.19956390386571e-001dB,1.78535387307352e+002°)
3.16227766016843e+003	(4.20988670285294e-001dB,1.78527811396017e+002°)
3.17687407064982e+003	(4.22031614992866e-001dB,1.78520188181817e+002°)
3.19153785510081e+003	(4.23085345710379e-001dB,1.78512517249984e+002°)
3.20626932450551e+003	(4.24149985234234e-001dB,1.78504798180458e+002°)
3.22106879128348e+003	(4.25225657981383e-001dB,1.78497030547802e+002°)
3.23593656929633e+003	(4.26312490015125e-001dB,1.78489213921108e+002°)
3.25087297385439e+003	(4.27410609071356e-001dB,1.78481347863908e+002°)
3.26587832172341e+003	(4.28520144585317e-001dB,1.78473431934079e+002°)
3.28095293113124e+003	(4.29641227718871e-001dB,1.78465465683744e+002°)
3.29609712177463e+003	(4.30773991388334e-001dB,1.78457448659178e+002°)
3.31131121482596e+003	(4.31918570292815e-001dB,1.78449380400705e+002°)
3.32659553294010e+003	(4.33075100943118e-001dB,1.78441260442598e+002°)
3.34195040026120e+003	(4.34243721691206e-001dB,1.78433088312974e+002°)
3.35737614242960e+003	(4.35424572760296e-001dB,1.78424863533686e+002°)
3.37287308658874e+003	(4.36617796275432e-001dB,1.78416585620218e+002°)
3.38844156139208e+003	(4.37823536294801e-001dB,1.78408254081569e+002°)
3.40408189701006e+003	(4.39041938841593e-001dB,1.78399868420144e+002°)
3.41979442513714e+003	(4.40273151936452e-001dB,1.78391428131639e+002°)
3.43557947899880e+003	(4.41517325630723e-001dB,1.78382932704918e+002°)
3.45143739335862e+003	(4.42774612040220e-001dB,1.78374381621898e+002°)
3.46736850452537e+003	(4.44045165379757e-001dB,1.78365774357422e+002°)
3.48337315036018e+003	(4.45329141998359e-001dB,1.78357110379135e+002°)
3.49945167028363e+003	(4.46626700415133e-001dB,1.78348389147357e+002°)
3.51560440528304e+003	(4.47938001356007e-001dB,1.78339610114947e+002°)
3.53183169791963e+003	(4.49263207791062e-001dB,1.78330772727176e+002°)
3.54813389233581e+003	(4.50602484972710e-001dB,1.78321876421584e+002°)
3.56451133426250e+003	(4.51956000474698e-001dB,1.78312920627844e+002°)
3.58096437102642e+003	(4.53323924231775e-001dB,1.78303904767617e+002°)
3.59749335155748e+003	(4.54706428580419e-001dB,1.78294828254406e+002°)
3.61409862639620e+003	(4.56103688300098e-001dB,1.78285690493410e+002°)
3.63078054770108e+003	(4.57515880655687e-001dB,1.78276490881367e+002°)
