Freq.	V(v05)
1.00000000000000e+003	(-8.77003301379879e-001dB,1.79723775578634e+002°)
1.00461579027840e+003	(-8.77087686760993e-001dB,1.79722494331175e+002°)
1.00925288607668e+003	(-8.77172858178603e-001dB,1.79721207082417e+002°)
1.01391138573668e+003	(-8.77258823003535e-001dB,1.79719913803435e+002°)
1.01859138805412e+003	(-8.77345588676619e-001dB,1.79718614465156e+002°)
1.02329299228075e+003	(-8.77433162709378e-001dB,1.79717309038353e+002°)
1.02801629812647e+003	(-8.77521552684798e-001dB,1.79715997493649e+002°)
1.03276140576140e+003	(-8.77610766257912e-001dB,1.79714679801511e+002°)
1.03752841581801e+003	(-8.77700811156572e-001dB,1.79713355932254e+002°)
1.04231742939330e+003	(-8.77791695182140e-001dB,1.79712025856034e+002°)
1.04712854805090e+003	(-8.77883426210231e-001dB,1.79710689542854e+002°)
1.05196187382322e+003	(-8.77976012191388e-001dB,1.79709346962557e+002°)
1.05681750921366e+003	(-8.78069461151850e-001dB,1.79707998084831e+002°)
1.06169555719873e+003	(-8.78163781194305e-001dB,1.79706642879200e+002°)
1.06659612123026e+003	(-8.78258980498611e-001dB,1.79705281315031e+002°)
1.07151930523761e+003	(-8.78355067322561e-001dB,1.79703913361528e+002°)
1.07646521362984e+003	(-8.78452050002632e-001dB,1.79702538987733e+002°)
1.08143395129794e+003	(-8.78549936954774e-001dB,1.79701158162525e+002°)
1.08642562361707e+003	(-8.78648736675207e-001dB,1.79699770854617e+002°)
1.09144033644876e+003	(-8.78748457741158e-001dB,1.79698377032557e+002°)
1.09647819614319e+003	(-8.78849108811700e-001dB,1.79696976664727e+002°)
1.10153930954142e+003	(-8.78950698628533e-001dB,1.79695569719340e+002°)
1.10662378397767e+003	(-8.79053236016821e-001dB,1.79694156164441e+002°)
1.11173172728159e+003	(-8.79156729885962e-001dB,1.79692735967905e+002°)
1.11686324778056e+003	(-8.79261189230485e-001dB,1.79691309097435e+002°)
1.12201845430197e+003	(-8.79366623130820e-001dB,1.79689875520564e+002°)
1.12719745617551e+003	(-8.79473040754204e-001dB,1.79688435204648e+002°)
1.13240036323556e+003	(-8.79580451355489e-001dB,1.79686988116873e+002°)
1.13762728582343e+003	(-8.79688864278048e-001dB,1.79685534224245e+002°)
1.14287833478977e+003	(-8.79798288954596e-001dB,1.79684073493597e+002°)
1.14815362149688e+003	(-8.79908734908106e-001dB,1.79682605891582e+002°)
1.15345325782109e+003	(-8.80020211752710e-001dB,1.79681131384675e+002°)
1.15877735615513e+003	(-8.80132729194594e-001dB,1.79679649939169e+002°)
1.16412602941049e+003	(-8.80246297032851e-001dB,1.79678161521178e+002°)
1.16949939101987e+003	(-8.80360925160501e-001dB,1.79676666096631e+002°)
1.17489755493953e+003	(-8.80476623565343e-001dB,1.79675163631275e+002°)
1.18032063565173e+003	(-8.80593402330932e-001dB,1.79673654090670e+002°)
1.18576874816716e+003	(-8.80711271637471e-001dB,1.79672137440193e+002°)
1.19124200802738e+003	(-8.80830241762866e-001dB,1.79670613645028e+002°)
1.19674053130725e+003	(-8.80950323083610e-001dB,1.79669082670176e+002°)
1.20226443461742e+003	(-8.81071526075786e-001dB,1.79667544480444e+002°)
1.20781383510678e+003	(-8.81193861316116e-001dB,1.79665999040448e+002°)
1.21338885046498e+003	(-8.81317339482841e-001dB,1.79664446314614e+002°)
1.21898959892487e+003	(-8.81441971356831e-001dB,1.79662886267170e+002°)
1.22461619926505e+003	(-8.81567767822566e-001dB,1.79661318862152e+002°)
1.23026877081238e+003	(-8.81694739869196e-001dB,1.79659744063397e+002°)
1.23594743344451e+003	(-8.81822898591518e-001dB,1.79658161834545e+002°)
1.24165230759241e+003	(-8.81952255191115e-001dB,1.79656572139037e+002°)
1.24738351424295e+003	(-8.82082820977381e-001dB,1.79654974940114e+002°)
1.25314117494142e+003	(-8.82214607368558e-001dB,1.79653370200811e+002°)
1.25892541179417e+003	(-8.82347625892891e-001dB,1.79651757883964e+002°)
1.26473634747115e+003	(-8.82481888189698e-001dB,1.79650137952202e+002°)
1.27057410520855e+003	(-8.82617406010497e-001dB,1.79648510367948e+002°)
1.27643880881135e+003	(-8.82754191220044e-001dB,1.79646875093417e+002°)
1.28233058265603e+003	(-8.82892255797645e-001dB,1.79645232090613e+002°)
1.28824955169314e+003	(-8.83031611838111e-001dB,1.79643581321334e+002°)
1.29419584144999e+003	(-8.83172271553039e-001dB,1.79641922747160e+002°)
1.30016957803329e+003	(-8.83314247271921e-001dB,1.79640256329463e+002°)
1.30617088813185e+003	(-8.83457551443412e-001dB,1.79638582029394e+002°)
1.31219989901921e+003	(-8.83602196636397e-001dB,1.79636899807893e+002°)
1.31825673855641e+003	(-8.83748195541317e-001dB,1.79635209625678e+002°)
1.32434153519467e+003	(-8.83895560971337e-001dB,1.79633511443247e+002°)
1.33045441797810e+003	(-8.84044305863609e-001dB,1.79631805220879e+002°)
1.33659551654645e+003	(-8.84194443280492e-001dB,1.79630090918630e+002°)
1.34276496113787e+003	(-8.84345986410840e-001dB,1.79628368496328e+002°)
1.34896288259166e+003	(-8.84498948571258e-001dB,1.79626637913578e+002°)
1.35518941235104e+003	(-8.84653343207404e-001dB,1.79624899129757e+002°)
1.36144468246596e+003	(-8.84809183895320e-001dB,1.79623152104012e+002°)
1.36772882559585e+003	(-8.84966484342707e-001dB,1.79621396795257e+002°)
1.37404197501252e+003	(-8.85125258390251e-001dB,1.79619633162178e+002°)
1.38038426460289e+003	(-8.85285520013046e-001dB,1.79617861163221e+002°)
1.38675582887189e+003	(-8.85447283321879e-001dB,1.79616080756600e+002°)
1.39315680294531e+003	(-8.85610562564633e-001dB,1.79614291900289e+002°)
1.39958732257262e+003	(-8.85775372127704e-001dB,1.79612494552022e+002°)
1.40604752412992e+003	(-8.85941726537358e-001dB,1.79610688669294e+002°)
1.41253754462276e+003	(-8.86109640461216e-001dB,1.79608874209354e+002°)
1.41905752168910e+003	(-8.86279128709634e-001dB,1.79607051129208e+002°)
1.42560759360219e+003	(-8.86450206237191e-001dB,1.79605219385613e+002°)
1.43218789927355e+003	(-8.86622888144179e-001dB,1.79603378935081e+002°)
1.43879857825585e+003	(-8.86797189678014e-001dB,1.79601529733870e+002°)
1.44543977074593e+003	(-8.86973126234854e-001dB,1.79599671737987e+002°)
1.45211161758775e+003	(-8.87150713361001e-001dB,1.79597804903184e+002°)
1.45881426027536e+003	(-8.87329966754517e-001dB,1.79595929184958e+002°)
1.46554784095592e+003	(-8.87510902266758e-001dB,1.79594044538548e+002°)
1.47231250243273e+003	(-8.87693535903918e-001dB,1.79592150918931e+002°)
1.47910838816821e+003	(-8.87877883828667e-001dB,1.79590248280824e+002°)
1.48593564228701e+003	(-8.88063962361729e-001dB,1.79588336578679e+002°)
1.49279440957900e+003	(-8.88251787983494e-001dB,1.79586415766682e+002°)
1.49968483550238e+003	(-8.88441377335680e-001dB,1.79584485798752e+002°)
1.50660706618675e+003	(-8.88632747222997e-001dB,1.79582546628535e+002°)
1.51356124843622e+003	(-8.88825914614819e-001dB,1.79580598209408e+002°)
1.52054752973250e+003	(-8.89020896646863e-001dB,1.79578640494472e+002°)
1.52756605823808e+003	(-8.89217710622969e-001dB,1.79576673436552e+002°)
1.53461698279930e+003	(-8.89416374016753e-001dB,1.79574696988195e+002°)
1.54170045294957e+003	(-8.89616904473417e-001dB,1.79572711101666e+002°)
1.54881661891249e+003	(-8.89819319811539e-001dB,1.79570715728948e+002°)
1.55596563160508e+003	(-8.90023638024796e-001dB,1.79568710821738e+002°)
1.56314764264096e+003	(-8.90229877283866e-001dB,1.79566696331447e+002°)
1.57036280433356e+003	(-8.90438055938210e-001dB,1.79564672209194e+002°)
1.57761126969936e+003	(-8.90648192517965e-001dB,1.79562638405810e+002°)
1.58489319246112e+003	(-8.90860305735801e-001dB,1.79560594871828e+002°)
1.59220872705118e+003	(-8.91074414488808e-001dB,1.79558541557485e+002°)
1.59955802861468e+003	(-8.91290537860475e-001dB,1.79556478412722e+002°)
1.60694125301289e+003	(-8.91508695122550e-001dB,1.79554405387174e+002°)
1.61435855682650e+003	(-8.91728905737084e-001dB,1.79552322430177e+002°)
1.62181009735894e+003	(-8.91951189358404e-001dB,1.79550229490758e+002°)
1.62929603263973e+003	(-8.92175565835081e-001dB,1.79548126517636e+002°)
1.63681652142782e+003	(-8.92402055212004e-001dB,1.79546013459218e+002°)
1.64437172321494e+003	(-8.92630677732439e-001dB,1.79543890263599e+002°)
1.65196179822903e+003	(-8.92861453840113e-001dB,1.79541756878558e+002°)
1.65958690743757e+003	(-8.93094404181285e-001dB,1.79539613251553e+002°)
1.66724721255107e+003	(-8.93329549606902e-001dB,1.79537459329722e+002°)
1.67494287602645e+003	(-8.93566911174804e-001dB,1.79535295059879e+002°)
1.68267406107048e+003	(-8.93806510151775e-001dB,1.79533120388512e+002°)
1.69044093164328e+003	(-8.94048368015905e-001dB,1.79530935261778e+002°)
1.69824365246176e+003	(-8.94292506458712e-001dB,1.79528739625503e+002°)
1.70608238900314e+003	(-8.94538947387426e-001dB,1.79526533425179e+002°)
1.71395730750844e+003	(-8.94787712927301e-001dB,1.79524316605958e+002°)
1.72186857498602e+003	(-8.95038825423907e-001dB,1.79522089112653e+002°)
1.72981635921511e+003	(-8.95292307445431e-001dB,1.79519850889735e+002°)
1.73780082874939e+003	(-8.95548181785135e-001dB,1.79517601881326e+002°)
1.74582215292052e+003	(-8.95806471463671e-001dB,1.79515342031201e+002°)
1.75388050184177e+003	(-8.96067199731501e-001dB,1.79513071282783e+002°)
1.76197604641164e+003	(-8.96330390071403e-001dB,1.79510789579139e+002°)
1.77010895831743e+003	(-8.96596066200901e-001dB,1.79508496862977e+002°)
1.77827941003894e+003	(-8.96864252074795e-001dB,1.79506193076647e+002°)
1.78648757485206e+003	(-8.97134971887707e-001dB,1.79503878162133e+002°)
1.79473362683254e+003	(-8.97408250076612e-001dB,1.79501552061051e+002°)
1.80301774085958e+003	(-8.97684111323484e-001dB,1.79499214714649e+002°)
1.81134009261962e+003	(-8.97962580557909e-001dB,1.79496866063798e+002°)
1.81970085861000e+003	(-8.98243682959743e-001dB,1.79494506048995e+002°)
1.82810021614276e+003	(-8.98527443961777e-001dB,1.79492134610356e+002°)
1.83653834334836e+003	(-8.98813889252532e-001dB,1.79489751687613e+002°)
1.84501541917949e+003	(-8.99103044778951e-001dB,1.79487357220111e+002°)
1.85353162341483e+003	(-8.99394936749225e-001dB,1.79484951146807e+002°)
1.86208713666288e+003	(-8.99689591635602e-001dB,1.79482533406263e+002°)
1.87068214036582e+003	(-8.99987036177280e-001dB,1.79480103936643e+002°)
1.87931681680328e+003	(-9.00287297383255e-001dB,1.79477662675711e+002°)
1.88799134909631e+003	(-9.00590402535293e-001dB,1.79475209560828e+002°)
1.89670592121116e+003	(-9.00896379190856e-001dB,1.79472744528947e+002°)
1.90546071796326e+003	(-9.01205255186115e-001dB,1.79470267516609e+002°)
1.91425592502110e+003	(-9.01517058639041e-001dB,1.79467778459939e+002°)
1.92309172891017e+003	(-9.01831817952377e-001dB,1.79465277294647e+002°)
1.93196831701694e+003	(-9.02149561816864e-001dB,1.79462763956015e+002°)
1.94088587759280e+003	(-9.02470319214291e-001dB,1.79460238378905e+002°)
1.94984459975806e+003	(-9.02794119420771e-001dB,1.79457700497743e+002°)
1.95884467350601e+003	(-9.03120992009866e-001dB,1.79455150246524e+002°)
1.96788628970686e+003	(-9.03450966856005e-001dB,1.79452587558806e+002°)
1.97696964011188e+003	(-9.03784074137670e-001dB,1.79450012367703e+002°)
1.98609491735739e+003	(-9.04120344340765e-001dB,1.79447424605882e+002°)
1.99526231496890e+003	(-9.04459808262051e-001dB,1.79444824205562e+002°)
2.00447202736518e+003	(-9.04802497012556e-001dB,1.79442211098508e+002°)
2.01372424986241e+003	(-9.05148442021057e-001dB,1.79439585216025e+002°)
2.02301917867829e+003	(-9.05497675037581e-001dB,1.79436946488955e+002°)
2.03235701093624e+003	(-9.05850228137021e-001dB,1.79434294847674e+002°)
2.04173794466955e+003	(-9.06206133722686e-001dB,1.79431630222086e+002°)
2.05116217882559e+003	(-9.06565424529968e-001dB,1.79428952541620e+002°)
2.06062991327002e+003	(-9.06928133630103e-001dB,1.79426261735223e+002°)
2.07014134879106e+003	(-9.07294294433816e-001dB,1.79423557731359e+002°)
2.07969668710372e+003	(-9.07663940695233e-001dB,1.79420840458002e+002°)
2.08929613085406e+003	(-9.08037106515626e-001dB,1.79418109842630e+002°)
2.09893988362355e+003	(-9.08413826347349e-001dB,1.79415365812226e+002°)
2.10862814993331e+003	(-9.08794134997790e-001dB,1.79412608293266e+002°)
2.11836113524852e+003	(-9.09178067633327e-001dB,1.79409837211720e+002°)
2.12813904598273e+003	(-9.09565659783394e-001dB,1.79407052493043e+002°)
2.13796208950225e+003	(-9.09956947344620e-001dB,1.79404254062173e+002°)
2.14783047413056e+003	(-9.10351966584837e-001dB,1.79401441843526e+002°)
2.15774440915269e+003	(-9.10750754147462e-001dB,1.79398615760986e+002°)
2.16770410481972e+003	(-9.11153347055642e-001dB,1.79395775737907e+002°)
2.17770977235318e+003	(-9.11559782716571e-001dB,1.79392921697103e+002°)
2.18776162394958e+003	(-9.11970098925881e-001dB,1.79390053560846e+002°)
2.19785987278485e+003	(-9.12384333872057e-001dB,1.79387171250856e+002°)
2.20800473301892e+003	(-9.12802526140920e-001dB,1.79384274688300e+002°)
2.21819641980024e+003	(-9.13224714720144e-001dB,1.79381363793785e+002°)
2.22843514927033e+003	(-9.13650939003913e-001dB,1.79378438487353e+002°)
2.23872113856836e+003	(-9.14081238797494e-001dB,1.79375498688473e+002°)
2.24905460583581e+003	(-9.14515654322025e-001dB,1.79372544316038e+002°)
2.25943577022100e+003	(-9.14954226219264e-001dB,1.79369575288360e+002°)
2.26986485188385e+003	(-9.15396995556468e-001dB,1.79366591523159e+002°)
2.28034207200044e+003	(-9.15844003831227e-001dB,1.79363592937564e+002°)
2.29086765276780e+003	(-9.16295292976534e-001dB,1.79360579448102e+002°)
2.30144181740853e+003	(-9.16750905365759e-001dB,1.79357550970693e+002°)
2.31206479017562e+003	(-9.17210883817776e-001dB,1.79354507420645e+002°)
2.32273679635713e+003	(-9.17675271602132e-001dB,1.79351448712649e+002°)
2.33345806228103e+003	(-9.18144112444307e-001dB,1.79348374760766e+002°)
2.34422881531995e+003	(-9.18617450531012e-001dB,1.79345285478430e+002°)
2.35504928389604e+003	(-9.19095330515589e-001dB,1.79342180778436e+002°)
2.36591969748579e+003	(-9.19577797523437e-001dB,1.79339060572932e+002°)
2.37684028662490e+003	(-9.20064897157605e-001dB,1.79335924773416e+002°)
2.38781128291321e+003	(-9.20556675504318e-001dB,1.79332773290729e+002°)
2.39883291901952e+003	(-9.21053179138749e-001dB,1.79329606035046e+002°)
2.40990542868662e+003	(-9.21554455130702e-001dB,1.79326422915870e+002°)
2.42102904673621e+003	(-9.22060551050502e-001dB,1.79323223842025e+002°)
2.43220400907384e+003	(-9.22571514974894e-001dB,1.79320008721649e+002°)
2.44343055269400e+003	(-9.23087395493022e-001dB,1.79316777462188e+002°)
2.45470891568506e+003	(-9.23608241712538e-001dB,1.79313529970384e+002°)
2.46603933723437e+003	(-9.24134103265800e-001dB,1.79310266152275e+002°)
2.47742205763332e+003	(-9.24665030316036e-001dB,1.79306985913181e+002°)
2.48885731828242e+003	(-9.25201073563758e-001dB,1.79303689157698e+002°)
2.50034536169646e+003	(-9.25742284253140e-001dB,1.79300375789694e+002°)
2.51188643150961e+003	(-9.26288714178567e-001dB,1.79297045712296e+002°)
2.52348077248061e+003	(-9.26840415691174e-001dB,1.79293698827883e+002°)
2.53512863049794e+003	(-9.27397441705691e-001dB,1.79290335038083e+002°)
2.54683025258507e+003	(-9.27959845707022e-001dB,1.79286954243757e+002°)
2.55858588690568e+003	(-9.28527681757331e-001dB,1.79283556344997e+002°)
2.57039578276890e+003	(-9.29101004502873e-001dB,1.79280141241114e+002°)
2.58226019063463e+003	(-9.29679869181170e-001dB,1.79276708830632e+002°)
2.59417936211885e+003	(-9.30264331628174e-001dB,1.79273259011277e+002°)
2.60615354999893e+003	(-9.30854448285526e-001dB,1.79269791679968e+002°)
2.61818300821902e+003	(-9.31450276207922e-001dB,1.79266306732813e+002°)
2.63026799189542e+003	(-9.32051873070684e-001dB,1.79262804065093e+002°)
2.64240875732198e+003	(-9.32659297177268e-001dB,1.79259283571257e+002°)
2.65460556197557e+003	(-9.33272607467089e-001dB,1.79255745144913e+002°)
2.66685866452151e+003	(-9.33891863523181e-001dB,1.79252188678817e+002°)
2.67916832481907e+003	(-9.34517125580249e-001dB,1.79248614064862e+002°)
2.69153480392695e+003	(-9.35148454532690e-001dB,1.79245021194073e+002°)
2.70395836410888e+003	(-9.35785911942717e-001dB,1.79241409956593e+002°)
2.71643926883912e+003	(-9.36429560048691e-001dB,1.79237780241674e+002°)
2.72897778280808e+003	(-9.37079461773470e-001dB,1.79234131937668e+002°)
2.74157417192792e+003	(-9.37735680732994e-001dB,1.79230464932017e+002°)
2.75422870333820e+003	(-9.38398281244822e-001dB,1.79226779111239e+002°)
2.76694164541155e+003	(-9.39067328337067e-001dB,1.79223074360921e+002°)
2.77971326775933e+003	(-9.39742887757153e-001dB,1.79219350565710e+002°)
2.79254384123738e+003	(-9.40425025980929e-001dB,1.79215607609295e+002°)
2.80543363795175e+003	(-9.41113810221797e-001dB,1.79211845374403e+002°)
2.81838293126449e+003	(-9.41809308440059e-001dB,1.79208063742786e+002°)
2.83139199579942e+003	(-9.42511589352324e-001dB,1.79204262595205e+002°)
2.84446110744795e+003	(-9.43220722441116e-001dB,1.79200441811427e+002°)
2.85759054337499e+003	(-9.43936777964519e-001dB,1.79196601270206e+002°)
2.87078058202473e+003	(-9.44659826966208e-001dB,1.79192740849273e+002°)
2.88403150312665e+003	(-9.45389941285286e-001dB,1.79188860425326e+002°)
2.89734358770136e+003	(-9.46127193566614e-001dB,1.79184959874015e+002°)
2.91071711806665e+003	(-9.46871657270996e-001dB,1.79181039069934e+002°)
2.92415237784338e+003	(-9.47623406685780e-001dB,1.79177097886601e+002°)
2.93764965196157e+003	(-9.48382516935399e-001dB,1.79173136196453e+002°)
2.95120922666643e+003	(-9.49149063992241e-001dB,1.79169153870827e+002°)
2.96483138952438e+003	(-9.49923124687580e-001dB,1.79165150779951e+002°)
2.97851642942923e+003	(-9.50704776722727e-001dB,1.79161126792928e+002°)
2.99226463660823e+003	(-9.51494098680308e-001dB,1.79157081777725e+002°)
3.00607630262827e+003	(-9.52291170035772e-001dB,1.79153015601154e+002°)
3.01995172040206e+003	(-9.53096071169049e-001dB,1.79148928128865e+002°)
3.03389118419431e+003	(-9.53908883376339e-001dB,1.79144819225327e+002°)
3.04789498962803e+003	(-9.54729688882186e-001dB,1.79140688753815e+002°)
3.06196343369072e+003	(-9.55558570851692e-001dB,1.79136536576393e+002°)
3.07609681474075e+003	(-9.56395613402793e-001dB,1.79132362553904e+002°)
3.09029543251364e+003	(-9.57240901619075e-001dB,1.79128166545952e+002°)
3.10455958812840e+003	(-9.58094521562334e-001dB,1.79123948410885e+002°)
3.11888958409398e+003	(-9.58956560285711e-001dB,1.79119708005781e+002°)
3.13328572431563e+003	(-9.59827105846814e-001dB,1.79115445186434e+002°)
3.14774831410136e+003	(-9.60706247321183e-001dB,1.79111159807336e+002°)
3.16227766016843e+003	(-9.61594074815861e-001dB,1.79106851721658e+002°)
3.17687407064982e+003	(-9.62490679483229e-001dB,1.79102520781240e+002°)
3.19153785510081e+003	(-9.63396153535094e-001dB,1.79098166836568e+002°)
3.20626932450551e+003	(-9.64310590256939e-001dB,1.79093789736759e+002°)
3.22106879128348e+003	(-9.65234084022461e-001dB,1.79089389329545e+002°)
3.23593656929633e+003	(-9.66166730308273e-001dB,1.79084965461253e+002°)
3.25087297385439e+003	(-9.67108625708939e-001dB,1.79080517976789e+002°)
3.26587832172341e+003	(-9.68059867952181e-001dB,1.79076046719617e+002°)
3.28095293113124e+003	(-9.69020555914278e-001dB,1.79071551531744e+002°)
3.29609712177463e+003	(-9.69990789635926e-001dB,1.79067032253700e+002°)
3.31131121482596e+003	(-9.70970670338115e-001dB,1.79062488724515e+002°)
3.32659553294010e+003	(-9.71960300438421e-001dB,1.79057920781707e+002°)
3.34195040026120e+003	(-9.72959783567458e-001dB,1.79053328261254e+002°)
3.35737614242960e+003	(-9.73969224585791e-001dB,1.79048710997581e+002°)
3.37287308658874e+003	(-9.74988729600813e-001dB,1.79044068823535e+002°)
3.38844156139208e+003	(-9.76018405984269e-001dB,1.79039401570365e+002°)
3.40408189701006e+003	(-9.77058362389753e-001dB,1.79034709067703e+002°)
3.41979442513714e+003	(-9.78108708770727e-001dB,1.79029991143540e+002°)
3.43557947899880e+003	(-9.79169556398690e-001dB,1.79025247624207e+002°)
3.45143739335862e+003	(-9.80241017881759e-001dB,1.79020478334349e+002°)
3.46736850452537e+003	(-9.81323207183455e-001dB,1.79015683096906e+002°)
3.48337315036018e+003	(-9.82416239641929e-001dB,1.79010861733089e+002°)
3.49945167028363e+003	(-9.83520231989429e-001dB,1.79006014062354e+002°)
3.51560440528304e+003	(-9.84635302372122e-001dB,1.79001139902385e+002°)
3.53183169791963e+003	(-9.85761570370204e-001dB,1.78996239069061e+002°)
3.54813389233581e+003	(-9.86899157018515e-001dB,1.78991311376439e+002°)
3.56451133426250e+003	(-9.88048184827301e-001dB,1.78986356636726e+002°)
