Freq.	V(v06)
1.00000000000000e+003	(-5.46323218032638e-001dB,1.79185311657510e+002°)
1.00046062307284e+003	(-5.46323323512032e-001dB,1.79184934213665e+002°)
1.00092145831930e+003	(-5.46323429093224e-001dB,1.79184556592935e+002°)
1.00138250583710e+003	(-5.46323534776307e-001dB,1.79184178795235e+002°)
1.00184376572403e+003	(-5.46323640561387e-001dB,1.79183800820479e+002°)
1.00230523807790e+003	(-5.46323746448586e-001dB,1.79183422668581e+002°)
1.00276692299659e+003	(-5.46323852437973e-001dB,1.79183044339455e+002°)
1.00322882057800e+003	(-5.46323958529679e-001dB,1.79182665833016e+002°)
1.00369093092010e+003	(-5.46324064723781e-001dB,1.79182287149177e+002°)
1.00415325412088e+003	(-5.46324171020409e-001dB,1.79181908287854e+002°)
1.00461579027840e+003	(-5.46324277419651e-001dB,1.79181529248958e+002°)
1.00507853949074e+003	(-5.46324383921617e-001dB,1.79181150032406e+002°)
1.00554150185604e+003	(-5.46324490526416e-001dB,1.79180770638110e+002°)
1.00600467747250e+003	(-5.46324597234122e-001dB,1.79180391065984e+002°)
1.00646806643833e+003	(-5.46324704044869e-001dB,1.79180011315942e+002°)
1.00693166885180e+003	(-5.46324810958749e-001dB,1.79179631387898e+002°)
1.00739548481125e+003	(-5.46324917975862e-001dB,1.79179251281766e+002°)
1.00785951441503e+003	(-5.46325025096318e-001dB,1.79178870997460e+002°)
1.00832375776155e+003	(-5.46325132320231e-001dB,1.79178490534892e+002°)
1.00878821494927e+003	(-5.46325239647673e-001dB,1.79178109893977e+002°)
1.00925288607668e+003	(-5.46325347078784e-001dB,1.79177729074627e+002°)
1.00971777124234e+003	(-5.46325454613647e-001dB,1.79177348076758e+002°)
1.01018287054483e+003	(-5.46325562252381e-001dB,1.79176966900281e+002°)
1.01064818408279e+003	(-5.46325669995090e-001dB,1.79176585545111e+002°)
1.01111371195491e+003	(-5.46325777841862e-001dB,1.79176204011160e+002°)
1.01157945425990e+003	(-5.46325885792807e-001dB,1.79175822298343e+002°)
1.01204541109654e+003	(-5.46325993848030e-001dB,1.79175440406572e+002°)
1.01251158256366e+003	(-5.46326102007658e-001dB,1.79175058335761e+002°)
1.01297796876010e+003	(-5.46326210271757e-001dB,1.79174676085822e+002°)
1.01344456978479e+003	(-5.46326318640463e-001dB,1.79174293656669e+002°)
1.01391138573668e+003	(-5.46326427113886e-001dB,1.79173911048215e+002°)
1.01437841671477e+003	(-5.46326535692108e-001dB,1.79173528260373e+002°)
1.01484566281810e+003	(-5.46326644375247e-001dB,1.79173145293056e+002°)
1.01531312414576e+003	(-5.46326753163394e-001dB,1.79172762146177e+002°)
1.01578080079690e+003	(-5.46326862056676e-001dB,1.79172378819648e+002°)
1.01624869287070e+003	(-5.46326971055196e-001dB,1.79171995313383e+002°)
1.01671680046638e+003	(-5.46327080159031e-001dB,1.79171611627295e+002°)
1.01718512368322e+003	(-5.46327189368327e-001dB,1.79171227761296e+002°)
1.01765366262053e+003	(-5.46327298683172e-001dB,1.79170843715299e+002°)
1.01812241737770e+003	(-5.46327408103666e-001dB,1.79170459489216e+002°)
1.01859138805412e+003	(-5.46327517629932e-001dB,1.79170075082960e+002°)
1.01906057474925e+003	(-5.46327627262059e-001dB,1.79169690496444e+002°)
1.01952997756260e+003	(-5.46327737000175e-001dB,1.79169305729581e+002°)
1.01999959659372e+003	(-5.46327846844374e-001dB,1.79168920782282e+002°)
1.02046943194220e+003	(-5.46327956794749e-001dB,1.79168535654460e+002°)
1.02093948370768e+003	(-5.46328066851439e-001dB,1.79168150346028e+002°)
1.02140975198985e+003	(-5.46328177014519e-001dB,1.79167764856897e+002°)
1.02188023688844e+003	(-5.46328287284104e-001dB,1.79167379186981e+002°)
1.02235093850323e+003	(-5.46328397660328e-001dB,1.79166993336192e+002°)
1.02282185693405e+003	(-5.46328508143281e-001dB,1.79166607304440e+002°)
1.02329299228076e+003	(-5.46328618733068e-001dB,1.79166221091640e+002°)
1.02376434464328e+003	(-5.46328729429775e-001dB,1.79165834697702e+002°)
1.02423591412157e+003	(-5.46328840233552e-001dB,1.79165448122540e+002°)
1.02470770081565e+003	(-5.46328951144479e-001dB,1.79165061366064e+002°)
1.02517970482556e+003	(-5.46329062162678e-001dB,1.79164674428187e+002°)
1.02565192625141e+003	(-5.46329173288252e-001dB,1.79164287308821e+002°)
1.02612436519334e+003	(-5.46329284521299e-001dB,1.79163900007878e+002°)
1.02659702175155e+003	(-5.46329395861953e-001dB,1.79163512525269e+002°)
1.02706989602628e+003	(-5.46329507310291e-001dB,1.79163124860906e+002°)
1.02754298811781e+003	(-5.46329618866451e-001dB,1.79162737014702e+002°)
1.02801629812647e+003	(-5.46329730530529e-001dB,1.79162348986567e+002°)
1.02848982615265e+003	(-5.46329842302628e-001dB,1.79161960776413e+002°)
1.02896357229675e+003	(-5.46329954182871e-001dB,1.79161572384152e+002°)
1.02943753665927e+003	(-5.46330066171346e-001dB,1.79161183809696e+002°)
1.02991171934070e+003	(-5.46330178268182e-001dB,1.79160795052955e+002°)
1.03038612044162e+003	(-5.46330290473483e-001dB,1.79160406113842e+002°)
1.03086074006263e+003	(-5.46330402787358e-001dB,1.79160016992268e+002°)
1.03133557830439e+003	(-5.46330515209926e-001dB,1.79159627688144e+002°)
1.03181063526759e+003	(-5.46330627741269e-001dB,1.79159238201381e+002°)
1.03228591105300e+003	(-5.46330740381527e-001dB,1.79158848531891e+002°)
1.03276140576140e+003	(-5.46330853130794e-001dB,1.79158458679585e+002°)
1.03323711949363e+003	(-5.46330965989179e-001dB,1.79158068644373e+002°)
1.03371305235059e+003	(-5.46331078956795e-001dB,1.79157678426168e+002°)
1.03418920443319e+003	(-5.46331192033779e-001dB,1.79157288024880e+002°)
1.03466557584244e+003	(-5.46331305220189e-001dB,1.79156897440421e+002°)
1.03514216667934e+003	(-5.46331418516188e-001dB,1.79156506672700e+002°)
1.03561897704499e+003	(-5.46331531921839e-001dB,1.79156115721630e+002°)
1.03609600704049e+003	(-5.46331645437288e-001dB,1.79155724587121e+002°)
1.03657325676701e+003	(-5.46331759062640e-001dB,1.79155333269084e+002°)
1.03705072632576e+003	(-5.46331872797998e-001dB,1.79154941767429e+002°)
1.03752841581801e+003	(-5.46331986643482e-001dB,1.79154550082067e+002°)
1.03800632534507e+003	(-5.46332100599176e-001dB,1.79154158212910e+002°)
1.03848445500828e+003	(-5.46332214665236e-001dB,1.79153766159867e+002°)
1.03896280490904e+003	(-5.46332328841741e-001dB,1.79153373922850e+002°)
1.03944137514880e+003	(-5.46332443128809e-001dB,1.79152981501768e+002°)
1.03992016582906e+003	(-5.46332557526552e-001dB,1.79152588896533e+002°)
1.04039917705135e+003	(-5.46332672035096e-001dB,1.79152196107054e+002°)
1.04087840891727e+003	(-5.46332786654542e-001dB,1.79151803133243e+002°)
1.04135786152844e+003	(-5.46332901384987e-001dB,1.79151409975009e+002°)
1.04183753498654e+003	(-5.46333016226572e-001dB,1.79151016632262e+002°)
1.04231742939331e+003	(-5.46333131179397e-001dB,1.79150623104914e+002°)
1.04279754485051e+003	(-5.46333246243570e-001dB,1.79150229392875e+002°)
1.04327788145997e+003	(-5.46333361419208e-001dB,1.79149835496053e+002°)
1.04375843932355e+003	(-5.46333476706422e-001dB,1.79149441414360e+002°)
1.04423921854318e+003	(-5.46333592105338e-001dB,1.79149047147706e+002°)
1.04472021922080e+003	(-5.46333707616040e-001dB,1.79148652696000e+002°)
1.04520144145844e+003	(-5.46333823238666e-001dB,1.79148258059153e+002°)
1.04568288535814e+003	(-5.46333938973322e-001dB,1.79147863237075e+002°)
1.04616455102201e+003	(-5.46334054820125e-001dB,1.79147468229674e+002°)
1.04664643855220e+003	(-5.46334170779184e-001dB,1.79147073036862e+002°)
1.04712854805090e+003	(-5.46334286850605e-001dB,1.79146677658548e+002°)
1.04761087962036e+003	(-5.46334403034514e-001dB,1.79146282094642e+002°)
1.04809343336288e+003	(-5.46334519331026e-001dB,1.79145886345053e+002°)
1.04857620938077e+003	(-5.46334635740245e-001dB,1.79145490409691e+002°)
1.04905920777645e+003	(-5.46334752262292e-001dB,1.79145094288465e+002°)
1.04954242865232e+003	(-5.46334868897284e-001dB,1.79144697981286e+002°)
1.05002587211089e+003	(-5.46334985645324e-001dB,1.79144301488062e+002°)
1.05050953825466e+003	(-5.46335102506541e-001dB,1.79143904808704e+002°)
1.05099342718622e+003	(-5.46335219481043e-001dB,1.79143507943119e+002°)
1.05147753900818e+003	(-5.46335336568934e-001dB,1.79143110891219e+002°)
1.05196187382322e+003	(-5.46335453770342e-001dB,1.79142713652911e+002°)
1.05244643173406e+003	(-5.46335571085383e-001dB,1.79142316228106e+002°)
1.05293121284344e+003	(-5.46335688514179e-001dB,1.79141918616712e+002°)
1.05341621725419e+003	(-5.46335806056807e-001dB,1.79141520818639e+002°)
1.05390144506916e+003	(-5.46335923713439e-001dB,1.79141122833796e+002°)
1.05438689639126e+003	(-5.46336041484151e-001dB,1.79140724662091e+002°)
1.05487257132344e+003	(-5.46336159369061e-001dB,1.79140326303434e+002°)
1.05535846996870e+003	(-5.46336277368306e-001dB,1.79139927757734e+002°)
1.05584459243008e+003	(-5.46336395481982e-001dB,1.79139529024899e+002°)
1.05633093881069e+003	(-5.46336513710228e-001dB,1.79139130104839e+002°)
1.05681750921366e+003	(-5.46336632053127e-001dB,1.79138730997462e+002°)
1.05730430374219e+003	(-5.46336750510816e-001dB,1.79138331702677e+002°)
1.05779132249950e+003	(-5.46336869083403e-001dB,1.79137932220393e+002°)
1.05827856558890e+003	(-5.46336987771016e-001dB,1.79137532550518e+002°)
1.05876603311370e+003	(-5.46337106573769e-001dB,1.79137132692961e+002°)
1.05925372517729e+003	(-5.46337225491774e-001dB,1.79136732647631e+002°)
1.05974164188310e+003	(-5.46337344525152e-001dB,1.79136332414436e+002°)
1.06022978333460e+003	(-5.46337463674011e-001dB,1.79135931993284e+002°)
1.06071814963532e+003	(-5.46337582938466e-001dB,1.79135531384084e+002°)
1.06120674088882e+003	(-5.46337702318667e-001dB,1.79135130586744e+002°)
1.06169555719873e+003	(-5.46337821814698e-001dB,1.79134729601173e+002°)
1.06218459866871e+003	(-5.46337941426677e-001dB,1.79134328427279e+002°)
1.06267386540247e+003	(-5.46338061154742e-001dB,1.79133927064970e+002°)
1.06316335750378e+003	(-5.46338180998994e-001dB,1.79133525514154e+002°)
1.06365307507644e+003	(-5.46338300959558e-001dB,1.79133123774739e+002°)
1.06414301822432e+003	(-5.46338421036551e-001dB,1.79132721846634e+002°)
1.06463318705131e+003	(-5.46338541230089e-001dB,1.79132319729746e+002°)
1.06512358166138e+003	(-5.46338661540298e-001dB,1.79131917423984e+002°)
1.06561420215852e+003	(-5.46338781967282e-001dB,1.79131514929254e+002°)
1.06610504864678e+003	(-5.46338902511183e-001dB,1.79131112245466e+002°)
1.06659612123026e+003	(-5.46339023172094e-001dB,1.79130709372527e+002°)
1.06708742001310e+003	(-5.46339143950141e-001dB,1.79130306310345e+002°)
1.06757894509950e+003	(-5.46339264845456e-001dB,1.79129903058827e+002°)
1.06807069659369e+003	(-5.46339385858147e-001dB,1.79129499617881e+002°)
1.06856267459996e+003	(-5.46339506988342e-001dB,1.79129095987415e+002°)
1.06905487922266e+003	(-5.46339628236140e-001dB,1.79128692167336e+002°)
1.06954731056616e+003	(-5.46339749601685e-001dB,1.79128288157552e+002°)
1.07003996873490e+003	(-5.46339871085093e-001dB,1.79127883957971e+002°)
1.07053285383337e+003	(-5.46339992686461e-001dB,1.79127479568499e+002°)
1.07102596596607e+003	(-5.46340114405934e-001dB,1.79127074989044e+002°)
1.07151930523761e+003	(-5.46340236243625e-001dB,1.79126670219513e+002°)
1.07201287175260e+003	(-5.46340358199651e-001dB,1.79126265259815e+002°)
1.07250666561571e+003	(-5.46340480274130e-001dB,1.79125860109855e+002°)
1.07300068693166e+003	(-5.46340602467190e-001dB,1.79125454769541e+002°)
1.07349493580524e+003	(-5.46340724778948e-001dB,1.79125049238780e+002°)
1.07398941234125e+003	(-5.46340847209523e-001dB,1.79124643517480e+002°)
1.07448411664456e+003	(-5.46340969759037e-001dB,1.79124237605546e+002°)
1.07497904882009e+003	(-5.46341092427608e-001dB,1.79123831502887e+002°)
1.07547420897279e+003	(-5.46341215215374e-001dB,1.79123425209410e+002°)
1.07596959720769e+003	(-5.46341338122431e-001dB,1.79123018725020e+002°)
1.07646521362984e+003	(-5.46341461148915e-001dB,1.79122612049625e+002°)
1.07696105834435e+003	(-5.46341584294963e-001dB,1.79122205183132e+002°)
1.07745713145637e+003	(-5.46341707560639e-001dB,1.79121798125446e+002°)
1.07795343307111e+003	(-5.46341830946133e-001dB,1.79121390876476e+002°)
1.07844996329383e+003	(-5.46341954451532e-001dB,1.79120983436128e+002°)
1.07894672222983e+003	(-5.46342078076963e-001dB,1.79120575804308e+002°)
1.07944370998446e+003	(-5.46342201822544e-001dB,1.79120167980922e+002°)
1.07994092666311e+003	(-5.46342325688409e-001dB,1.79119759965878e+002°)
1.08043837237123e+003	(-5.46342449674669e-001dB,1.79119351759081e+002°)
1.08093604721433e+003	(-5.46342573781462e-001dB,1.79118943360438e+002°)
1.08143395129794e+003	(-5.46342698008902e-001dB,1.79118534769855e+002°)
1.08193208472766e+003	(-5.46342822357100e-001dB,1.79118125987239e+002°)
1.08243044760913e+003	(-5.46342946826186e-001dB,1.79117717012496e+002°)
1.08292904004805e+003	(-5.46343071416300e-001dB,1.79117307845531e+002°)
1.08342786215014e+003	(-5.46343196127541e-001dB,1.79116898486252e+002°)
1.08392691402121e+003	(-5.46343320960057e-001dB,1.79116488934563e+002°)
1.08442619576708e+003	(-5.46343445913935e-001dB,1.79116079190372e+002°)
1.08492570749364e+003	(-5.46343570989340e-001dB,1.79115669253583e+002°)
1.08542544930683e+003	(-5.46343696186380e-001dB,1.79115259124104e+002°)
1.08592542131263e+003	(-5.46343821505177e-001dB,1.79114848801839e+002°)
1.08642562361707e+003	(-5.46343946945841e-001dB,1.79114438286695e+002°)
1.08692605632623e+003	(-5.46344072508518e-001dB,1.79114027578577e+002°)
1.08742671954625e+003	(-5.46344198193321e-001dB,1.79113616677392e+002°)
1.08792761338329e+003	(-5.46344324000383e-001dB,1.79113205583044e+002°)
1.08842873794360e+003	(-5.46344449929804e-001dB,1.79112794295439e+002°)
1.08893009333344e+003	(-5.46344575981752e-001dB,1.79112382814484e+002°)
1.08943167965914e+003	(-5.46344702156322e-001dB,1.79111971140082e+002°)
1.08993349702707e+003	(-5.46344828453637e-001dB,1.79111559272141e+002°)
1.09043554554366e+003	(-5.46344954873835e-001dB,1.79111147210564e+002°)
1.09093782531539e+003	(-5.46345081417047e-001dB,1.79110734955259e+002°)
1.09144033644876e+003	(-5.46345208083374e-001dB,1.79110322506129e+002°)
1.09194307905036e+003	(-5.46345334872945e-001dB,1.79109909863080e+002°)
1.09244605322680e+003	(-5.46345461785919e-001dB,1.79109497026017e+002°)
1.09294925908475e+003	(-5.46345588822384e-001dB,1.79109083994846e+002°)
1.09345269673092e+003	(-5.46345715982479e-001dB,1.79108670769472e+002°)
1.09395636627210e+003	(-5.46345843266350e-001dB,1.79108257349799e+002°)
1.09446026781508e+003	(-5.46345970674093e-001dB,1.79107843735732e+002°)
1.09496440146675e+003	(-5.46346098205848e-001dB,1.79107429927178e+002°)
1.09546876733400e+003	(-5.46346225861750e-001dB,1.79107015924039e+002°)
1.09597336552381e+003	(-5.46346353641918e-001dB,1.79106601726222e+002°)
1.09647819614319e+003	(-5.46346481546476e-001dB,1.79106187333630e+002°)
1.09698325929920e+003	(-5.46346609575522e-001dB,1.79105772746170e+002°)
1.09748855509895e+003	(-5.46346737729255e-001dB,1.79105357963745e+002°)
1.09799408364961e+003	(-5.46346866007739e-001dB,1.79104942986259e+002°)
1.09849984505838e+003	(-5.46346994411119e-001dB,1.79104527813619e+002°)
1.09900583943252e+003	(-5.46347122939539e-001dB,1.79104112445727e+002°)
1.09951206687935e+003	(-5.46347251593127e-001dB,1.79103696882489e+002°)
1.10001852750622e+003	(-5.46347380371976e-001dB,1.79103281123810e+002°)
1.10052522142055e+003	(-5.46347509276248e-001dB,1.79102865169592e+002°)
1.10103214872978e+003	(-5.46347638306045e-001dB,1.79102449019741e+002°)
1.10153930954142e+003	(-5.46347767461516e-001dB,1.79102032674162e+002°)
1.10204670396303e+003	(-5.46347896742787e-001dB,1.79101616132757e+002°)
1.10255433210223e+003	(-5.46348026149983e-001dB,1.79101199395432e+002°)
1.10306219406665e+003	(-5.46348155683230e-001dB,1.79100782462090e+002°)
1.10357028996402e+003	(-5.46348285342657e-001dB,1.79100365332635e+002°)
1.10407861990208e+003	(-5.46348415128396e-001dB,1.79099948006972e+002°)
1.10458718398863e+003	(-5.46348545040579e-001dB,1.79099530485005e+002°)
1.10509598233154e+003	(-5.46348675079329e-001dB,1.79099112766637e+002°)
1.10560501503871e+003	(-5.46348805244777e-001dB,1.79098694851772e+002°)
1.10611428221808e+003	(-5.46348935537055e-001dB,1.79098276740314e+002°)
1.10662378397767e+003	(-5.46349065956294e-001dB,1.79097858432167e+002°)
1.10713352042552e+003	(-5.46349196502619e-001dB,1.79097439927234e+002°)
1.10764349166975e+003	(-5.46349327176161e-001dB,1.79097021225419e+002°)
1.10815369781849e+003	(-5.46349457977057e-001dB,1.79096602326626e+002°)
1.10866413897996e+003	(-5.46349588905409e-001dB,1.79096183230758e+002°)
1.10917481526241e+003	(-5.46349719961396e-001dB,1.79095763937719e+002°)
1.10968572677413e+003	(-5.46349851145113e-001dB,1.79095344447412e+002°)
1.11019687362348e+003	(-5.46349982456701e-001dB,1.79094924759740e+002°)
1.11070825591887e+003	(-5.46350113896298e-001dB,1.79094504874607e+002°)
1.11121987376874e+003	(-5.46350245464017e-001dB,1.79094084791917e+002°)
1.11173172728160e+003	(-5.46350377159999e-001dB,1.79093664511571e+002°)
1.11224381656599e+003	(-5.46350508984364e-001dB,1.79093244033474e+002°)
1.11275614173052e+003	(-5.46350640937276e-001dB,1.79092823357528e+002°)
1.11326870288385e+003	(-5.46350773018831e-001dB,1.79092402483637e+002°)
1.11378150013467e+003	(-5.46350905229181e-001dB,1.79091981411704e+002°)
1.11429453359173e+003	(-5.46351037568454e-001dB,1.79091560141631e+002°)
1.11480780336385e+003	(-5.46351170036777e-001dB,1.79091138673322e+002°)
1.11532130955986e+003	(-5.46351302634285e-001dB,1.79090717006678e+002°)
1.11583505228867e+003	(-5.46351435361121e-001dB,1.79090295141605e+002°)
1.11634903165924e+003	(-5.46351568217397e-001dB,1.79089873078002e+002°)
1.11686324778057e+003	(-5.46351701203252e-001dB,1.79089450815775e+002°)
1.11737770076170e+003	(-5.46351834318821e-001dB,1.79089028354824e+002°)
1.11789239071175e+003	(-5.46351967564249e-001dB,1.79088605695054e+002°)
1.11840731773986e+003	(-5.46352100939656e-001dB,1.79088182836365e+002°)
1.11892248195525e+003	(-5.46352234445173e-001dB,1.79087759778662e+002°)
1.11943788346716e+003	(-5.46352368080932e-001dB,1.79087336521845e+002°)
1.11995352238489e+003	(-5.46352501847075e-001dB,1.79086913065818e+002°)
1.12046939881781e+003	(-5.46352635743743e-001dB,1.79086489410483e+002°)
1.12098551287532e+003	(-5.46352769771046e-001dB,1.79086065555743e+002°)
1.12150186466687e+003	(-5.46352903929151e-001dB,1.79085641501498e+002°)
1.12201845430197e+003	(-5.46353038218148e-001dB,1.79085217247652e+002°)
1.12253528189017e+003	(-5.46353172638210e-001dB,1.79084792794107e+002°)
1.12305234754109e+003	(-5.46353307189454e-001dB,1.79084368140764e+002°)
1.12356965136437e+003	(-5.46353441872019e-001dB,1.79083943287526e+002°)
1.12408719346973e+003	(-5.46353576686033e-001dB,1.79083518234294e+002°)
1.12460497396693e+003	(-5.46353711631643e-001dB,1.79083092980971e+002°)
1.12512299296577e+003	(-5.46353846708986e-001dB,1.79082667527458e+002°)
1.12564125057611e+003	(-5.46353981918180e-001dB,1.79082241873658e+002°)
1.12615974690787e+003	(-5.46354117259368e-001dB,1.79081816019471e+002°)
1.12667848207100e+003	(-5.46354252732676e-001dB,1.79081389964800e+002°)
1.12719745617552e+003	(-5.46354388338244e-001dB,1.79080963709546e+002°)
1.12771666933148e+003	(-5.46354524076236e-001dB,1.79080537253610e+002°)
1.12823612164900e+003	(-5.46354659946759e-001dB,1.79080110596895e+002°)
1.12875581323824e+003	(-5.46354795949959e-001dB,1.79079683739301e+002°)
1.12927574420942e+003	(-5.46354932085963e-001dB,1.79079256680731e+002°)
1.12979591467280e+003	(-5.46355068354901e-001dB,1.79078829421085e+002°)
1.13031632473870e+003	(-5.46355204756938e-001dB,1.79078401960264e+002°)
1.13083697451748e+003	(-5.46355341292193e-001dB,1.79077974298171e+002°)
1.13135786411957e+003	(-5.46355477960800e-001dB,1.79077546434706e+002°)
1.13187899365542e+003	(-5.46355614762892e-001dB,1.79077118369770e+002°)
1.13240036323556e+003	(-5.46355751698625e-001dB,1.79076690103264e+002°)
1.13292197297056e+003	(-5.46355888768118e-001dB,1.79076261635090e+002°)
1.13344382297104e+003	(-5.46356025971513e-001dB,1.79075832965148e+002°)
1.13396591334767e+003	(-5.46356163308955e-001dB,1.79075404093340e+002°)
1.13448824421117e+003	(-5.46356300780575e-001dB,1.79074975019565e+002°)
1.13501081567232e+003	(-5.46356438386529e-001dB,1.79074545743726e+002°)
1.13553362784194e+003	(-5.46356576126917e-001dB,1.79074116265722e+002°)
