Freq.	V(fb1)/V(inm1)
1.00000000000000e+003	(-3.39642919020189e+001dB,-7.84047860335165e+001°)
1.00461579027840e+003	(-3.39226831218178e+001dB,-7.83525512439397e+001°)
1.00925288607668e+003	(-3.38810600596936e+001dB,-7.83000954276732e+001°)
1.01391138573668e+003	(-3.38394225942673e+001dB,-7.82474178161098e+001°)
1.01859138805412e+003	(-3.37977706032248e+001dB,-7.81945176403228e+001°)
1.02329299228075e+003	(-3.37561039633111e+001dB,-7.81413941311117e+001°)
1.02801629812647e+003	(-3.37144225503251e+001dB,-7.80880465190418e+001°)
1.03276140576140e+003	(-3.36727262391140e+001dB,-7.80344740344671e+001°)
1.03752841581801e+003	(-3.36310149035677e+001dB,-7.79806759075802e+001°)
1.04231742939330e+003	(-3.35892884166137e+001dB,-7.79266513684528e+001°)
1.04712854805090e+003	(-3.35475466502110e+001dB,-7.78723996470655e+001°)
1.05196187382322e+003	(-3.35057894753453e+001dB,-7.78179199733513e+001°)
1.05681750921366e+003	(-3.34640167620228e+001dB,-7.77632115772340e+001°)
1.06169555719873e+003	(-3.34222283792655e+001dB,-7.77082736886751e+001°)
1.06659612123026e+003	(-3.33804241951051e+001dB,-7.76531055377089e+001°)
1.07151930523761e+003	(-3.33386040765780e+001dB,-7.75977063544887e+001°)
1.07646521362984e+003	(-3.32967678897195e+001dB,-7.75420753693231e+001°)
1.08143395129794e+003	(-3.32549154995585e+001dB,-7.74862118127233e+001°)
1.08642562361707e+003	(-3.32130467701123e+001dB,-7.74301149154554e+001°)
1.09144033644876e+003	(-3.31711615643807e+001dB,-7.73737839085616e+001°)
1.09647819614319e+003	(-3.31292597443410e+001dB,-7.73172180234309e+001°)
1.10153930954142e+003	(-3.30873411709424e+001dB,-7.72604164918270e+001°)
1.10662378397767e+003	(-3.30454057041005e+001dB,-7.72033785459436e+001°)
1.11173172728159e+003	(-3.30034532026924e+001dB,-7.71461034184482e+001°)
1.11686324778056e+003	(-3.29614835245509e+001dB,-7.70885903425246e+001°)
1.12201845430197e+003	(-3.29194965264591e+001dB,-7.70308385519358e+001°)
1.12719745617551e+003	(-3.28774920641456e+001dB,-7.69728472810512e+001°)
1.13240036323556e+003	(-3.28354699922786e+001dB,-7.69146157649168e+001°)
1.13762728582343e+003	(-3.27934301644610e+001dB,-7.68561432392921e+001°)
1.14287833478977e+003	(-3.27513724332250e+001dB,-7.67974289407001e+001°)
1.14815362149688e+003	(-3.27092966500268e+001dB,-7.67384721064915e+001°)
1.15345325782109e+003	(-3.26672026652416e+001dB,-7.66792719748819e+001°)
1.15877735615513e+003	(-3.26250903281580e+001dB,-7.66198277850174e+001°)
1.16412602941049e+003	(-3.25829594869733e+001dB,-7.65601387770099e+001°)
1.16949939101987e+003	(-3.25408099887879e+001dB,-7.65002041920141e+001°)
1.17489755493953e+003	(-3.24986416796007e+001dB,-7.64400232722641e+001°)
1.18032063565173e+003	(-3.24564544043034e+001dB,-7.63795952611365e+001°)
1.18576874816716e+003	(-3.24142480066760e+001dB,-7.63189194032066e+001°)
1.19124200802738e+003	(-3.23720223293813e+001dB,-7.62579949442981e+001°)
1.19674053130725e+003	(-3.23297772139602e+001dB,-7.61968211315514e+001°)
1.20226443461742e+003	(-3.22875125008266e+001dB,-7.61353972134752e+001°)
1.20781383510678e+003	(-3.22452280292628e+001dB,-7.60737224400026e+001°)
1.21338885046498e+003	(-3.22029236374139e+001dB,-7.60117960625616e+001°)
1.21898959892487e+003	(-3.21605991622835e+001dB,-7.59496173341179e+001°)
1.22461619926505e+003	(-3.21182544397289e+001dB,-7.58871855092552e+001°)
1.23026877081238e+003	(-3.20758893044561e+001dB,-7.58244998442263e+001°)
1.23594743344451e+003	(-3.20335035900151e+001dB,-7.57615595970094e+001°)
1.24165230759241e+003	(-3.19910971287951e+001dB,-7.56983640273886e+001°)
1.24738351424295e+003	(-3.19486697520201e+001dB,-7.56349123970012e+001°)
1.25314117494142e+003	(-3.19062212897444e+001dB,-7.55712039694087e+001°)
1.25892541179417e+003	(-3.18637515708475e+001dB,-7.55072380101691e+001°)
1.26473634747115e+003	(-3.18212604230299e+001dB,-7.54430137868875e+001°)
1.27057410520855e+003	(-3.17787476728091e+001dB,-7.53785305692983e+001°)
1.27643880881135e+003	(-3.17362131455142e+001dB,-7.53137876293230e+001°)
1.28233058265603e+003	(-3.16936566652825e+001dB,-7.52487842411382e+001°)
1.28824955169314e+003	(-3.16510780550548e+001dB,-7.51835196812559e+001°)
1.29419584144999e+003	(-3.16084771365709e+001dB,-7.51179932285805e+001°)
1.30016957803329e+003	(-3.15658537303659e+001dB,-7.50522041644792e+001°)
1.30617088813185e+003	(-3.15232076557660e+001dB,-7.49861517728698e+001°)
1.31219989901921e+003	(-3.14805387308840e+001dB,-7.49198353402721e+001°)
1.31825673855641e+003	(-3.14378467726160e+001dB,-7.48532541558918e+001°)
1.32434153519467e+003	(-3.13951315966369e+001dB,-7.47864075116954e+001°)
1.33045441797810e+003	(-3.13523930173968e+001dB,-7.47192947024791e+001°)
1.33659551654645e+003	(-3.13096308481172e+001dB,-7.46519150259423e+001°)
1.34276496113787e+003	(-3.12668449007872e+001dB,-7.45842677827774e+001°)
1.34896288259166e+003	(-3.12240349861599e+001dB,-7.45163522767260e+001°)
1.35518941235104e+003	(-3.11812009137488e+001dB,-7.44481678146727e+001°)
1.36144468246596e+003	(-3.11383424918244e+001dB,-7.43797137067148e+001°)
1.36772882559585e+003	(-3.10954595274107e+001dB,-7.43109892662448e+001°)
1.37404197501252e+003	(-3.10525518262820e+001dB,-7.42419938100349e+001°)
1.38038426460289e+003	(-3.10096191929592e+001dB,-7.41727266582980e+001°)
1.38675582887189e+003	(-3.09666614307073e+001dB,-7.41031871347989e+001°)
1.39315680294531e+003	(-3.09236783415318e+001dB,-7.40333745669125e+001°)
1.39958732257262e+003	(-3.08806697261760e+001dB,-7.39632882857156e+001°)
1.40604752412992e+003	(-3.08376353841178e+001dB,-7.38929276260709e+001°)
1.41253754462276e+003	(-3.07945751135672e+001dB,-7.38222919267105e+001°)
1.41905752168910e+003	(-3.07514887114636e+001dB,-7.37513805303193e+001°)
1.42560759360219e+003	(-3.07083759734726e+001dB,-7.36801927836277e+001°)
1.43218789927355e+003	(-3.06652366939843e+001dB,-7.36087280374880e+001°)
1.43879857825585e+003	(-3.06220706661102e+001dB,-7.35369856469693e+001°)
1.44543977074593e+003	(-3.05788776816815e+001dB,-7.34649649714480e+001°)
1.45211161758775e+003	(-3.05356575312462e+001dB,-7.33926653746883e+001°)
1.45881426027536e+003	(-3.04924100040676e+001dB,-7.33200862249412e+001°)
1.46554784095592e+003	(-3.04491348881218e+001dB,-7.32472268950261e+001°)
1.47231250243273e+003	(-3.04058319700962e+001dB,-7.31740867624344e+001°)
1.47910838816821e+003	(-3.03625010353878e+001dB,-7.31006652094080e+001°)
1.48593564228701e+003	(-3.03191418681009e+001dB,-7.30269616230444e+001°)
1.49279440957900e+003	(-3.02757542510463e+001dB,-7.29529753953821e+001°)
1.49968483550238e+003	(-3.02323379657395e+001dB,-7.28787059234997e+001°)
1.50660706618675e+003	(-3.01888927923993e+001dB,-7.28041526096102e+001°)
1.51356124843622e+003	(-3.01454185099472e+001dB,-7.27293148611549e+001°)
1.52054752973250e+003	(-3.01019148960056e+001dB,-7.26541920909068e+001°)
1.52756605823808e+003	(-3.00583817268974e+001dB,-7.25787837170579e+001°)
1.53461698279930e+003	(-3.00148187776453e+001dB,-7.25030891633311e+001°)
1.54170045294957e+003	(-2.99712258219706e+001dB,-7.24271078590636e+001°)
1.54881661891249e+003	(-2.99276026322931e+001dB,-7.23508392393212e+001°)
1.55596563160508e+003	(-2.98839489797309e+001dB,-7.22742827449889e+001°)
1.56314764264096e+003	(-2.98402646340997e+001dB,-7.21974378228782e+001°)
1.57036280433356e+003	(-2.97965493639131e+001dB,-7.21203039258292e+001°)
1.57761126969936e+003	(-2.97528029363825e+001dB,-7.20428805128055e+001°)
1.58489319246112e+003	(-2.97090251174174e+001dB,-7.19651670490106e+001°)
1.59220872705118e+003	(-2.96652156716255e+001dB,-7.18871630059815e+001°)
1.59955802861468e+003	(-2.96213743623139e+001dB,-7.18088678616981e+001°)
1.60694125301289e+003	(-2.95775009514888e+001dB,-7.17302811006889e+001°)
1.61435855682650e+003	(-2.95335951998572e+001dB,-7.16514022141350e+001°)
1.62181009735894e+003	(-2.94896568668276e+001dB,-7.15722306999857e+001°)
1.62929603263973e+003	(-2.94456857105110e+001dB,-7.14927660630514e+001°)
1.63681652142782e+003	(-2.94016814877224e+001dB,-7.14130078151253e+001°)
1.64437172321494e+003	(-2.93576439539823e+001dB,-7.13329554750857e+001°)
1.65196179822903e+003	(-2.93135728635184e+001dB,-7.12526085690118e+001°)
1.65958690743757e+003	(-2.92694679692675e+001dB,-7.11719666302840e+001°)
1.66724721255107e+003	(-2.92253290228774e+001dB,-7.10910291997071e+001°)
1.67494287602645e+003	(-2.91811557747089e+001dB,-7.10097958256114e+001°)
1.68267406107048e+003	(-2.91369479738389e+001dB,-7.09282660639739e+001°)
1.69044093164328e+003	(-2.90927053680624e+001dB,-7.08464394785253e+001°)
1.69824365246176e+003	(-2.90484277038952e+001dB,-7.07643156408646e+001°)
1.70608238900314e+003	(-2.90041147265775e+001dB,-7.06818941305782e+001°)
1.71395730750844e+003	(-2.89597661800761e+001dB,-7.05991745353480e+001°)
1.72186857498602e+003	(-2.89153818070889e+001dB,-7.05161564510674e+001°)
1.72981635921511e+003	(-2.88709613490473e+001dB,-7.04328394819661e+001°)
1.73780082874939e+003	(-2.88265045461208e+001dB,-7.03492232407133e+001°)
1.74582215292052e+003	(-2.87820111372206e+001dB,-7.02653073485457e+001°)
1.75388050184177e+003	(-2.87374808600038e+001dB,-7.01810914353806e+001°)
1.76197604641164e+003	(-2.86929134508777e+001dB,-7.00965751399317e+001°)
1.77010895831743e+003	(-2.86483086450046e+001dB,-7.00117581098314e+001°)
1.77827941003894e+003	(-2.86036661763065e+001dB,-6.99266400017524e+001°)
1.78648757485206e+003	(-2.85589857774701e+001dB,-6.98412204815186e+001°)
1.79473362683254e+003	(-2.85142671799517e+001dB,-6.97554992242334e+001°)
1.80301774085958e+003	(-2.84695101139836e+001dB,-6.96694759143961e+001°)
1.81134009261962e+003	(-2.84247143085787e+001dB,-6.95831502460225e+001°)
1.81970085861000e+003	(-2.83798794915371e+001dB,-6.94965219227718e+001°)
1.82810021614276e+003	(-2.83350053894521e+001dB,-6.94095906580592e+001°)
1.83653834334836e+003	(-2.82900917277162e+001dB,-6.93223561751834e+001°)
1.84501541917949e+003	(-2.82451382305286e+001dB,-6.92348182074544e+001°)
1.85353162341483e+003	(-2.82001446209011e+001dB,-6.91469764983057e+001°)
1.86208713666288e+003	(-2.81551106206657e+001dB,-6.90588308014218e+001°)
1.87068214036582e+003	(-2.81100359504818e+001dB,-6.89703808808666e+001°)
1.87931681680328e+003	(-2.80649203298439e+001dB,-6.88816265111986e+001°)
1.88799134909631e+003	(-2.80197634770893e+001dB,-6.87925674776032e+001°)
1.89670592121116e+003	(-2.79745651094062e+001dB,-6.87032035760110e+001°)
1.90546071796326e+003	(-2.79293249428421e+001dB,-6.86135346132253e+001°)
1.91425592502110e+003	(-2.78840426923126e+001dB,-6.85235604070485e+001°)
1.92309172891017e+003	(-2.78387180716096e+001dB,-6.84332807864036e+001°)
1.93196831701694e+003	(-2.77933507934112e+001dB,-6.83426955914585e+001°)
1.94088587759280e+003	(-2.77479405692906e+001dB,-6.82518046737589e+001°)
1.94984459975806e+003	(-2.77024871097257e+001dB,-6.81606078963454e+001°)
1.95884467350601e+003	(-2.76569901241094e+001dB,-6.80691051338849e+001°)
1.96788628970686e+003	(-2.76114493207595e+001dB,-6.79772962727907e+001°)
1.97696964011188e+003	(-2.75658644069290e+001dB,-6.78851812113551e+001°)
1.98609491735739e+003	(-2.75202350888172e+001dB,-6.77927598598698e+001°)
1.99526231496890e+003	(-2.74745610715806e+001dB,-6.77000321407555e+001°)
2.00447202736518e+003	(-2.74288420593438e+001dB,-6.76069979886854e+001°)
2.01372424986241e+003	(-2.73830777552117e+001dB,-6.75136573507120e+001°)
2.02301917867829e+003	(-2.73372678612809e+001dB,-6.74200101863935e+001°)
2.03235701093624e+003	(-2.72914120786519e+001dB,-6.73260564679189e+001°)
2.04173794466955e+003	(-2.72455101074417e+001dB,-6.72317961802331e+001°)
2.05116217882559e+003	(-2.71995616467960e+001dB,-6.71372293211625e+001°)
2.06062991327002e+003	(-2.71535663949032e+001dB,-6.70423559015451e+001°)
2.07014134879106e+003	(-2.71075240490063e+001dB,-6.69471759453455e+001°)
2.07969668710372e+003	(-2.70614343054181e+001dB,-6.68516894897924e+001°)
2.08929613085406e+003	(-2.70152968595333e+001dB,-6.67558965854917e+001°)
2.09893988362355e+003	(-2.69691114058444e+001dB,-6.66597972965600e+001°)
2.10862814993331e+003	(-2.69228776379550e+001dB,-6.65633917007455e+001°)
2.11836113524852e+003	(-2.68765952485948e+001dB,-6.64666798895490e+001°)
2.12813904598273e+003	(-2.68302639296353e+001dB,-6.63696619683540e+001°)
2.13796208950225e+003	(-2.67838833721044e+001dB,-6.62723380565403e+001°)
2.14783047413056e+003	(-2.67374532662025e+001dB,-6.61747082876213e+001°)
2.15774440915269e+003	(-2.66909733013183e+001dB,-6.60767728093499e+001°)
2.16770410481972e+003	(-2.66444431660455e+001dB,-6.59785317838526e+001°)
2.17770977235318e+003	(-2.65978625481989e+001dB,-6.58799853877429e+001°)
2.18776162394958e+003	(-2.65512311348316e+001dB,-6.57811338122486e+001°)
2.19785987278485e+003	(-2.65045486122524e+001dB,-6.56819772633305e+001°)
2.20800473301892e+003	(-2.64578146660428e+001dB,-6.55825159617969e+001°)
2.21819641980024e+003	(-2.64110289810756e+001dB,-6.54827501434281e+001°)
2.22843514927033e+003	(-2.63641912415324e+001dB,-6.53826800590948e+001°)
2.23872113856836e+003	(-2.63173011309224e+001dB,-6.52823059748704e+001°)
2.24905460583581e+003	(-2.62703583321015e+001dB,-6.51816281721561e+001°)
2.25943577022100e+003	(-2.62233625272908e+001dB,-6.50806469477896e+001°)
2.26986485188385e+003	(-2.61763133980964e+001dB,-6.49793626141648e+001°)
2.28034207200044e+003	(-2.61292106255294e+001dB,-6.48777754993446e+001°)
2.29086765276780e+003	(-2.60820538900253e+001dB,-6.47758859471749e+001°)
2.30144181740853e+003	(-2.60348428714650e+001dB,-6.46736943173983e+001°)
2.31206479017562e+003	(-2.59875772491955e+001dB,-6.45712009857642e+001°)
2.32273679635713e+003	(-2.59402567020502e+001dB,-6.44684063441397e+001°)
2.33345806228103e+003	(-2.58928809083715e+001dB,-6.43653108006220e+001°)
2.34422881531995e+003	(-2.58454495460311e+001dB,-6.42619147796425e+001°)
2.35504928389604e+003	(-2.57979622924530e+001dB,-6.41582187220806e+001°)
2.36591969748579e+003	(-2.57504188246356e+001dB,-6.40542230853640e+001°)
2.37684028662490e+003	(-2.57028188191736e+001dB,-6.39499283435770e+001°)
2.38781128291321e+003	(-2.56551619522823e+001dB,-6.38453349875658e+001°)
2.39883291901952e+003	(-2.56074478998193e+001dB,-6.37404435250385e+001°)
2.40990542868662e+003	(-2.55596763373093e+001dB,-6.36352544806677e+001°)
2.42102904673621e+003	(-2.55118469399675e+001dB,-6.35297683961924e+001°)
2.43220400907384e+003	(-2.54639593827236e+001dB,-6.34239858305155e+001°)
2.44343055269400e+003	(-2.54160133402467e+001dB,-6.33179073597990e+001°)
2.45470891568506e+003	(-2.53680084869700e+001dB,-6.32115335775657e+001°)
2.46603933723437e+003	(-2.53199444971158e+001dB,-6.31048650947871e+001°)
2.47742205763332e+003	(-2.52718210447212e+001dB,-6.29979025399823e+001°)
2.48885731828242e+003	(-2.52236378036635e+001dB,-6.28906465593036e+001°)
2.50034536169646e+003	(-2.51753944476864e+001dB,-6.27830978166334e+001°)
2.51188643150961e+003	(-2.51270906504268e+001dB,-6.26752569936651e+001°)
2.52348077248061e+003	(-2.50787260854407e+001dB,-6.25671247899935e+001°)
2.53512863049794e+003	(-2.50303004262308e+001dB,-6.24587019232012e+001°)
2.54683025258507e+003	(-2.49818133462735e+001dB,-6.23499891289373e+001°)
2.55858588690568e+003	(-2.49332645190463e+001dB,-6.22409871610011e+001°)
2.57039578276890e+003	(-2.48846536180561e+001dB,-6.21316967914223e+001°)
2.58226019063463e+003	(-2.48359803168669e+001dB,-6.20221188105350e+001°)
2.59417936211885e+003	(-2.47872442891285e+001dB,-6.19122540270570e+001°)
2.60615354999893e+003	(-2.47384452086053e+001dB,-6.18021032681608e+001°)
2.61818300821902e+003	(-2.46895827492049e+001dB,-6.16916673795458e+001°)
2.63026799189542e+003	(-2.46406565850079e+001dB,-6.15809472255103e+001°)
2.64240875732198e+003	(-2.45916663902970e+001dB,-6.14699436890133e+001°)
2.65460556197557e+003	(-2.45426118395874e+001dB,-6.13586576717462e+001°)
2.66685866452151e+003	(-2.44934926076564e+001dB,-6.12470900941902e+001°)
2.67916832481907e+003	(-2.44443083695739e+001dB,-6.11352418956815e+001°)
2.69153480392695e+003	(-2.43950588007333e+001dB,-6.10231140344678e+001°)
2.70395836410888e+003	(-2.43457435768820e+001dB,-6.09107074877619e+001°)
2.71643926883912e+003	(-2.42963623741531e+001dB,-6.07980232518036e+001°)
2.72897778280808e+003	(-2.42469148690963e+001dB,-6.06850623419027e+001°)
2.74157417192792e+003	(-2.41974007387099e+001dB,-6.05718257924938e+001°)
2.75422870333820e+003	(-2.41478196604724e+001dB,-6.04583146571795e+001°)
2.76694164541155e+003	(-2.40981713123752e+001dB,-6.03445300087777e+001°)
2.77971326775933e+003	(-2.40484553729543e+001dB,-6.02304729393592e+001°)
2.79254384123738e+003	(-2.39986715213233e+001dB,-6.01161445602926e+001°)
2.80543363795175e+003	(-2.39488194372062e+001dB,-6.00015460022745e+001°)
2.81838293126449e+003	(-2.38988988009709e+001dB,-5.98866784153699e+001°)
2.83139199579942e+003	(-2.38489092936614e+001dB,-5.97715429690374e+001°)
2.84446110744795e+003	(-2.37988505970322e+001dB,-5.96561408521598e+001°)
2.85759054337499e+003	(-2.37487223935817e+001dB,-5.95404732730714e+001°)
2.87078058202473e+003	(-2.36985243665864e+001dB,-5.94245414595805e+001°)
2.88403150312665e+003	(-2.36482562001343e+001dB,-5.93083466589860e+001°)
2.89734358770136e+003	(-2.35979175791598e+001dB,-5.91918901381004e+001°)
2.91071711806665e+003	(-2.35475081894780e+001dB,-5.90751731832586e+001°)
2.92415237784338e+003	(-2.34970277178193e+001dB,-5.89581971003318e+001°)
2.93764965196157e+003	(-2.34464758518641e+001dB,-5.88409632147382e+001°)
2.95120922666643e+003	(-2.33958522802780e+001dB,-5.87234728714428e+001°)
2.96483138952438e+003	(-2.33451566927469e+001dB,-5.86057274349650e+001°)
2.97851642942923e+003	(-2.32943887800119e+001dB,-5.84877282893743e+001°)
2.99226463660823e+003	(-2.32435482339054e+001dB,-5.83694768382896e+001°)
3.00607630262827e+003	(-2.31926347473860e+001dB,-5.82509745048693e+001°)
3.01995172040206e+003	(-2.31416480145748e+001dB,-5.81322227318040e+001°)
3.03389118419431e+003	(-2.30905877307906e+001dB,-5.80132229813004e+001°)
3.04789498962803e+003	(-2.30394535925865e+001dB,-5.78939767350671e+001°)
3.06196343369072e+003	(-2.29882452977852e+001dB,-5.77744854942936e+001°)
3.07609681474075e+003	(-2.29369625455159e+001dB,-5.76547507796278e+001°)
3.09029543251364e+003	(-2.28856050362501e+001dB,-5.75347741311491e+001°)
3.10455958812840e+003	(-2.28341724718379e+001dB,-5.74145571083397e+001°)
3.11888958409398e+003	(-2.27826645555446e+001dB,-5.72941012900506e+001°)
3.13328572431563e+003	(-2.27310809920872e+001dB,-5.71734082744671e+001°)
3.14774831410136e+003	(-2.26794214876708e+001dB,-5.70524796790656e+001°)
3.16227766016843e+003	(-2.26276857500252e+001dB,-5.69313171405735e+001°)
3.17687407064982e+003	(-2.25758734884416e+001dB,-5.68099223149218e+001°)
3.19153785510081e+003	(-2.25239844138093e+001dB,-5.66882968771933e+001°)
3.20626932450551e+003	(-2.24720182386526e+001dB,-5.65664425215721e+001°)
3.22106879128348e+003	(-2.24199746771668e+001dB,-5.64443609612839e+001°)
3.23593656929633e+003	(-2.23678534452560e+001dB,-5.63220539285361e+001°)
3.25087297385439e+003	(-2.23156542605689e+001dB,-5.61995231744539e+001°)
3.26587832172341e+003	(-2.22633768425364e+001dB,-5.60767704690140e+001°)
3.28095293113124e+003	(-2.22110209124074e+001dB,-5.59537976009697e+001°)
3.29609712177463e+003	(-2.21585861932864e+001dB,-5.58306063777798e+001°)
3.31131121482596e+003	(-2.21060724101696e+001dB,-5.57071986255282e+001°)
3.32659553294010e+003	(-2.20534792899816e+001dB,-5.55835761888416e+001°)
3.34195040026120e+003	(-2.20008065616123e+001dB,-5.54597409308067e+001°)
3.35737614242960e+003	(-2.19480539559531e+001dB,-5.53356947328755e+001°)
3.37287308658874e+003	(-2.18952212059335e+001dB,-5.52114394947785e+001°)
3.38844156139208e+003	(-2.18423080465574e+001dB,-5.50869771344240e+001°)
3.40408189701006e+003	(-2.17893142149396e+001dB,-5.49623095877986e+001°)
3.41979442513714e+003	(-2.17362394503417e+001dB,-5.48374388088663e+001°)
3.43557947899880e+003	(-2.16830834942082e+001dB,-5.47123667694562e+001°)
3.45143739335862e+003	(-2.16298460902028e+001dB,-5.45870954591549e+001°)
3.46736850452537e+003	(-2.15765269842440e+001dB,-5.44616268851902e+001°)
3.48337315036018e+003	(-2.15231259245407e+001dB,-5.43359630723143e+001°)
3.49945167028363e+003	(-2.14696426616279e+001dB,-5.42101060626795e+001°)
