Freq.	V(fb2)/V(inm2)
1.00000000000000e+003	(-3.54692590565050e+001dB,-7.64641091844966e+001°)
1.00461579027840e+003	(-3.54270756358117e+001dB,-7.64037688280143e+001°)
1.00925288607668e+003	(-3.53848731245187e+001dB,-7.63431810305062e+001°)
1.01391138573668e+003	(-3.53426513655159e+001dB,-7.62823450383525e+001°)
1.01859138805412e+003	(-3.53004102005720e+001dB,-7.62212600992269e+001°)
1.02329299228075e+003	(-3.52581494703300e+001dB,-7.61599254621777e+001°)
1.02801629812647e+003	(-3.52158690143016e+001dB,-7.60983403776554e+001°)
1.03276140576140e+003	(-3.51735686708632e+001dB,-7.60365040976125e+001°)
1.03752841581801e+003	(-3.51312482772502e+001dB,-7.59744158755311e+001°)
1.04231742939330e+003	(-3.50889076695525e+001dB,-7.59120749664952e+001°)
1.04712854805090e+003	(-3.50465466827102e+001dB,-7.58494806272571e+001°)
1.05196187382322e+003	(-3.50041651505078e+001dB,-7.57866321162896e+001°)
1.05681750921366e+003	(-3.49617629055702e+001dB,-7.57235286938594e+001°)
1.06169555719873e+003	(-3.49193397793585e+001dB,-7.56601696220822e+001°)
1.06659612123026e+003	(-3.48768956021641e+001dB,-7.55965541649904e+001°)
1.07151930523761e+003	(-3.48344302031050e+001dB,-7.55326815886011e+001°)
1.07646521362984e+003	(-3.47919434101217e+001dB,-7.54685511609766e+001°)
1.08143395129794e+003	(-3.47494350499712e+001dB,-7.54041621522949e+001°)
1.08642562361707e+003	(-3.47069049482245e+001dB,-7.53395138349136e+001°)
1.09144033644876e+003	(-3.46643529292605e+001dB,-7.52746054834437e+001°)
1.09647819614319e+003	(-3.46217788162633e+001dB,-7.52094363748198e+001°)
1.10153930954142e+003	(-3.45791824312162e+001dB,-7.51440057883519e+001°)
1.10662378397767e+003	(-3.45365635948994e+001dB,-7.50783130058200e+001°)
1.11173172728159e+003	(-3.44939221268843e+001dB,-7.50123573115330e+001°)
1.11686324778056e+003	(-3.44512578455301e+001dB,-7.49461379923995e+001°)
1.12201845430197e+003	(-3.44085705679800e+001dB,-7.48796543380040e+001°)
1.12719745617551e+003	(-3.43658601101569e+001dB,-7.48129056406775e+001°)
1.13240036323556e+003	(-3.43231262867595e+001dB,-7.47458911955786e+001°)
1.13762728582343e+003	(-3.42803689112587e+001dB,-7.46786103007589e+001°)
1.14287833478977e+003	(-3.42375877958939e+001dB,-7.46110622572447e+001°)
1.14815362149688e+003	(-3.41947827516693e+001dB,-7.45432463691138e+001°)
1.15345325782109e+003	(-3.41519535883499e+001dB,-7.44751619435699e+001°)
1.15877735615513e+003	(-3.41091001144587e+001dB,-7.44068082910217e+001°)
1.16412602941049e+003	(-3.40662221372727e+001dB,-7.43381847251649e+001°)
1.16949939101987e+003	(-3.40233194628199e+001dB,-7.42692905630547e+001°)
1.17489755493953e+003	(-3.39803918958758e+001dB,-7.42001251251959e+001°)
1.18032063565173e+003	(-3.39374392399602e+001dB,-7.41306877356118e+001°)
1.18576874816716e+003	(-3.38944612973344e+001dB,-7.40609777219436e+001°)
1.19124200802738e+003	(-3.38514578689981e+001dB,-7.39909944155140e+001°)
1.19674053130725e+003	(-3.38084287546858e+001dB,-7.39207371514206e+001°)
1.20226443461742e+003	(-3.37653737528652e+001dB,-7.38502052686234e+001°)
1.20781383510678e+003	(-3.37222926607334e+001dB,-7.37793981100283e+001°)
1.21338885046498e+003	(-3.36791852742147e+001dB,-7.37083150225589e+001°)
1.21898959892487e+003	(-3.36360513879581e+001dB,-7.36369553572687e+001°)
1.22461619926505e+003	(-3.35928907953349e+001dB,-7.35653184694030e+001°)
1.23026877081238e+003	(-3.35497032884358e+001dB,-7.34934037185065e+001°)
1.23594743344451e+003	(-3.35064886580696e+001dB,-7.34212104685047e+001°)
1.24165230759241e+003	(-3.34632466937602e+001dB,-7.33487380877890e+001°)
1.24738351424295e+003	(-3.34199771837452e+001dB,-7.32759859493159e+001°)
1.25314117494142e+003	(-3.33766799149735e+001dB,-7.32029534306937e+001°)
1.25892541179417e+003	(-3.33333546731039e+001dB,-7.31296399142739e+001°)
1.26473634747115e+003	(-3.32900012425033e+001dB,-7.30560447872520e+001°)
1.27057410520855e+003	(-3.32466194062449e+001dB,-7.29821674417452e+001°)
1.27643880881135e+003	(-3.32032089461073e+001dB,-7.29080072749049e+001°)
1.28233058265603e+003	(-3.31597696425723e+001dB,-7.28335636889996e+001°)
1.28824955169314e+003	(-3.31163012748249e+001dB,-7.27588360915192e+001°)
1.29419584144999e+003	(-3.30728036207511e+001dB,-7.26838238952613e+001°)
1.30016957803329e+003	(-3.30292764569377e+001dB,-7.26085265184411e+001°)
1.30617088813185e+003	(-3.29857195586710e+001dB,-7.25329433847786e+001°)
1.31219989901921e+003	(-3.29421326999367e+001dB,-7.24570739236094e+001°)
1.31825673855641e+003	(-3.28985156534186e+001dB,-7.23809175699715e+001°)
1.32434153519467e+003	(-3.28548681904991e+001dB,-7.23044737647145e+001°)
1.33045441797810e+003	(-3.28111900812582e+001dB,-7.22277419545971e+001°)
1.33659551654645e+003	(-3.27674810944738e+001dB,-7.21507215923959e+001°)
1.34276496113787e+003	(-3.27237409976215e+001dB,-7.20734121369950e+001°)
1.34896288259166e+003	(-3.26799695568751e+001dB,-7.19958130535035e+001°)
1.35518941235104e+003	(-3.26361665371066e+001dB,-7.19179238133510e+001°)
1.36144468246596e+003	(-3.25923317018868e+001dB,-7.18397438943946e+001°)
1.36772882559585e+003	(-3.25484648134860e+001dB,-7.17612727810249e+001°)
1.37404197501252e+003	(-3.25045656328749e+001dB,-7.16825099642730e+001°)
1.38038426460289e+003	(-3.24606339197256e+001dB,-7.16034549419168e+001°)
1.38675582887189e+003	(-3.24166694324122e+001dB,-7.15241072185869e+001°)
1.39315680294531e+003	(-3.23726719280129e+001dB,-7.14444663058789e+001°)
1.39958732257262e+003	(-3.23286411623108e+001dB,-7.13645317224603e+001°)
1.40604752412992e+003	(-3.22845768897960e+001dB,-7.12843029941795e+001°)
1.41253754462276e+003	(-3.22404788636672e+001dB,-7.12037796541766e+001°)
1.41905752168910e+003	(-3.21963468358336e+001dB,-7.11229612429921e+001°)
1.42560759360219e+003	(-3.21521805569174e+001dB,-7.10418473086898e+001°)
1.43218789927355e+003	(-3.21079797762561e+001dB,-7.09604374069509e+001°)
1.43879857825585e+003	(-3.20637442419045e+001dB,-7.08787311011971e+001°)
1.44543977074593e+003	(-3.20194737006383e+001dB,-7.07967279627144e+001°)
1.45211161758775e+003	(-3.19751678979562e+001dB,-7.07144275707409e+001°)
1.45881426027536e+003	(-3.19308265780836e+001dB,-7.06318295126086e+001°)
1.46554784095592e+003	(-3.18864494839759e+001dB,-7.05489333838426e+001°)
1.47231250243273e+003	(-3.18420363573212e+001dB,-7.04657387882804e+001°)
1.47910838816821e+003	(-3.17975869385453e+001dB,-7.03822453381905e+001°)
1.48593564228701e+003	(-3.17531009668146e+001dB,-7.02984526543916e+001°)
1.49279440957900e+003	(-3.17085781800406e+001dB,-7.02143603663605e+001°)
1.49968483550238e+003	(-3.16640183148843e+001dB,-7.01299681123589e+001°)
1.50660706618675e+003	(-3.16194211067606e+001dB,-7.00452755395537e+001°)
1.51356124843622e+003	(-3.15747862898430e+001dB,-6.99602823041246e+001°)
1.52054752973250e+003	(-3.15301135970688e+001dB,-6.98749880713960e+001°)
1.52756605823808e+003	(-3.14854027601442e+001dB,-6.97893925159476e+001°)
1.53461698279930e+003	(-3.14406535095495e+001dB,-6.97034953217456e+001°)
1.54170045294957e+003	(-3.13958655745451e+001dB,-6.96172961822501e+001°)
1.54881661891249e+003	(-3.13510386831771e+001dB,-6.95307948005438e+001°)
1.55596563160508e+003	(-3.13061725622837e+001dB,-6.94439908894586e+001°)
1.56314764264096e+003	(-3.12612669375011e+001dB,-6.93568841716898e+001°)
1.57036280433356e+003	(-3.12163215332704e+001dB,-6.92694743799182e+001°)
1.57761126969936e+003	(-3.11713360728443e+001dB,-6.91817612569385e+001°)
1.58489319246112e+003	(-3.11263102782941e+001dB,-6.90937445557793e+001°)
1.59220872705118e+003	(-3.10812438705172e+001dB,-6.90054240398291e+001°)
1.59955802861468e+003	(-3.10361365692443e+001dB,-6.89167994829522e+001°)
1.60694125301289e+003	(-3.09909880930475e+001dB,-6.88278706696271e+001°)
1.61435855682650e+003	(-3.09457981593481e+001dB,-6.87386373950545e+001°)
1.62181009735894e+003	(-3.09005664844250e+001dB,-6.86490994652964e+001°)
1.62929603263973e+003	(-3.08552927834233e+001dB,-6.85592566973906e+001°)
1.63681652142782e+003	(-3.08099767703630e+001dB,-6.84691089194788e+001°)
1.64437172321494e+003	(-3.07646181581479e+001dB,-6.83786559709368e+001°)
1.65196179822903e+003	(-3.07192166585756e+001dB,-6.82878977024935e+001°)
1.65958690743757e+003	(-3.06737719823458e+001dB,-6.81968339763553e+001°)
1.66724721255107e+003	(-3.06282838390718e+001dB,-6.81054646663436e+001°)
1.67494287602645e+003	(-3.05827519372893e+001dB,-6.80137896580029e+001°)
1.68267406107048e+003	(-3.05371759844673e+001dB,-6.79218088487424e+001°)
1.69044093164328e+003	(-3.04915556870189e+001dB,-6.78295221479511e+001°)
1.69824365246176e+003	(-3.04458907503120e+001dB,-6.77369294771311e+001°)
1.70608238900314e+003	(-3.04001808786807e+001dB,-6.76440307700199e+001°)
1.71395730750844e+003	(-3.03544257754365e+001dB,-6.75508259727170e+001°)
1.72186857498602e+003	(-3.03086251428806e+001dB,-6.74573150438092e+001°)
1.72981635921511e+003	(-3.02627786823156e+001dB,-6.73634979544965e+001°)
1.73780082874939e+003	(-3.02168860940576e+001dB,-6.72693746887189e+001°)
1.74582215292052e+003	(-3.01709470774499e+001dB,-6.71749452432845e+001°)
1.75388050184177e+003	(-3.01249613308746e+001dB,-6.70802096279851e+001°)
1.76197604641164e+003	(-3.00789285517666e+001dB,-6.69851678657358e+001°)
1.77010895831743e+003	(-3.00328484366274e+001dB,-6.68898199926904e+001°)
1.77827941003894e+003	(-2.99867206810380e+001dB,-6.67941660583647e+001°)
1.78648757485206e+003	(-2.99405449796736e+001dB,-6.66982061257677e+001°)
1.79473362683254e+003	(-2.98943210263183e+001dB,-6.66019402715277e+001°)
1.80301774085958e+003	(-2.98480485138790e+001dB,-6.65053685860029e+001°)
1.81134009261962e+003	(-2.98017271344012e+001dB,-6.64084911734213e+001°)
1.81970085861000e+003	(-2.97553565790840e+001dB,-6.63113081519943e+001°)
1.82810021614276e+003	(-2.97089365382955e+001dB,-6.62138196540424e+001°)
1.83653834334836e+003	(-2.96624667015892e+001dB,-6.61160258261174e+001°)
1.84501541917949e+003	(-2.96159467577201e+001dB,-6.60179268291237e+001°)
1.85353162341483e+003	(-2.95693763946607e+001dB,-6.59195228384413e+001°)
1.86208713666288e+003	(-2.95227552996188e+001dB,-6.58208140440448e+001°)
1.87068214036582e+003	(-2.94760831590541e+001dB,-6.57218006506288e+001°)
1.87931681680328e+003	(-2.94293596586958e+001dB,-6.56224828777188e+001°)
1.88799134909631e+003	(-2.93825844835601e+001dB,-6.55228609597992e+001°)
1.89670592121116e+003	(-2.93357573179692e+001dB,-6.54229351464272e+001°)
1.90546071796326e+003	(-2.92888778455685e+001dB,-6.53227057023501e+001°)
1.91425592502110e+003	(-2.92419457493464e+001dB,-6.52221729076266e+001°)
1.92309172891017e+003	(-2.91949607116528e+001dB,-6.51213370577394e+001°)
1.93196831701694e+003	(-2.91479224142188e+001dB,-6.50201984637149e+001°)
1.94088587759280e+003	(-2.91008305381758e+001dB,-6.49187574522254e+001°)
1.94984459975806e+003	(-2.90536847640765e+001dB,-6.48170143657271e+001°)
1.95884467350601e+003	(-2.90064847719141e+001dB,-6.47149695625453e+001°)
1.96788628970686e+003	(-2.89592302411440e+001dB,-6.46126234170083e+001°)
1.97696964011188e+003	(-2.89119208507039e+001dB,-6.45099763195442e+001°)
1.98609491735739e+003	(-2.88645562790358e+001dB,-6.44070286768009e+001°)
1.99526231496890e+003	(-2.88171362041068e+001dB,-6.43037809117457e+001°)
2.00447202736518e+003	(-2.87696603034322e+001dB,-6.42002334637850e+001°)
2.01372424986241e+003	(-2.87221282540963e+001dB,-6.40963867888569e+001°)
2.02301917867829e+003	(-2.86745397327763e+001dB,-6.39922413595502e+001°)
2.03235701093624e+003	(-2.86268944157641e+001dB,-6.38877976651984e+001°)
2.04173794466955e+003	(-2.85791919789902e+001dB,-6.37830562119883e+001°)
2.05116217882559e+003	(-2.85314320980469e+001dB,-6.36780175230630e+001°)
2.06062991327002e+003	(-2.84836144482124e+001dB,-6.35726821386157e+001°)
2.07014134879106e+003	(-2.84357387044743e+001dB,-6.34670506159987e+001°)
2.07969668710372e+003	(-2.83878045415550e+001dB,-6.33611235298117e+001°)
2.08929613085406e+003	(-2.83398116339353e+001dB,-6.32549014720022e+001°)
2.09893988362355e+003	(-2.82917596558808e+001dB,-6.31483850519635e+001°)
2.10862814993331e+003	(-2.82436482814661e+001dB,-6.30415748966227e+001°)
2.11836113524852e+003	(-2.81954771846013e+001dB,-6.29344716505358e+001°)
2.12813904598273e+003	(-2.81472460390575e+001dB,-6.28270759759766e+001°)
2.13796208950225e+003	(-2.80989545184933e+001dB,-6.27193885530242e+001°)
2.14783047413056e+003	(-2.80506022964815e+001dB,-6.26114100796528e+001°)
2.15774440915269e+003	(-2.80021890465358e+001dB,-6.25031412718160e+001°)
2.16770410481972e+003	(-2.79537144421382e+001dB,-6.23945828635264e+001°)
2.17770977235318e+003	(-2.79051781567663e+001dB,-6.22857356069440e+001°)
2.18776162394958e+003	(-2.78565798639214e+001dB,-6.21766002724507e+001°)
2.19785987278485e+003	(-2.78079192371563e+001dB,-6.20671776487288e+001°)
2.20800473301892e+003	(-2.77591959501035e+001dB,-6.19574685428366e+001°)
2.21819641980024e+003	(-2.77104096765048e+001dB,-6.18474737802890e+001°)
2.22843514927033e+003	(-2.76615600902391e+001dB,-6.17371942051191e+001°)
2.23872113856836e+003	(-2.76126468653521e+001dB,-6.16266306799545e+001°)
2.24905460583581e+003	(-2.75636696760863e+001dB,-6.15157840860851e+001°)
2.25943577022100e+003	(-2.75146281969098e+001dB,-6.14046553235249e+001°)
2.26986485188385e+003	(-2.74655221025476e+001dB,-6.12932453110830e+001°)
2.28034207200044e+003	(-2.74163510680104e+001dB,-6.11815549864139e+001°)
2.29086765276780e+003	(-2.73671147686267e+001dB,-6.10695853060873e+001°)
2.30144181740853e+003	(-2.73178128800728e+001dB,-6.09573372456398e+001°)
2.31206479017562e+003	(-2.72684450784038e+001dB,-6.08448117996278e+001°)
2.32273679635713e+003	(-2.72190110400857e+001dB,-6.07320099816864e+001°)
2.33345806228103e+003	(-2.71695104420264e+001dB,-6.06189328245685e+001°)
2.34422881531995e+003	(-2.71199429616076e+001dB,-6.05055813802035e+001°)
2.35504928389604e+003	(-2.70703082767174e+001dB,-6.03919567197344e+001°)
2.36591969748579e+003	(-2.70206060657820e+001dB,-6.02780599335623e+001°)
2.37684028662490e+003	(-2.69708360077987e+001dB,-6.01638921313872e+001°)
2.38781128291321e+003	(-2.69209977823684e+001dB,-6.00494544422436e+001°)
2.39883291901952e+003	(-2.68710910697291e+001dB,-5.99347480145337e+001°)
2.40990542868662e+003	(-2.68211155507886e+001dB,-5.98197740160641e+001°)
2.42102904673621e+003	(-2.67710709071581e+001dB,-5.97045336340687e+001°)
2.43220400907384e+003	(-2.67209568211862e+001dB,-5.95890280752417e+001°)
2.44343055269400e+003	(-2.66707729759922e+001dB,-5.94732585657524e+001°)
2.45470891568506e+003	(-2.66205190555007e+001dB,-5.93572263512746e+001°)
2.46603933723437e+003	(-2.65701947444753e+001dB,-5.92409326970000e+001°)
2.47742205763332e+003	(-2.65197997285536e+001dB,-5.91243788876543e+001°)
2.48885731828242e+003	(-2.64693336942813e+001dB,-5.90075662275065e+001°)
2.50034536169646e+003	(-2.64187963291475e+001dB,-5.88904960403829e+001°)
2.51188643150961e+003	(-2.63681873216188e+001dB,-5.87731696696692e+001°)
2.52348077248061e+003	(-2.63175063611755e+001dB,-5.86555884783155e+001°)
2.53512863049794e+003	(-2.62667531383459e+001dB,-5.85377538488342e+001°)
2.54683025258507e+003	(-2.62159273447424e+001dB,-5.84196671833015e+001°)
2.55858588690568e+003	(-2.61650286730964e+001dB,-5.83013299033435e+001°)
2.57039578276890e+003	(-2.61140568172947e+001dB,-5.81827434501359e+001°)
2.58226019063463e+003	(-2.60630114724145e+001dB,-5.80639092843834e+001°)
2.59417936211885e+003	(-2.60118923347599e+001dB,-5.79448288863080e+001°)
2.60615354999893e+003	(-2.59606991018978e+001dB,-5.78255037556314e+001°)
2.61818300821902e+003	(-2.59094314726938e+001dB,-5.77059354115468e+001°)
2.63026799189542e+003	(-2.58580891473489e+001dB,-5.75861253927010e+001°)
2.64240875732198e+003	(-2.58066718274350e+001dB,-5.74660752571582e+001°)
2.65460556197557e+003	(-2.57551792159323e+001dB,-5.73457865823738e+001°)
2.66685866452151e+003	(-2.57036110172650e+001dB,-5.72252609651533e+001°)
2.67916832481907e+003	(-2.56519669373382e+001dB,-5.71045000216196e+001°)
2.69153480392695e+003	(-2.56002466835743e+001dB,-5.69835053871624e+001°)
2.70395836410888e+003	(-2.55484499649497e+001dB,-5.68622787164013e+001°)
2.71643926883912e+003	(-2.54965764920317e+001dB,-5.67408216831293e+001°)
2.72897778280808e+003	(-2.54446259770147e+001dB,-5.66191359802634e+001°)
2.74157417192792e+003	(-2.53925981337575e+001dB,-5.64972233197887e+001°)
2.75422870333820e+003	(-2.53404926778194e+001dB,-5.63750854326942e+001°)
2.76694164541155e+003	(-2.52883093264979e+001dB,-5.62527240689165e+001°)
2.77971326775933e+003	(-2.52360477988642e+001dB,-5.61301409972667e+001°)
2.79254384123738e+003	(-2.51837078158012e+001dB,-5.60073380053647e+001°)
2.80543363795175e+003	(-2.51312891000391e+001dB,-5.58843168995577e+001°)
2.81838293126449e+003	(-2.50787913761932e+001dB,-5.57610795048544e+001°)
2.83139199579942e+003	(-2.50262143707992e+001dB,-5.56376276648309e+001°)
2.84446110744795e+003	(-2.49735578123511e+001dB,-5.55139632415553e+001°)
2.85759054337499e+003	(-2.49208214313371e+001dB,-5.53900881154954e+001°)
2.87078058202473e+003	(-2.48680049602759e+001dB,-5.52660041854256e+001°)
2.88403150312665e+003	(-2.48151081337535e+001dB,-5.51417133683326e+001°)
2.89734358770136e+003	(-2.47621306884594e+001dB,-5.50172175993179e+001°)
2.91071711806665e+003	(-2.47090723632227e+001dB,-5.48925188314899e+001°)
2.92415237784338e+003	(-2.46559328990483e+001dB,-5.47676190358634e+001°)
2.93764965196157e+003	(-2.46027120391527e+001dB,-5.46425202012425e+001°)
2.95120922666643e+003	(-2.45494095290004e+001dB,-5.45172243341132e+001°)
2.96483138952438e+003	(-2.44960251163388e+001dB,-5.43917334585201e+001°)
2.97851642942923e+003	(-2.44425585512346e+001dB,-5.42660496159485e+001°)
2.99226463660823e+003	(-2.43890095861087e+001dB,-5.41401748651994e+001°)
3.00607630262827e+003	(-2.43353779757718e+001dB,-5.40141112822582e+001°)
3.01995172040206e+003	(-2.42816634774594e+001dB,-5.38878609601662e+001°)
3.03389118419431e+003	(-2.42278658508664e+001dB,-5.37614260088813e+001°)
3.04789498962803e+003	(-2.41739848581823e+001dB,-5.36348085551409e+001°)
3.06196343369072e+003	(-2.41200202641256e+001dB,-5.35080107423174e+001°)
3.07609681474075e+003	(-2.40659718359778e+001dB,-5.33810347302731e+001°)
3.09029543251364e+003	(-2.40118393436180e+001dB,-5.32538826952078e+001°)
3.10455958812840e+003	(-2.39576225595559e+001dB,-5.31265568295049e+001°)
3.11888958409398e+003	(-2.39033212589666e+001dB,-5.29990593415774e+001°)
3.13328572431563e+003	(-2.38489352197229e+001dB,-5.28713924557027e+001°)
3.14774831410136e+003	(-2.37944642224288e+001dB,-5.27435584118604e+001°)
3.16227766016843e+003	(-2.37399080504525e+001dB,-5.26155594655624e+001°)
3.17687407064982e+003	(-2.36852664899587e+001dB,-5.24873978876856e+001°)
3.19153785510081e+003	(-2.36305393299407e+001dB,-5.23590759642908e+001°)
3.20626932450551e+003	(-2.35757263622525e+001dB,-5.22305959964484e+001°)
3.22106879128348e+003	(-2.35208273816407e+001dB,-5.21019603000548e+001°)
3.23593656929633e+003	(-2.34658421857753e+001dB,-5.19731712056499e+001°)
3.25087297385439e+003	(-2.34107705752810e+001dB,-5.18442310582248e+001°)
3.26587832172341e+003	(-2.33556123537676e+001dB,-5.17151422170298e+001°)
3.28095293113124e+003	(-2.33003673278605e+001dB,-5.15859070553834e+001°)
3.29609712177463e+003	(-2.32450353072306e+001dB,-5.14565279604687e+001°)
3.31131121482596e+003	(-2.31896161046235e+001dB,-5.13270073331345e+001°)
3.32659553294010e+003	(-2.31341095358890e+001dB,-5.11973475876894e+001°)
3.34195040026120e+003	(-2.30785154200101e+001dB,-5.10675511516946e+001°)
3.35737614242960e+003	(-2.30228335791307e+001dB,-5.09376204657496e+001°)
3.37287308658874e+003	(-2.29670638385841e+001dB,-5.08075579832806e+001°)
3.38844156139208e+003	(-2.29112060269202e+001dB,-5.06773661703214e+001°)
3.40408189701006e+003	(-2.28552599759331e+001dB,-5.05470475052946e+001°)
3.41979442513714e+003	(-2.27992255206873e+001dB,-5.04166044787853e+001°)
3.43557947899880e+003	(-2.27431024995442e+001dB,-5.02860395933169e+001°)
3.45143739335862e+003	(-2.26868907541880e+001dB,-5.01553553631206e+001°)
3.46736850452537e+003	(-2.26305901296505e+001dB,-5.00245543139029e+001°)
3.48337315036018e+003	(-2.25742004743368e+001dB,-4.98936389826115e+001°)
3.49945167028363e+003	(-2.25177216400490e+001dB,-4.97626119171967e+001°)
