Freq.	V(fb6)/V(inm6)
1.00000000000000e+003	(-3.65942231320860e+001dB,-7.79590287815459e+001°)
1.00461579027840e+003	(-3.65524874839342e+001dB,-7.79048663297650e+001°)
1.00925288607668e+003	(-3.65107364789194e+001dB,-7.78504764616479e+001°)
1.01391138573668e+003	(-3.64689699874400e+001dB,-7.77958584070940e+001°)
1.01859138805412e+003	(-3.64271878789118e+001dB,-7.77410113960248e+001°)
1.02329299228075e+003	(-3.63853900217625e+001dB,-7.76859346584133e+001°)
1.02801629812647e+003	(-3.63435762834268e+001dB,-7.76306274243536e+001°)
1.03276140576140e+003	(-3.63017465303403e+001dB,-7.75750889240749e+001°)
1.03752841581801e+003	(-3.62599006279345e+001dB,-7.75193183879981e+001°)
1.04231742939330e+003	(-3.62180384406316e+001dB,-7.74633150467817e+001°)
1.04712854805090e+003	(-3.61761598318382e+001dB,-7.74070781313596e+001°)
1.05196187382322e+003	(-3.61342646639406e+001dB,-7.73506068729891e+001°)
1.05681750921366e+003	(-3.60923527982993e+001dB,-7.72939005032927e+001°)
1.06169555719873e+003	(-3.60504240952433e+001dB,-7.72369582543044e+001°)
1.06659612123026e+003	(-3.60084784140652e+001dB,-7.71797793585241e+001°)
1.07151930523761e+003	(-3.59665156130153e+001dB,-7.71223630489556e+001°)
1.07646521362984e+003	(-3.59245355492966e+001dB,-7.70647085591560e+001°)
1.08143395129794e+003	(-3.58825380790596e+001dB,-7.70068151232890e+001°)
1.08642562361707e+003	(-3.58405230573964e+001dB,-7.69486819761631e+001°)
1.09144033644876e+003	(-3.57984903383360e+001dB,-7.68903083533024e+001°)
1.09647819614319e+003	(-3.57564397748389e+001dB,-7.68316934909713e+001°)
1.10153930954142e+003	(-3.57143712187915e+001dB,-7.67728366262404e+001°)
1.10662378397767e+003	(-3.56722845210014e+001dB,-7.67137369970410e+001°)
1.11173172728159e+003	(-3.56301795311915e+001dB,-7.66543938422049e+001°)
1.11686324778056e+003	(-3.55880560979958e+001dB,-7.65948064015293e+001°)
1.12201845430197e+003	(-3.55459140689531e+001dB,-7.65349739158214e+001°)
1.12719745617551e+003	(-3.55037532905030e+001dB,-7.64748956269650e+001°)
1.13240036323556e+003	(-3.54615736079798e+001dB,-7.64145707779583e+001°)
1.13762728582343e+003	(-3.54193748656078e+001dB,-7.63539986129809e+001°)
1.14287833478977e+003	(-3.53771569064967e+001dB,-7.62931783774546e+001°)
1.14815362149688e+003	(-3.53349195726361e+001dB,-7.62321093180864e+001°)
1.15345325782109e+003	(-3.52926627048905e+001dB,-7.61707906829440e+001°)
1.15877735615513e+003	(-3.52503861429943e+001dB,-7.61092217214883e+001°)
1.16412602941049e+003	(-3.52080897255475e+001dB,-7.60474016846668e+001°)
1.16949939101987e+003	(-3.51657732900101e+001dB,-7.59853298249435e+001°)
1.17489755493953e+003	(-3.51234366726976e+001dB,-7.59230053963776e+001°)
1.18032063565173e+003	(-3.50810797087764e+001dB,-7.58604276546771e+001°)
1.18576874816716e+003	(-3.50387022322583e+001dB,-7.57975958572588e+001°)
1.19124200802738e+003	(-3.49963040759968e+001dB,-7.57345092633243e+001°)
1.19674053130725e+003	(-3.49538850716818e+001dB,-7.56711671339044e+001°)
1.20226443461742e+003	(-3.49114450498349e+001dB,-7.56075687319413e+001°)
1.20781383510678e+003	(-3.48689838398054e+001dB,-7.55437133223416e+001°)
1.21338885046498e+003	(-3.48265012697649e+001dB,-7.54796001720436e+001°)
1.21898959892487e+003	(-3.47839971667038e+001dB,-7.54152285500899e+001°)
1.22461619926505e+003	(-3.47414713564263e+001dB,-7.53505977276948e+001°)
1.23026877081238e+003	(-3.46989236635461e+001dB,-7.52857069782999e+001°)
1.23594743344451e+003	(-3.46563539114819e+001dB,-7.52205555776541e+001°)
1.24165230759241e+003	(-3.46137619224538e+001dB,-7.51551428038883e+001°)
1.24738351424295e+003	(-3.45711475174782e+001dB,-7.50894679375655e+001°)
1.25314117494142e+003	(-3.45285105163646e+001dB,-7.50235302617730e+001°)
1.25892541179417e+003	(-3.44858507377105e+001dB,-7.49573290621795e+001°)
1.26473634747115e+003	(-3.44431679988984e+001dB,-7.48908636271194e+001°)
1.27057410520855e+003	(-3.44004621160911e+001dB,-7.48241332476576e+001°)
1.27643880881135e+003	(-3.43577329042282e+001dB,-7.47571372176618e+001°)
1.28233058265603e+003	(-3.43149801770221e+001dB,-7.46898748338887e+001°)
1.28824955169314e+003	(-3.42722037469542e+001dB,-7.46223453960472e+001°)
1.29419584144999e+003	(-3.42294034252718e+001dB,-7.45545482068831e+001°)
1.30016957803329e+003	(-3.41865790219833e+001dB,-7.44864825722537e+001°)
1.30617088813185e+003	(-3.41437303458562e+001dB,-7.44181478012002e+001°)
1.31219989901921e+003	(-3.41008572044122e+001dB,-7.43495432060372e+001°)
1.31825673855641e+003	(-3.40579594039251e+001dB,-7.42806681024255e+001°)
1.32434153519467e+003	(-3.40150367494165e+001dB,-7.42115218094505e+001°)
1.33045441797810e+003	(-3.39720890446531e+001dB,-7.41421036497102e+001°)
1.33659551654645e+003	(-3.39291160921435e+001dB,-7.40724129493911e+001°)
1.34276496113787e+003	(-3.38861176931350e+001dB,-7.40024490383471e+001°)
1.34896288259166e+003	(-3.38430936476115e+001dB,-7.39322112501988e+001°)
1.35518941235104e+003	(-3.38000437542891e+001dB,-7.38616989224027e+001°)
1.36144468246596e+003	(-3.37569678106148e+001dB,-7.37909113963387e+001°)
1.36772882559585e+003	(-3.37138656127628e+001dB,-7.37198480173981e+001°)
1.37404197501252e+003	(-3.36707369556330e+001dB,-7.36485081350772e+001°)
1.38038426460289e+003	(-3.36275816328473e+001dB,-7.35768911030448e+001°)
1.38675582887189e+003	(-3.35843994367482e+001dB,-7.35049962792553e+001°)
1.39315680294531e+003	(-3.35411901583963e+001dB,-7.34328230260186e+001°)
1.39958732257262e+003	(-3.34979535875678e+001dB,-7.33603707100973e+001°)
1.40604752412992e+003	(-3.34546895127530e+001dB,-7.32876387027958e+001°)
1.41253754462276e+003	(-3.34113977211538e+001dB,-7.32146263800542e+001°)
1.41905752168910e+003	(-3.33680779986825e+001dB,-7.31413331225381e+001°)
1.42560759360219e+003	(-3.33247301299595e+001dB,-7.30677583157268e+001°)
1.43218789927355e+003	(-3.32813538983120e+001dB,-7.29939013500153e+001°)
1.43879857825585e+003	(-3.32379490857728e+001dB,-7.29197616208054e+001°)
1.44543977074593e+003	(-3.31945154730783e+001dB,-7.28453385285964e+001°)
1.45211161758775e+003	(-3.31510528396681e+001dB,-7.27706314790881e+001°)
1.45881426027536e+003	(-3.31075609636830e+001dB,-7.26956398832720e+001°)
1.46554784095592e+003	(-3.30640396219648e+001dB,-7.26203631575313e+001°)
1.47231250243273e+003	(-3.30204885900549e+001dB,-7.25448007237342e+001°)
1.47910838816821e+003	(-3.29769076421945e+001dB,-7.24689520093460e+001°)
1.48593564228701e+003	(-3.29332965513226e+001dB,-7.23928164475112e+001°)
1.49279440957900e+003	(-3.28896550890772e+001dB,-7.23163934771684e+001°)
1.49968483550238e+003	(-3.28459830257933e+001dB,-7.22396825431378e+001°)
1.50660706618675e+003	(-3.28022801305044e+001dB,-7.21626830962364e+001°)
1.51356124843622e+003	(-3.27585461709415e+001dB,-7.20853945933731e+001°)
1.52054752973250e+003	(-3.27147809135338e+001dB,-7.20078164976570e+001°)
1.52756605823808e+003	(-3.26709841234084e+001dB,-7.19299482784905e+001°)
1.53461698279930e+003	(-3.26271555643913e+001dB,-7.18517894116896e+001°)
1.54170045294957e+003	(-3.25832949990076e+001dB,-7.17733393795731e+001°)
1.54881661891249e+003	(-3.25394021884830e+001dB,-7.16945976710865e+001°)
1.55596563160508e+003	(-3.24954768927438e+001dB,-7.16155637818931e+001°)
1.56314764264096e+003	(-3.24515188704186e+001dB,-7.15362372144861e+001°)
1.57036280433356e+003	(-3.24075278788395e+001dB,-7.14566174783058e+001°)
1.57761126969936e+003	(-3.23635036740435e+001dB,-7.13767040898346e+001°)
1.58489319246112e+003	(-3.23194460107737e+001dB,-7.12964965727147e+001°)
1.59220872705118e+003	(-3.22753546424819e+001dB,-7.12159944578613e+001°)
1.59955802861468e+003	(-3.22312293213298e+001dB,-7.11351972835611e+001°)
1.60694125301289e+003	(-3.21870697981917e+001dB,-7.10541045955992e+001°)
1.61435855682650e+003	(-3.21428758226566e+001dB,-7.09727159473605e+001°)
1.62181009735894e+003	(-3.20986471430302e+001dB,-7.08910308999430e+001°)
1.62929603263973e+003	(-3.20543835063389e+001dB,-7.08090490222808e+001°)
1.63681652142782e+003	(-3.20100846583310e+001dB,-7.07267698912435e+001°)
1.64437172321494e+003	(-3.19657503434813e+001dB,-7.06441930917641e+001°)
1.65196179822903e+003	(-3.19213803049934e+001dB,-7.05613182169475e+001°)
1.65958690743757e+003	(-3.18769742848036e+001dB,-7.04781448681828e+001°)
1.66724721255107e+003	(-3.18325320235845e+001dB,-7.03946726552731e+001°)
1.67494287602645e+003	(-3.17880532607487e+001dB,-7.03109011965369e+001°)
1.68267406107048e+003	(-3.17435377344531e+001dB,-7.02268301189289e+001°)
1.69044093164328e+003	(-3.16989851816031e+001dB,-7.01424590581691e+001°)
1.69824365246176e+003	(-3.16543953378572e+001dB,-7.00577876588493e+001°)
1.70608238900314e+003	(-3.16097679376316e+001dB,-6.99728155745572e+001°)
1.71395730750844e+003	(-3.15651027141050e+001dB,-6.98875424679909e+001°)
1.72186857498602e+003	(-3.15203993992240e+001dB,-6.98019680110842e+001°)
1.72981635921511e+003	(-3.14756577237084e+001dB,-6.97160918851264e+001°)
1.73780082874939e+003	(-3.14308774170570e+001dB,-6.96299137808823e+001°)
1.74582215292052e+003	(-3.13860582075528e+001dB,-6.95434333987102e+001°)
1.75388050184177e+003	(-3.13411998222697e+001dB,-6.94566504486872e+001°)
1.76197604641164e+003	(-3.12963019870786e+001dB,-6.93695646507317e+001°)
1.77010895831743e+003	(-3.12513644266537e+001dB,-6.92821757347220e+001°)
1.77827941003894e+003	(-3.12063868644794e+001dB,-6.91944834406218e+001°)
1.78648757485206e+003	(-3.11613690228575e+001dB,-6.91064875186046e+001°)
1.79473362683254e+003	(-3.11163106229144e+001dB,-6.90181877291743e+001°)
1.80301774085958e+003	(-3.10712113846080e+001dB,-6.89295838432890e+001°)
1.81134009261962e+003	(-3.10260710267362e+001dB,-6.88406756424873e+001°)
1.81970085861000e+003	(-3.09808892669445e+001dB,-6.87514629190113e+001°)
1.82810021614276e+003	(-3.09356658217344e+001dB,-6.86619454759303e+001°)
1.83653834334836e+003	(-3.08904004064716e+001dB,-6.85721231272660e+001°)
1.84501541917949e+003	(-3.08450927353950e+001dB,-6.84819956981214e+001°)
1.85353162341483e+003	(-3.07997425216260e+001dB,-6.83915630247963e+001°)
1.86208713666288e+003	(-3.07543494771769e+001dB,-6.83008249549254e+001°)
1.87068214036582e+003	(-3.07089133129614e+001dB,-6.82097813475953e+001°)
1.87931681680328e+003	(-3.06634337388037e+001dB,-6.81184320734675e+001°)
1.88799134909631e+003	(-3.06179104634489e+001dB,-6.80267770149167e+001°)
1.89670592121116e+003	(-3.05723431945733e+001dB,-6.79348160661409e+001°)
1.90546071796326e+003	(-3.05267316387951e+001dB,-6.78425491333020e+001°)
1.91425592502110e+003	(-3.04810755016849e+001dB,-6.77499761346398e+001°)
1.92309172891017e+003	(-3.04353744877774e+001dB,-6.76570970006038e+001°)
1.93196831701694e+003	(-3.03896283005828e+001dB,-6.75639116739829e+001°)
1.94088587759280e+003	(-3.03438366425979e+001dB,-6.74704201100186e+001°)
1.94984459975806e+003	(-3.02979992153186e+001dB,-6.73766222765463e+001°)
1.95884467350601e+003	(-3.02521157192526e+001dB,-6.72825181541097e+001°)
1.96788628970686e+003	(-3.02061858539312e+001dB,-6.71881077360908e+001°)
1.97696964011188e+003	(-3.01602093179225e+001dB,-6.70933910288375e+001°)
1.98609491735739e+003	(-3.01141858088448e+001dB,-6.69983680517833e+001°)
1.99526231496890e+003	(-3.00681150233799e+001dB,-6.69030388375770e+001°)
2.00447202736518e+003	(-3.00219966572864e+001dB,-6.68074034322044e+001°)
2.01372424986241e+003	(-2.99758304054148e+001dB,-6.67114618951200e+001°)
2.02301917867829e+003	(-2.99296159617209e+001dB,-6.66152142993598e+001°)
2.03235701093624e+003	(-2.98833530192807e+001dB,-6.65186607316733e+001°)
2.04173794466955e+003	(-2.98370412703059e+001dB,-6.64218012926485e+001°)
2.05116217882559e+003	(-2.97906804061583e+001dB,-6.63246360968299e+001°)
2.06062991327002e+003	(-2.97442701173661e+001dB,-6.62271652728440e+001°)
2.07014134879106e+003	(-2.96978100936393e+001dB,-6.61293889635246e+001°)
2.07969668710372e+003	(-2.96513000238862e+001dB,-6.60313073260273e+001°)
2.08929613085406e+003	(-2.96047395962296e+001dB,-6.59329205319599e+001°)
2.09893988362355e+003	(-2.95581284980239e+001dB,-6.58342287674974e+001°)
2.10862814993331e+003	(-2.95114664158720e+001dB,-6.57352322335058e+001°)
2.11836113524852e+003	(-2.94647530356427e+001dB,-6.56359311456609e+001°)
2.12813904598273e+003	(-2.94179880424888e+001dB,-6.55363257345663e+001°)
2.13796208950225e+003	(-2.93711711208646e+001dB,-6.54364162458743e+001°)
2.14783047413056e+003	(-2.93243019545447e+001dB,-6.53362029404032e+001°)
2.15774440915269e+003	(-2.92773802266425e+001dB,-6.52356860942528e+001°)
2.16770410481972e+003	(-2.92304056196294e+001dB,-6.51348659989254e+001°)
2.17770977235318e+003	(-2.91833778153535e+001dB,-6.50337429614336e+001°)
2.18776162394958e+003	(-2.91362964950602e+001dB,-6.49323173044256e+001°)
2.19785987278485e+003	(-2.90891613394113e+001dB,-6.48305893662902e+001°)
2.20800473301892e+003	(-2.90419720285057e+001dB,-6.47285595012723e+001°)
2.21819641980024e+003	(-2.89947282418999e+001dB,-6.46262280795901e+001°)
2.22843514927033e+003	(-2.89474296586288e+001dB,-6.45235954875385e+001°)
2.23872113856836e+003	(-2.89000759572271e+001dB,-6.44206621276066e+001°)
2.24905460583581e+003	(-2.88526668157509e+001dB,-6.43174284185807e+001°)
2.25943577022100e+003	(-2.88052019117991e+001dB,-6.42138947956582e+001°)
2.26986485188385e+003	(-2.87576809225360e+001dB,-6.41100617105467e+001°)
2.28034207200044e+003	(-2.87101035247139e+001dB,-6.40059296315796e+001°)
2.29086765276780e+003	(-2.86624693946954e+001dB,-6.39014990438122e+001°)
2.30144181740853e+003	(-2.86147782084771e+001dB,-6.37967704491315e+001°)
2.31206479017562e+003	(-2.85670296417124e+001dB,-6.36917443663522e+001°)
2.32273679635713e+003	(-2.85192233697362e+001dB,-6.35864213313235e+001°)
2.33345806228103e+003	(-2.84713590675879e+001dB,-6.34808018970244e+001°)
2.34422881531995e+003	(-2.84234364100364e+001dB,-6.33748866336626e+001°)
2.35504928389604e+003	(-2.83754550716049e+001dB,-6.32686761287720e+001°)
2.36591969748579e+003	(-2.83274147265957e+001dB,-6.31621709873087e+001°)
2.37684028662490e+003	(-2.82793150491151e+001dB,-6.30553718317410e+001°)
2.38781128291321e+003	(-2.82311557131000e+001dB,-6.29482793021452e+001°)
2.39883291901952e+003	(-2.81829363923432e+001dB,-6.28408940562957e+001°)
2.40990542868662e+003	(-2.81346567605193e+001dB,-6.27332167697486e+001°)
2.42102904673621e+003	(-2.80863164912123e+001dB,-6.26252481359405e+001°)
2.43220400907384e+003	(-2.80379152579414e+001dB,-6.25169888662589e+001°)
2.44343055269400e+003	(-2.79894527341889e+001dB,-6.24084396901394e+001°)
2.45470891568506e+003	(-2.79409285934270e+001dB,-6.22996013551402e+001°)
2.46603933723437e+003	(-2.78923425091461e+001dB,-6.21904746270203e+001°)
2.47742205763332e+003	(-2.78436941548826e+001dB,-6.20810602898281e+001°)
2.48885731828242e+003	(-2.77949832042470e+001dB,-6.19713591459659e+001°)
2.50034536169646e+003	(-2.77462093309531e+001dB,-6.18613720162703e+001°)
2.51188643150961e+003	(-2.76973722088463e+001dB,-6.17510997400849e+001°)
2.52348077248061e+003	(-2.76484715119330e+001dB,-6.16405431753290e+001°)
2.53512863049794e+003	(-2.75995069144101e+001dB,-6.15297031985647e+001°)
2.54683025258507e+003	(-2.75504780906949e+001dB,-6.14185807050659e+001°)
2.55858588690568e+003	(-2.75013847154547e+001dB,-6.13071766088803e+001°)
2.57039578276890e+003	(-2.74522264636372e+001dB,-6.11954918428917e+001°)
2.58226019063463e+003	(-2.74030030105015e+001dB,-6.10835273588796e+001°)
2.59417936211885e+003	(-2.73537140316482e+001dB,-6.09712841275772e+001°)
2.60615354999893e+003	(-2.73043592030510e+001dB,-6.08587631387244e+001°)
2.61818300821902e+003	(-2.72549382010877e+001dB,-6.07459654011214e+001°)
2.63026799189542e+003	(-2.72054507025721e+001dB,-6.06328919426806e+001°)
2.64240875732198e+003	(-2.71558963847851e+001dB,-6.05195438104692e+001°)
2.65460556197557e+003	(-2.71062749255080e+001dB,-6.04059220707631e+001°)
2.66685866452151e+003	(-2.70565860030533e+001dB,-6.02920278090788e+001°)
2.67916832481907e+003	(-2.70068292962987e+001dB,-6.01778621302241e+001°)
2.69153480392695e+003	(-2.69570044847185e+001dB,-6.00634261583278e+001°)
2.70395836410888e+003	(-2.69071112484176e+001dB,-5.99487210368779e+001°)
2.71643926883912e+003	(-2.68571492681641e+001dB,-5.98337479287563e+001°)
2.72897778280808e+003	(-2.68071182254231e+001dB,-5.97185080162622e+001°)
2.74157417192792e+003	(-2.67570178023901e+001dB,-5.96030025011448e+001°)
2.75422870333820e+003	(-2.67068476820245e+001dB,-5.94872326046238e+001°)
2.76694164541155e+003	(-2.66566075480845e+001dB,-5.93711995674118e+001°)
2.77971326775933e+003	(-2.66062970851605e+001dB,-5.92549046497345e+001°)
2.79254384123738e+003	(-2.65559159787096e+001dB,-5.91383491313425e+001°)
2.80543363795175e+003	(-2.65054639150907e+001dB,-5.90215343115272e+001°)
2.81838293126449e+003	(-2.64549405815986e+001dB,-5.89044615091278e+001°)
2.83139199579942e+003	(-2.64043456664993e+001dB,-5.87871320625386e+001°)
2.84446110744795e+003	(-2.63536788590648e+001dB,-5.86695473297159e+001°)
2.85759054337499e+003	(-2.63029398496088e+001dB,-5.85517086881736e+001°)
2.87078058202473e+003	(-2.62521283295213e+001dB,-5.84336175349825e+001°)
2.88403150312665e+003	(-2.62012439913051e+001dB,-5.83152752867680e+001°)
2.89734358770136e+003	(-2.61502865286102e+001dB,-5.81966833796942e+001°)
2.91071711806665e+003	(-2.60992556362711e+001dB,-5.80778432694594e+001°)
2.92415237784338e+003	(-2.60481510103413e+001dB,-5.79587564312764e+001°)
2.93764965196157e+003	(-2.59969723481299e+001dB,-5.78394243598541e+001°)
2.95120922666643e+003	(-2.59457193482380e+001dB,-5.77198485693800e+001°)
2.96483138952438e+003	(-2.58943917105943e+001dB,-5.76000305934892e+001°)
2.97851642942923e+003	(-2.58429891364917e+001dB,-5.74799719852395e+001°)
2.99226463660823e+003	(-2.57915113286240e+001dB,-5.73596743170814e+001°)
3.00607630262827e+003	(-2.57399579911215e+001dB,-5.72391391808197e+001°)
3.01995172040206e+003	(-2.56883288295884e+001dB,-5.71183681875753e+001°)
3.03389118419431e+003	(-2.56366235511389e+001dB,-5.69973629677478e+001°)
3.04789498962803e+003	(-2.55848418644338e+001dB,-5.68761251709631e+001°)
3.06196343369072e+003	(-2.55329834797176e+001dB,-5.67546564660332e+001°)
3.07609681474075e+003	(-2.54810481088545e+001dB,-5.66329585408955e+001°)
3.09029543251364e+003	(-2.54290354653660e+001dB,-5.65110331025628e+001°)
3.10455958812840e+003	(-2.53769452644666e+001dB,-5.63888818770634e+001°)
3.11888958409398e+003	(-2.53247772231018e+001dB,-5.62665066093764e+001°)
3.13328572431563e+003	(-2.52725310599834e+001dB,-5.61439090633663e+001°)
3.14774831410136e+003	(-2.52202064956277e+001dB,-5.60210910217150e+001°)
3.16227766016843e+003	(-2.51678032523909e+001dB,-5.58980542858444e+001°)
3.17687407064982e+003	(-2.51153210545068e+001dB,-5.57748006758440e+001°)
3.19153785510081e+003	(-2.50627596281231e+001dB,-5.56513320303878e+001°)
3.20626932450551e+003	(-2.50101187013376e+001dB,-5.55276502066497e+001°)
3.22106879128348e+003	(-2.49573980042355e+001dB,-5.54037570802174e+001°)
3.23593656929633e+003	(-2.49045972689252e+001dB,-5.52796545450012e+001°)
3.25087297385439e+003	(-2.48517162295752e+001dB,-5.51553445131354e+001°)
3.26587832172341e+003	(-2.47987546224501e+001dB,-5.50308289148824e+001°)
3.28095293113124e+003	(-2.47457121859471e+001dB,-5.49061096985335e+001°)
3.29609712177463e+003	(-2.46925886606319e+001dB,-5.47811888302947e+001°)
3.31131121482596e+003	(-2.46393837892747e+001dB,-5.46560682941850e+001°)
3.32659553294010e+003	(-2.45860973168864e+001dB,-5.45307500919186e+001°)
3.34195040026120e+003	(-2.45327289907542e+001dB,-5.44052362427905e+001°)
3.35737614242960e+003	(-2.44792785604769e+001dB,-5.42795287835521e+001°)
3.37287308658874e+003	(-2.44257457780008e+001dB,-5.41536297682921e+001°)
3.38844156139208e+003	(-2.43721303976549e+001dB,-5.40275412683038e+001°)
3.40408189701006e+003	(-2.43184321761860e+001dB,-5.39012653719577e+001°)
3.41979442513714e+003	(-2.42646508727935e+001dB,-5.37748041845631e+001°)
3.43557947899880e+003	(-2.42107862491643e+001dB,-5.36481598282304e+001°)
3.45143739335862e+003	(-2.41568380695075e+001dB,-5.35213344417296e+001°)
3.46736850452537e+003	(-2.41028061005885e+001dB,-5.33943301803428e+001°)
3.48337315036018e+003	(-2.40486901117632e+001dB,-5.32671492157150e+001°)
3.49945167028363e+003	(-2.39944898750120e+001dB,-5.31397937357021e+001°)
