Freq.	V(fb3)/V(inm3)
1.00000000000000e+003	(-3.34212099706097e+001dB,-7.43066270225988e+001°)
1.00461579027840e+003	(-3.33782891975193e+001dB,-7.42376007352574e+001°)
1.00925288607668e+003	(-3.33353433890428e+001dB,-7.41683030749018e+001°)
1.01391138573668e+003	(-3.32923723477844e+001dB,-7.40987333695747e+001°)
1.01859138805412e+003	(-3.32493758750872e+001dB,-7.40288909509855e+001°)
1.02329299228075e+003	(-3.32063537710308e+001dB,-7.39587751546132e+001°)
1.02801629812647e+003	(-3.31633058344279e+001dB,-7.38883853197773e+001°)
1.03276140576140e+003	(-3.31202318628217e+001dB,-7.38177207897211e+001°)
1.03752841581801e+003	(-3.30771316524832e+001dB,-7.37467809117071e+001°)
1.04231742939330e+003	(-3.30340049984090e+001dB,-7.36755650371006e+001°)
1.04712854805090e+003	(-3.29908516943184e+001dB,-7.36040725214511e+001°)
1.05196187382322e+003	(-3.29476715326508e+001dB,-7.35323027245858e+001°)
1.05681750921366e+003	(-3.29044643045643e+001dB,-7.34602550106966e+001°)
1.06169555719873e+003	(-3.28612297999328e+001dB,-7.33879287484333e+001°)
1.06659612123026e+003	(-3.28179678073443e+001dB,-7.33153233109861e+001°)
1.07151930523761e+003	(-3.27746781140984e+001dB,-7.32424380761854e+001°)
1.07646521362984e+003	(-3.27313605062058e+001dB,-7.31692724265917e+001°)
1.08143395129794e+003	(-3.26880147683849e+001dB,-7.30958257495826e+001°)
1.08642562361707e+003	(-3.26446406840612e+001dB,-7.30220974374493e+001°)
1.09144033644876e+003	(-3.26012380353660e+001dB,-7.29480868874990e+001°)
1.09647819614319e+003	(-3.25578066031344e+001dB,-7.28737935021371e+001°)
1.10153930954142e+003	(-3.25143461669042e+001dB,-7.27992166889725e+001°)
1.10662378397767e+003	(-3.24708565049153e+001dB,-7.27243558609049e+001°)
1.11173172728159e+003	(-3.24273373941084e+001dB,-7.26492104362400e+001°)
1.11686324778056e+003	(-3.23837886101237e+001dB,-7.25737798387646e+001°)
1.12201845430197e+003	(-3.23402099273011e+001dB,-7.24980634978564e+001°)
1.12719745617551e+003	(-3.22966011186790e+001dB,-7.24220608485895e+001°)
1.13240036323556e+003	(-3.22529619559940e+001dB,-7.23457713318289e+001°)
1.13762728582343e+003	(-3.22092922096807e+001dB,-7.22691943943275e+001°)
1.14287833478977e+003	(-3.21655916488715e+001dB,-7.21923294888339e+001°)
1.14815362149688e+003	(-3.21218600413965e+001dB,-7.21151760741954e+001°)
1.15345325782109e+003	(-3.20780971537839e+001dB,-7.20377336154539e+001°)
1.15877735615513e+003	(-3.20343027512602e+001dB,-7.19600015839632e+001°)
1.16412602941049e+003	(-3.19904765977501e+001dB,-7.18819794574774e+001°)
1.16949939101987e+003	(-3.19466184558781e+001dB,-7.18036667202677e+001°)
1.17489755493953e+003	(-3.19027280869687e+001dB,-7.17250628632281e+001°)
1.18032063565173e+003	(-3.18588052510472e+001dB,-7.16461673839760e+001°)
1.18576874816716e+003	(-3.18148497068411e+001dB,-7.15669797869672e+001°)
1.19124200802738e+003	(-3.17708612117813e+001dB,-7.14874995835955e+001°)
1.19674053130725e+003	(-3.17268395220032e+001dB,-7.14077262923094e+001°)
1.20226443461742e+003	(-3.16827843923490e+001dB,-7.13276594387198e+001°)
1.20781383510678e+003	(-3.16386955763685e+001dB,-7.12472985557069e+001°)
1.21338885046498e+003	(-3.15945728263220e+001dB,-7.11666431835315e+001°)
1.21898959892487e+003	(-3.15504158931819e+001dB,-7.10856928699527e+001°)
1.22461619926505e+003	(-3.15062245266351e+001dB,-7.10044471703358e+001°)
1.23026877081238e+003	(-3.14619984750853e+001dB,-7.09229056477585e+001°)
1.23594743344451e+003	(-3.14177374856564e+001dB,-7.08410678731408e+001°)
1.24165230759241e+003	(-3.13734413041942e+001dB,-7.07589334253386e+001°)
1.24738351424295e+003	(-3.13291096752708e+001dB,-7.06765018912748e+001°)
1.25314117494142e+003	(-3.12847423421869e+001dB,-7.05937728660489e+001°)
1.25892541179417e+003	(-3.12403390469752e+001dB,-7.05107459530479e+001°)
1.26473634747115e+003	(-3.11958995304050e+001dB,-7.04274207640698e+001°)
1.27057410520855e+003	(-3.11514235319851e+001dB,-7.03437969194386e+001°)
1.27643880881135e+003	(-3.11069107899682e+001dB,-7.02598740481171e+001°)
1.28233058265603e+003	(-3.10623610413555e+001dB,-7.01756517878328e+001°)
1.28824955169314e+003	(-3.10177740219007e+001dB,-7.00911297851894e+001°)
1.29419584144999e+003	(-3.09731494661148e+001dB,-7.00063076957857e+001°)
1.30016957803329e+003	(-3.09284871072712e+001dB,-6.99211851843465e+001°)
1.30617088813185e+003	(-3.08837866774108e+001dB,-6.98357619248213e+001°)
1.31219989901921e+003	(-3.08390479073473e+001dB,-6.97500376005302e+001°)
1.31825673855641e+003	(-3.07942705266725e+001dB,-6.96640119042608e+001°)
1.32434153519467e+003	(-3.07494542637627e+001dB,-6.95776845384038e+001°)
1.33045441797810e+003	(-3.07045988457843e+001dB,-6.94910552150742e+001°)
1.33659551654645e+003	(-3.06597039987003e+001dB,-6.94041236562255e+001°)
1.34276496113787e+003	(-3.06147694472765e+001dB,-6.93168895937803e+001°)
1.34896288259166e+003	(-3.05697949150886e+001dB,-6.92293527697471e+001°)
1.35518941235104e+003	(-3.05247801245288e+001dB,-6.91415129363474e+001°)
1.36144468246596e+003	(-3.04797247968136e+001dB,-6.90533698561370e+001°)
1.36772882559585e+003	(-3.04346286519906e+001dB,-6.89649233021307e+001°)
1.37404197501252e+003	(-3.03894914089466e+001dB,-6.88761730579242e+001°)
1.38038426460289e+003	(-3.03443127854154e+001dB,-6.87871189178235e+001°)
1.38675582887189e+003	(-3.02990924979865e+001dB,-6.86977606869674e+001°)
1.39315680294531e+003	(-3.02538302621128e+001dB,-6.86080981814440e+001°)
1.39958732257262e+003	(-3.02085257921196e+001dB,-6.85181312284296e+001°)
1.40604752412992e+003	(-3.01631788012142e+001dB,-6.84278596663067e+001°)
1.41253754462276e+003	(-3.01177890014942e+001dB,-6.83372833447879e+001°)
1.41905752168910e+003	(-3.00723561039576e+001dB,-6.82464021250434e+001°)
1.42560759360219e+003	(-3.00268798185125e+001dB,-6.81552158798289e+001°)
1.43218789927355e+003	(-2.99813598539871e+001dB,-6.80637244936088e+001°)
1.43879857825585e+003	(-2.99357959181399e+001dB,-6.79719278626812e+001°)
1.44543977074593e+003	(-2.98901877176706e+001dB,-6.78798258953082e+001°)
1.45211161758775e+003	(-2.98445349582307e+001dB,-6.77874185118355e+001°)
1.45881426027536e+003	(-2.97988373444348e+001dB,-6.76947056448244e+001°)
1.46554784095592e+003	(-2.97530945798718e+001dB,-6.76016872391749e+001°)
1.47231250243273e+003	(-2.97073063671169e+001dB,-6.75083632522502e+001°)
1.47910838816821e+003	(-2.96614724077434e+001dB,-6.74147336540076e+001°)
1.48593564228701e+003	(-2.96155924023354e+001dB,-6.73207984271192e+001°)
1.49279440957900e+003	(-2.95696660504995e+001dB,-6.72265575671005e+001°)
1.49968483550238e+003	(-2.95236930508785e+001dB,-6.71320110824334e+001°)
1.50660706618675e+003	(-2.94776731011642e+001dB,-6.70371589946946e+001°)
1.51356124843622e+003	(-2.94316058981109e+001dB,-6.69420013386804e+001°)
1.52054752973250e+003	(-2.93854911375489e+001dB,-6.68465381625281e+001°)
1.52756605823808e+003	(-2.93393285143992e+001dB,-6.67507695278479e+001°)
1.53461698279930e+003	(-2.92931177226869e+001dB,-6.66546955098364e+001°)
1.54170045294957e+003	(-2.92468584555567e+001dB,-6.65583161974122e+001°)
1.54881661891249e+003	(-2.92005504052874e+001dB,-6.64616316933361e+001°)
1.55596563160508e+003	(-2.91541932633071e+001dB,-6.63646421143275e+001°)
1.56314764264096e+003	(-2.91077867202088e+001dB,-6.62673475911991e+001°)
1.57036280433356e+003	(-2.90613304657666e+001dB,-6.61697482689693e+001°)
1.57761126969936e+003	(-2.90148241889513e+001dB,-6.60718443069908e+001°)
1.58489319246112e+003	(-2.89682675779474e+001dB,-6.59736358790719e+001°)
1.59220872705118e+003	(-2.89216603201690e+001dB,-6.58751231735914e+001°)
1.59955802861468e+003	(-2.88750021022785e+001dB,-6.57763063936302e+001°)
1.60694125301289e+003	(-2.88282926102022e+001dB,-6.56771857570793e+001°)
1.61435855682650e+003	(-2.87815315291491e+001dB,-6.55777614967682e+001°)
1.62181009735894e+003	(-2.87347185436288e+001dB,-6.54780338605801e+001°)
1.62929603263973e+003	(-2.86878533374695e+001dB,-6.53780031115718e+001°)
1.63681652142782e+003	(-2.86409355938368e+001dB,-6.52776695280848e+001°)
1.64437172321494e+003	(-2.85939649952529e+001dB,-6.51770334038721e+001°)
1.65196179822903e+003	(-2.85469412236157e+001dB,-6.50760950482069e+001°)
1.65958690743757e+003	(-2.84998639602186e+001dB,-6.49748547859984e+001°)
1.66724721255107e+003	(-2.84527328857696e+001dB,-6.48733129579076e+001°)
1.67494287602645e+003	(-2.84055476804131e+001dB,-6.47714699204621e+001°)
1.68267406107048e+003	(-2.83583080237490e+001dB,-6.46693260461629e+001°)
1.69044093164328e+003	(-2.83110135948541e+001dB,-6.45668817235998e+001°)
1.69824365246176e+003	(-2.82636640723039e+001dB,-6.44641373575650e+001°)
1.70608238900314e+003	(-2.82162591341930e+001dB,-6.43610933691550e+001°)
1.71395730750844e+003	(-2.81687984581576e+001dB,-6.42577501958811e+001°)
1.72186857498602e+003	(-2.81212817213980e+001dB,-6.41541082917827e+001°)
1.72981635921511e+003	(-2.80737086007000e+001dB,-6.40501681275237e+001°)
1.73780082874939e+003	(-2.80260787724587e+001dB,-6.39459301905045e+001°)
1.74582215292052e+003	(-2.79783919127012e+001dB,-6.38413949849620e+001°)
1.75388050184177e+003	(-2.79306476971100e+001dB,-6.37365630320727e+001°)
1.76197604641164e+003	(-2.78828458010467e+001dB,-6.36314348700546e+001°)
1.77010895831743e+003	(-2.78349858995762e+001dB,-6.35260110542664e+001°)
1.77827941003894e+003	(-2.77870676674911e+001dB,-6.34202921573049e+001°)
1.78648757485206e+003	(-2.77390907793361e+001dB,-6.33142787691001e+001°)
1.79473362683254e+003	(-2.76910549094334e+001dB,-6.32079714970182e+001°)
1.80301774085958e+003	(-2.76429597319075e+001dB,-6.31013709659436e+001°)
1.81134009261962e+003	(-2.75948049207112e+001dB,-6.29944778183825e+001°)
1.81970085861000e+003	(-2.75465901496514e+001dB,-6.28872927145444e+001°)
1.82810021614276e+003	(-2.74983150924154e+001dB,-6.27798163324402e+001°)
1.83653834334836e+003	(-2.74499794225971e+001dB,-6.26720493679604e+001°)
1.84501541917949e+003	(-2.74015828137243e+001dB,-6.25639925349680e+001°)
1.85353162341483e+003	(-2.73531249392853e+001dB,-6.24556465653767e+001°)
1.86208713666288e+003	(-2.73046054727569e+001dB,-6.23470122092395e+001°)
1.87068214036582e+003	(-2.72560240876319e+001dB,-6.22380902348249e+001°)
1.87931681680328e+003	(-2.72073804574464e+001dB,-6.21288814286923e+001°)
1.88799134909631e+003	(-2.71586742558096e+001dB,-6.20193865957765e+001°)
1.89670592121116e+003	(-2.71099051564310e+001dB,-6.19096065594571e+001°)
1.90546071796326e+003	(-2.70610728331498e+001dB,-6.17995421616291e+001°)
1.91425592502110e+003	(-2.70121769599643e+001dB,-6.16891942627795e+001°)
1.92309172891017e+003	(-2.69632172110611e+001dB,-6.15785637420528e+001°)
1.93196831701694e+003	(-2.69141932608446e+001dB,-6.14676514973134e+001°)
1.94088587759280e+003	(-2.68651047839675e+001dB,-6.13564584452189e+001°)
1.94984459975806e+003	(-2.68159514553603e+001dB,-6.12449855212725e+001°)
1.95884467350601e+003	(-2.67667329502628e+001dB,-6.11332336798889e+001°)
1.96788628970686e+003	(-2.67174489442542e+001dB,-6.10212038944504e+001°)
1.97696964011188e+003	(-2.66680991132841e+001dB,-6.09088971573599e+001°)
1.98609491735739e+003	(-2.66186831337043e+001dB,-6.07963144800985e+001°)
1.99526231496890e+003	(-2.65692006823000e+001dB,-6.06834568932699e+001°)
2.00447202736518e+003	(-2.65196514363216e+001dB,-6.05703254466540e+001°)
2.01372424986241e+003	(-2.64700350735167e+001dB,-6.04569212092476e+001°)
2.02301917867829e+003	(-2.64203512721628e+001dB,-6.03432452693114e+001°)
2.03235701093624e+003	(-2.63705997110991e+001dB,-6.02292987344083e+001°)
2.04173794466955e+003	(-2.63207800697601e+001dB,-6.01150827314425e+001°)
2.05116217882559e+003	(-2.62708920282075e+001dB,-6.00005984066919e+001°)
2.06062991327002e+003	(-2.62209352671645e+001dB,-5.98858469258439e+001°)
2.07014134879106e+003	(-2.61709094680483e+001dB,-5.97708294740252e+001°)
2.07969668710372e+003	(-2.61208143130042e+001dB,-5.96555472558262e+001°)
2.08929613085406e+003	(-2.60706494849393e+001dB,-5.95400014953268e+001°)
2.09893988362355e+003	(-2.60204146675565e+001dB,-5.94241934361216e+001°)
2.10862814993331e+003	(-2.59701095453885e+001dB,-5.93081243413304e+001°)
2.11836113524852e+003	(-2.59197338038323e+001dB,-5.91917954936214e+001°)
2.12813904598273e+003	(-2.58692871291842e+001dB,-5.90752081952217e+001°)
2.13796208950225e+003	(-2.58187692086735e+001dB,-5.89583637679248e+001°)
2.14783047413056e+003	(-2.57681797304988e+001dB,-5.88412635531030e+001°)
2.15774440915269e+003	(-2.57175183838613e+001dB,-5.87239089117042e+001°)
2.16770410481972e+003	(-2.56667848590020e+001dB,-5.86063012242593e+001°)
2.17770977235318e+003	(-2.56159788472353e+001dB,-5.84884418908778e+001°)
2.18776162394958e+003	(-2.55651000409857e+001dB,-5.83703323312389e+001°)
2.19785987278485e+003	(-2.55141481338227e+001dB,-5.82519739845895e+001°)
2.20800473301892e+003	(-2.54631228204972e+001dB,-5.81333683097272e+001°)
2.21819641980024e+003	(-2.54120237969766e+001dB,-5.80145167849882e+001°)
2.22843514927033e+003	(-2.53608507604816e+001dB,-5.78954209082283e+001°)
2.23872113856836e+003	(-2.53096034095218e+001dB,-5.77760821968005e+001°)
2.24905460583581e+003	(-2.52582814439320e+001dB,-5.76565021875343e+001°)
2.25943577022100e+003	(-2.52068845649086e+001dB,-5.75366824367029e+001°)
2.26986485188385e+003	(-2.51554124750459e+001dB,-5.74166245199954e+001°)
2.28034207200044e+003	(-2.51038648783724e+001dB,-5.72963300324794e+001°)
2.29086765276780e+003	(-2.50522414803877e+001dB,-5.71758005885663e+001°)
2.30144181740853e+003	(-2.50005419880987e+001dB,-5.70550378219656e+001°)
2.31206479017562e+003	(-2.49487661100562e+001dB,-5.69340433856437e+001°)
2.32273679635713e+003	(-2.48969135563921e+001dB,-5.68128189517764e+001°)
2.33345806228103e+003	(-2.48449840388554e+001dB,-5.66913662116901e+001°)
2.34422881531995e+003	(-2.47929772708492e+001dB,-5.65696868758159e+001°)
2.35504928389604e+003	(-2.47408929674679e+001dB,-5.64477826736244e+001°)
2.36591969748579e+003	(-2.46887308455330e+001dB,-5.63256553535649e+001°)
2.37684028662490e+003	(-2.46364906236307e+001dB,-5.62033066830001e+001°)
2.38781128291321e+003	(-2.45841720221484e+001dB,-5.60807384481377e+001°)
2.39883291901952e+003	(-2.45317747633109e+001dB,-5.59579524539537e+001°)
2.40990542868662e+003	(-2.44792985712181e+001dB,-5.58349505241211e+001°)
2.42102904673621e+003	(-2.44267431718807e+001dB,-5.57117345009249e+001°)
2.43220400907384e+003	(-2.43741082932573e+001dB,-5.55883062451807e+001°)
2.44343055269400e+003	(-2.43213936652908e+001dB,-5.54646676361465e+001°)
2.45470891568506e+003	(-2.42685990199452e+001dB,-5.53408205714334e+001°)
2.46603933723437e+003	(-2.42157240912414e+001dB,-5.52167669669088e+001°)
2.47742205763332e+003	(-2.41627686152939e+001dB,-5.50925087565974e+001°)
2.48885731828242e+003	(-2.41097323303474e+001dB,-5.49680478925817e+001°)
2.50034536169646e+003	(-2.40566149768124e+001dB,-5.48433863448965e+001°)
2.51188643150961e+003	(-2.40034162973011e+001dB,-5.47185261014167e+001°)
2.52348077248061e+003	(-2.39501360366639e+001dB,-5.45934691677463e+001°)
2.53512863049794e+003	(-2.38967739420249e+001dB,-5.44682175671034e+001°)
2.54683025258507e+003	(-2.38433297628173e+001dB,-5.43427733401964e+001°)
2.55858588690568e+003	(-2.37898032508193e+001dB,-5.42171385451013e+001°)
2.57039578276890e+003	(-2.37361941601889e+001dB,-5.40913152571380e+001°)
2.58226019063463e+003	(-2.36825022474997e+001dB,-5.39653055687325e+001°)
2.59417936211885e+003	(-2.36287272717751e+001dB,-5.38391115892882e+001°)
2.60615354999893e+003	(-2.35748689945239e+001dB,-5.37127354450431e+001°)
2.61818300821902e+003	(-2.35209271797741e+001dB,-5.35861792789301e+001°)
2.63026799189542e+003	(-2.34669015941077e+001dB,-5.34594452504306e+001°)
2.64240875732198e+003	(-2.34127920066950e+001dB,-5.33325355354259e+001°)
2.65460556197557e+003	(-2.33585981893281e+001dB,-5.32054523260429e+001°)
2.66685866452151e+003	(-2.33043199164546e+001dB,-5.30781978305004e+001°)
2.67916832481907e+003	(-2.32499569652115e+001dB,-5.29507742729459e+001°)
2.69153480392695e+003	(-2.31955091154576e+001dB,-5.28231838932936e+001°)
2.70395836410888e+003	(-2.31409761498073e+001dB,-5.26954289470583e+001°)
2.71643926883912e+003	(-2.30863578536623e+001dB,-5.25675117051836e+001°)
2.72897778280808e+003	(-2.30316540152445e+001dB,-5.24394344538680e+001°)
2.74157417192792e+003	(-2.29768644256280e+001dB,-5.23111994943878e+001°)
2.75422870333820e+003	(-2.29219888787705e+001dB,-5.21828091429174e+001°)
2.76694164541155e+003	(-2.28670271715448e+001dB,-5.20542657303418e+001°)
2.77971326775933e+003	(-2.28119791037701e+001dB,-5.19255716020736e+001°)
2.79254384123738e+003	(-2.27568444782425e+001dB,-5.17967291178561e+001°)
2.80543363795175e+003	(-2.27016231007653e+001dB,-5.16677406515759e+001°)
2.81838293126449e+003	(-2.26463147801791e+001dB,-5.15386085910584e+001°)
2.83139199579942e+003	(-2.25909193283917e+001dB,-5.14093353378722e+001°)
2.84446110744795e+003	(-2.25354365604069e+001dB,-5.12799233071220e+001°)
2.85759054337499e+003	(-2.24798662943538e+001dB,-5.11503749272428e+001°)
2.87078058202473e+003	(-2.24242083515149e+001dB,-5.10206926397888e+001°)
2.88403150312665e+003	(-2.23684625563544e+001dB,-5.08908788992194e+001°)
2.89734358770136e+003	(-2.23126287365461e+001dB,-5.07609361726839e+001°)
2.91071711806665e+003	(-2.22567067230002e+001dB,-5.06308669398013e+001°)
2.92415237784338e+003	(-2.22006963498903e+001dB,-5.05006736924362e+001°)
2.93764965196157e+003	(-2.21445974546798e+001dB,-5.03703589344747e+001°)
2.95120922666643e+003	(-2.20884098781476e+001dB,-5.02399251815957e+001°)
2.96483138952438e+003	(-2.20321334644141e+001dB,-5.01093749610400e+001°)
2.97851642942923e+003	(-2.19757680609656e+001dB,-4.99787108113736e+001°)
2.99226463660823e+003	(-2.19193135186791e+001dB,-4.98479352822540e+001°)
3.00607630262827e+003	(-2.18627696918464e+001dB,-4.97170509341891e+001°)
3.01995172040206e+003	(-2.18061364381975e+001dB,-4.95860603382937e+001°)
3.03389118419431e+003	(-2.17494136189235e+001dB,-4.94549660760454e+001°)
3.04789498962803e+003	(-2.16926010986996e+001dB,-4.93237707390369e+001°)
3.06196343369072e+003	(-2.16356987457068e+001dB,-4.91924769287284e+001°)
3.07609681474075e+003	(-2.15787064316532e+001dB,-4.90610872561893e+001°)
3.09029543251364e+003	(-2.15216240317955e+001dB,-4.89296043418492e+001°)
3.10455958812840e+003	(-2.14644514249592e+001dB,-4.87980308152374e+001°)
3.11888958409398e+003	(-2.14071884935582e+001dB,-4.86663693147240e+001°)
3.13328572431563e+003	(-2.13498351236144e+001dB,-4.85346224872571e+001°)
3.14774831410136e+003	(-2.12923912047769e+001dB,-4.84027929881019e+001°)
3.16227766016843e+003	(-2.12348566303391e+001dB,-4.82708834805702e+001°)
3.17687407064982e+003	(-2.11772312972577e+001dB,-4.81388966357562e+001°)
3.19153785510081e+003	(-2.11195151061688e+001dB,-4.80068351322650e+001°)
3.20626932450551e+003	(-2.10617079614046e+001dB,-4.78747016559386e+001°)
3.22106879128348e+003	(-2.10038097710095e+001dB,-4.77424988995846e+001°)
3.23593656929633e+003	(-2.09458204467556e+001dB,-4.76102295627007e+001°)
3.25087297385439e+003	(-2.08877399041566e+001dB,-4.74778963511945e+001°)
3.26587832172341e+003	(-2.08295680624829e+001dB,-4.73455019771077e+001°)
3.28095293113124e+003	(-2.07713048447742e+001dB,-4.72130491583324e+001°)
3.29609712177463e+003	(-2.07129501778533e+001dB,-4.70805406183324e+001°)
3.31131121482596e+003	(-2.06545039923374e+001dB,-4.69479790858558e+001°)
3.32659553294010e+003	(-2.05959662226503e+001dB,-4.68153672946526e+001°)
3.34195040026120e+003	(-2.05373368070335e+001dB,-4.66827079831885e+001°)
3.35737614242960e+003	(-2.04786156875564e+001dB,-4.65500038943558e+001°)
3.37287308658874e+003	(-2.04198028101257e+001dB,-4.64172577751852e+001°)
3.38844156139208e+003	(-2.03608981244954e+001dB,-4.62844723765573e+001°)
3.40408189701006e+003	(-2.03019015842741e+001dB,-4.61516504529096e+001°)
3.41979442513714e+003	(-2.02428131469340e+001dB,-4.60187947619470e+001°)
3.43557947899880e+003	(-2.01836327738172e+001dB,-4.58859080643476e+001°)
3.45143739335862e+003	(-2.01243604301426e+001dB,-4.57529931234706e+001°)
3.46736850452537e+003	(-2.00649960850117e+001dB,-4.56200527050604e+001°)
3.48337315036018e+003	(-2.00055397114139e+001dB,-4.54870895769539e+001°)
3.49945167028363e+003	(-1.99459912862309e+001dB,-4.53541065087829e+001°)
