Freq.	V(fb5)/V(inm5)
1.00000000000000e+003	(-4.47220394831176e+001dB,-6.16093024697813e+001°)
1.00461579027840e+003	(-4.46729957398027e+001dB,-6.14985236339348e+001°)
1.00925288607668e+003	(-4.46238873703768e+001dB,-6.13874656617005e+001°)
1.01391138573668e+003	(-4.45747140498745e+001dB,-6.12761294991580e+001°)
1.01859138805412e+003	(-4.45254754536475e+001dB,-6.11645161113005e+001°)
1.02329299228075e+003	(-4.44761712573971e+001dB,-6.10526264821620e+001°)
1.02801629812647e+003	(-4.44268011372043e+001dB,-6.09404616148364e+001°)
1.03276140576140e+003	(-4.43773647695626e+001dB,-6.08280225315447e+001°)
1.03752841581801e+003	(-4.43278618314083e+001dB,-6.07153102736502e+001°)
1.04231742939330e+003	(-4.42782920001537e+001dB,-6.06023259017900e+001°)
1.04712854805090e+003	(-4.42286549537181e+001dB,-6.04890704958160e+001°)
1.05196187382322e+003	(-4.41789503705597e+001dB,-6.03755451549015e+001°)
1.05681750921366e+003	(-4.41291779297103e+001dB,-6.02617509975696e+001°)
1.06169555719873e+003	(-4.40793373108055e+001dB,-6.01476891617062e+001°)
1.06659612123026e+003	(-4.40294281941210e+001dB,-6.00333608046503e+001°)
1.07151930523761e+003	(-4.39794502606013e+001dB,-5.99187671031548e+001°)
1.07646521362984e+003	(-4.39294031918977e+001dB,-5.98039092534600e+001°)
1.08143395129794e+003	(-4.38792866703993e+001dB,-5.96887884713276e+001°)
1.08642562361707e+003	(-4.38291003792666e+001dB,-5.95734059920168e+001°)
1.09144033644876e+003	(-4.37788440024690e+001dB,-5.94577630703586e+001°)
1.09647819614319e+003	(-4.37285172248145e+001dB,-5.93418609807450e+001°)
1.10153930954142e+003	(-4.36781197319864e+001dB,-5.92257010171477e+001°)
1.10662378397767e+003	(-4.36276512105783e+001dB,-5.91092844931308e+001°)
1.11173172728159e+003	(-4.35771113481282e+001dB,-5.89926127418565e+001°)
1.11686324778056e+003	(-4.35264998331532e+001dB,-5.88756871161005e+001°)
1.12201845430197e+003	(-4.34758163551856e+001dB,-5.87585089882653e+001°)
1.12719745617551e+003	(-4.34250606048069e+001dB,-5.86410797503303e+001°)
1.13240036323556e+003	(-4.33742322736845e+001dB,-5.85234008139317e+001°)
1.13762728582343e+003	(-4.33233310546062e+001dB,-5.84054736102580e+001°)
1.14287833478977e+003	(-4.32723566415162e+001dB,-5.82872995901260e+001°)
1.14815362149688e+003	(-4.32213087295499e+001dB,-5.81688802239158e+001°)
1.15345325782109e+003	(-4.31701870150735e+001dB,-5.80502170015841e+001°)
1.15877735615513e+003	(-4.31189911957147e+001dB,-5.79313114326233e+001°)
1.16412602941049e+003	(-4.30677209704042e+001dB,-5.78121650460635e+001°)
1.16949939101987e+003	(-4.30163760394056e+001dB,-5.76927793904105e+001°)
1.17489755493953e+003	(-4.29649561043595e+001dB,-5.75731560336625e+001°)
1.18032063565173e+003	(-4.29134608683134e+001dB,-5.74532965632478e+001°)
1.18576874816716e+003	(-4.28618900357602e+001dB,-5.73332025859919e+001°)
1.19124200802738e+003	(-4.28102433126766e+001dB,-5.72128757280859e+001°)
1.19674053130725e+003	(-4.27585204065577e+001dB,-5.70923176350437e+001°)
1.20226443461742e+003	(-4.27067210264538e+001dB,-5.69715299716534e+001°)
1.20781383510678e+003	(-4.26548448830071e+001dB,-5.68505144219211e+001°)
1.21338885046498e+003	(-4.26028916884889e+001dB,-5.67292726890351e+001°)
1.21898959892487e+003	(-4.25508611568375e+001dB,-5.66078064953037e+001°)
1.22461619926505e+003	(-4.24987530036914e+001dB,-5.64861175820750e+001°)
1.23026877081238e+003	(-4.24465669464293e+001dB,-5.63642077097008e+001°)
1.23594743344451e+003	(-4.23943027042068e+001dB,-5.62420786574655e+001°)
1.24165230759241e+003	(-4.23419599979897e+001dB,-5.61197322234955e+001°)
1.24738351424295e+003	(-4.22895385505949e+001dB,-5.59971702247084e+001°)
1.25314117494142e+003	(-4.22370380867257e+001dB,-5.58743944967308e+001°)
1.25892541179417e+003	(-4.21844583330055e+001dB,-5.57514068937990e+001°)
1.26473634747115e+003	(-4.21317990180206e+001dB,-5.56282092887018e+001°)
1.27057410520855e+003	(-4.20790598723504e+001dB,-5.55048035726661e+001°)
1.27643880881135e+003	(-4.20262406286066e+001dB,-5.53811916552828e+001°)
1.28233058265603e+003	(-4.19733410214721e+001dB,-5.52573754644172e+001°)
1.28824955169314e+003	(-4.19203607877304e+001dB,-5.51333569460678e+001°)
1.29419584144999e+003	(-4.18672996663110e+001dB,-5.50091380643245e+001°)
1.30016957803329e+003	(-4.18141573983174e+001dB,-5.48847208012177e+001°)
1.30617088813185e+003	(-4.17609337270675e+001dB,-5.47601071566084e+001°)
1.31219989901921e+003	(-4.17076283981285e+001dB,-5.46352991481189e+001°)
1.31825673855641e+003	(-4.16542411593513e+001dB,-5.45102988109472e+001°)
1.32434153519467e+003	(-4.16007717609089e+001dB,-5.43851081978104e+001°)
1.33045441797810e+003	(-4.15472199553288e+001dB,-5.42597293787762e+001°)
1.33659551654645e+003	(-4.14935854975302e+001dB,-5.41341644411515e+001°)
1.34276496113787e+003	(-4.14398681448594e+001dB,-5.40084154893566e+001°)
1.34896288259166e+003	(-4.13860676571222e+001dB,-5.38824846447725e+001°)
1.35518941235104e+003	(-4.13321837966205e+001dB,-5.37563740456055e+001°)
1.36144468246596e+003	(-4.12782163281884e+001dB,-5.36300858467697e+001°)
1.36772882559585e+003	(-4.12241650192228e+001dB,-5.35036222197022e+001°)
1.37404197501252e+003	(-4.11700296397196e+001dB,-5.33769853522282e+001°)
1.38038426460289e+003	(-4.11158099623080e+001dB,-5.32501774484198e+001°)
1.38675582887189e+003	(-4.10615057622829e+001dB,-5.31232007284266e+001°)
1.39315680294531e+003	(-4.10071168176386e+001dB,-5.29960574283058e+001°)
1.39958732257262e+003	(-4.09526429091021e+001dB,-5.28687497998796e+001°)
1.40604752412992e+003	(-4.08980838201668e+001dB,-5.27412801105581e+001°)
1.41253754462276e+003	(-4.08434393371222e+001dB,-5.26136506431548e+001°)
1.41905752168910e+003	(-4.07887092490885e+001dB,-5.24858636957253e+001°)
1.42560759360219e+003	(-4.07338933480504e+001dB,-5.23579215813991e+001°)
1.43218789927355e+003	(-4.06789914288818e+001dB,-5.22298266281636e+001°)
1.43879857825585e+003	(-4.06240032893861e+001dB,-5.21015811787212e+001°)
1.44543977074593e+003	(-4.05689287303191e+001dB,-5.19731875902602e+001°)
1.45211161758775e+003	(-4.05137675554257e+001dB,-5.18446482342987e+001°)
1.45881426027536e+003	(-4.04585195714655e+001dB,-5.17159654964693e+001°)
1.46554784095592e+003	(-4.04031845882472e+001dB,-5.15871417763209e+001°)
1.47231250243273e+003	(-4.03477624186539e+001dB,-5.14581794871259e+001°)
1.47910838816821e+003	(-4.02922528786743e+001dB,-5.13290810556612e+001°)
1.48593564228701e+003	(-4.02366557874316e+001dB,-5.11998489220169e+001°)
1.49279440957900e+003	(-4.01809709672119e+001dB,-5.10704855393763e+001°)
1.49968483550238e+003	(-4.01251982434924e+001dB,-5.09409933738078e+001°)
1.50660706618675e+003	(-4.00693374449657e+001dB,-5.08113749040263e+001°)
1.51356124843622e+003	(-4.00133884035718e+001dB,-5.06816326212001e+001°)
1.52054752973250e+003	(-3.99573509545224e+001dB,-5.05517690287214e+001°)
1.52756605823808e+003	(-3.99012249363258e+001dB,-5.04217866419565e+001°)
1.53461698279930e+003	(-3.98450101908162e+001dB,-5.02916879880531e+001°)
1.54170045294957e+003	(-3.97887065631748e+001dB,-5.01614756056802e+001°)
1.54881661891249e+003	(-3.97323139019588e+001dB,-5.00311520448008e+001°)
1.55596563160508e+003	(-3.96758320591219e+001dB,-4.99007198664420e+001°)
1.56314764264096e+003	(-3.96192608900413e+001dB,-4.97701816424466e+001°)
1.57036280433356e+003	(-3.95626002535402e+001dB,-4.96395399552330e+001°)
1.57761126969936e+003	(-3.95058500119077e+001dB,-4.95087973975412e+001°)
1.58489319246112e+003	(-3.94490100309278e+001dB,-4.93779565722071e+001°)
1.59220872705118e+003	(-3.93920801798943e+001dB,-4.92470200918815e+001°)
1.59955802861468e+003	(-3.93350603316362e+001dB,-4.91159905788007e+001°)
1.60694125301289e+003	(-3.92779503625370e+001dB,-4.89848706645179e+001°)
1.61435855682650e+003	(-3.92207501525559e+001dB,-4.88536629896588e+001°)
1.62181009735894e+003	(-3.91634595852473e+001dB,-4.87223702036493e+001°)
1.62929603263973e+003	(-3.91060785477787e+001dB,-4.85909949644472e+001°)
1.63681652142782e+003	(-3.90486069309506e+001dB,-4.84595399382976e+001°)
1.64437172321494e+003	(-3.89910446292152e+001dB,-4.83280077994540e+001°)
1.65196179822903e+003	(-3.89333915406916e+001dB,-4.81964012299110e+001°)
1.65958690743757e+003	(-3.88756475671851e+001dB,-4.80647229191328e+001°)
1.66724721255107e+003	(-3.88178126142023e+001dB,-4.79329755637857e+001°)
1.67494287602645e+003	(-3.87598865909653e+001dB,-4.78011618674550e+001°)
1.68267406107048e+003	(-3.87018694104314e+001dB,-4.76692845403852e+001°)
1.69044093164328e+003	(-3.86437609893021e+001dB,-4.75373462991787e+001°)
1.69824365246176e+003	(-3.85855612480416e+001dB,-4.74053498665430e+001°)
1.70608238900314e+003	(-3.85272701108861e+001dB,-4.72732979709826e+001°)
1.71395730750844e+003	(-3.84688875058597e+001dB,-4.71411933465341e+001°)
1.72186857498602e+003	(-3.84104133647860e+001dB,-4.70090387324866e+001°)
1.72981635921511e+003	(-3.83518476232980e+001dB,-4.68768368730832e+001°)
1.73780082874939e+003	(-3.82931902208490e+001dB,-4.67445905172319e+001°)
1.74582215292052e+003	(-3.82344411007254e+001dB,-4.66123024182418e+001°)
1.75388050184177e+003	(-3.81756002100526e+001dB,-4.64799753335006e+001°)
1.76197604641164e+003	(-3.81166674998076e+001dB,-4.63476120242175e+001°)
1.77010895831743e+003	(-3.80576429248227e+001dB,-4.62152152551013e+001°)
1.77827941003894e+003	(-3.79985264437988e+001dB,-4.60827877941003e+001°)
1.78648757485206e+003	(-3.79393180193076e+001dB,-4.59503324120870e+001°)
1.79473362683254e+003	(-3.78800176178005e+001dB,-4.58178518825673e+001°)
1.80301774085958e+003	(-3.78206252096126e+001dB,-4.56853489813929e+001°)
1.81134009261962e+003	(-3.77611407689692e+001dB,-4.55528264864670e+001°)
1.81970085861000e+003	(-3.77015642739897e+001dB,-4.54202871774437e+001°)
1.82810021614276e+003	(-3.76418957066912e+001dB,-4.52877338354358e+001°)
1.83653834334836e+003	(-3.75821350529914e+001dB,-4.51551692427142e+001°)
1.84501541917949e+003	(-3.75222823027108e+001dB,-4.50225961824222e+001°)
1.85353162341483e+003	(-3.74623374495753e+001dB,-4.48900174382605e+001°)
1.86208713666288e+003	(-3.74023004912159e+001dB,-4.47574357942111e+001°)
1.87068214036582e+003	(-3.73421714291712e+001dB,-4.46248540342230e+001°)
1.87931681680328e+003	(-3.72819502688840e+001dB,-4.44922749419284e+001°)
1.88799134909631e+003	(-3.72216370197033e+001dB,-4.43597013003341e+001°)
1.89670592121116e+003	(-3.71612316948823e+001dB,-4.42271358915398e+001°)
1.90546071796326e+003	(-3.71007343115739e+001dB,-4.40945814964251e+001°)
1.91425592502110e+003	(-3.70401448908300e+001dB,-4.39620408943568e+001°)
1.92309172891017e+003	(-3.69794634575981e+001dB,-4.38295168629097e+001°)
1.93196831701694e+003	(-3.69186900407147e+001dB,-4.36970121775477e+001°)
1.94088587759280e+003	(-3.68578246729032e+001dB,-4.35645296113472e+001°)
1.94984459975806e+003	(-3.67968673907659e+001dB,-4.34320719346867e+001°)
1.95884467350601e+003	(-3.67358182347804e+001dB,-4.32996419149702e+001°)
1.96788628970686e+003	(-3.66746772492900e+001dB,-4.31672423163183e+001°)
1.97696964011188e+003	(-3.66134444824988e+001dB,-4.30348758992925e+001°)
1.98609491735739e+003	(-3.65521199864611e+001dB,-4.29025454205837e+001°)
1.99526231496890e+003	(-3.64907038170747e+001dB,-4.27702536327481e+001°)
2.00447202736518e+003	(-3.64291960340710e+001dB,-4.26380032838952e+001°)
2.01372424986241e+003	(-3.63675967010021e+001dB,-4.25057971174025e+001°)
2.02301917867829e+003	(-3.63059058852356e+001dB,-4.23736378716511e+001°)
2.03235701093624e+003	(-3.62441236579386e+001dB,-4.22415282797092e+001°)
2.04173794466955e+003	(-3.61822500940676e+001dB,-4.21094710690694e+001°)
2.05116217882559e+003	(-3.61202852723560e+001dB,-4.19774689613565e+001°)
2.06062991327002e+003	(-3.60582292752995e+001dB,-4.18455246720510e+001°)
2.07014134879106e+003	(-3.59960821891446e+001dB,-4.17136409102010e+001°)
2.07969668710372e+003	(-3.59338441038731e+001dB,-4.15818203781630e+001°)
2.08929613085406e+003	(-3.58715151131860e+001dB,-4.14500657712971e+001°)
2.09893988362355e+003	(-3.58090953144896e+001dB,-4.13183797777177e+001°)
2.10862814993331e+003	(-3.57465848088785e+001dB,-4.11867650780104e+001°)
2.11836113524852e+003	(-3.56839837011184e+001dB,-4.10552243449554e+001°)
2.12813904598273e+003	(-3.56212920996300e+001dB,-4.09237602432712e+001°)
2.13796208950225e+003	(-3.55585101164696e+001dB,-4.07923754293364e+001°)
2.14783047413056e+003	(-3.54956378673117e+001dB,-4.06610725509303e+001°)
2.15774440915269e+003	(-3.54326754714300e+001dB,-4.05298542469727e+001°)
2.16770410481972e+003	(-3.53696230516760e+001dB,-4.03987231472518e+001°)
2.17770977235318e+003	(-3.53064807344618e+001dB,-4.02676818721796e+001°)
2.18776162394958e+003	(-3.52432486497370e+001dB,-4.01367330325317e+001°)
2.19785987278485e+003	(-3.51799269309674e+001dB,-4.00058792291823e+001°)
2.20800473301892e+003	(-3.51165157151155e+001dB,-3.98751230528710e+001°)
2.21819641980024e+003	(-3.50530151426165e+001dB,-3.97444670839450e+001°)
2.22843514927033e+003	(-3.49894253573551e+001dB,-3.96139138921073e+001°)
2.23872113856836e+003	(-3.49257465066427e+001dB,-3.94834660361836e+001°)
2.24905460583581e+003	(-3.48619787411950e+001dB,-3.93531260638735e+001°)
2.25943577022100e+003	(-3.47981222151060e+001dB,-3.92228965115206e+001°)
2.26986485188385e+003	(-3.47341770858234e+001dB,-3.90927799038672e+001°)
2.28034207200044e+003	(-3.46701435141246e+001dB,-3.89627787538291e+001°)
2.29086765276780e+003	(-3.46060216640883e+001dB,-3.88328955622553e+001°)
2.30144181740853e+003	(-3.45418117030729e+001dB,-3.87031328177192e+001°)
2.31206479017562e+003	(-3.44775138016847e+001dB,-3.85734929962723e+001°)
2.32273679635713e+003	(-3.44131281337555e+001dB,-3.84439785612454e+001°)
2.33345806228103e+003	(-3.43486548763110e+001dB,-3.83145919630113e+001°)
2.34422881531995e+003	(-3.42840942095468e+001dB,-3.81853356387777e+001°)
2.35504928389604e+003	(-3.42194463167967e+001dB,-3.80562120123790e+001°)
2.36591969748579e+003	(-3.41547113845070e+001dB,-3.79272234940608e+001°)
2.37684028662490e+003	(-3.40898896022050e+001dB,-3.77983724802804e+001°)
2.38781128291321e+003	(-3.40249811624707e+001dB,-3.76696613534960e+001°)
2.39883291901952e+003	(-3.39599862609072e+001dB,-3.75410924819743e+001°)
2.40990542868662e+003	(-3.38949050961102e+001dB,-3.74126682195952e+001°)
2.42102904673621e+003	(-3.38297378696366e+001dB,-3.72843909056523e+001°)
2.43220400907384e+003	(-3.37644847859752e+001dB,-3.71562628646700e+001°)
2.44343055269400e+003	(-3.36991460525142e+001dB,-3.70282864062154e+001°)
2.45470891568506e+003	(-3.36337218795101e+001dB,-3.69004638247134e+001°)
2.46603933723437e+003	(-3.35682124800564e+001dB,-3.67727973992722e+001°)
2.47742205763332e+003	(-3.35026180700501e+001dB,-3.66452893935032e+001°)
2.48885731828242e+003	(-3.34369388681606e+001dB,-3.65179420553517e+001°)
2.50034536169646e+003	(-3.33711750957958e+001dB,-3.63907576169256e+001°)
2.51188643150961e+003	(-3.33053269770700e+001dB,-3.62637382943320e+001°)
2.52348077248061e+003	(-3.32393947387702e+001dB,-3.61368862875143e+001°)
2.53512863049794e+003	(-3.31733786103228e+001dB,-3.60102037800979e+001°)
2.54683025258507e+003	(-3.31072788237584e+001dB,-3.58836929392232e+001°)
2.55858588690568e+003	(-3.30410956136806e+001dB,-3.57573559154151e+001°)
2.57039578276890e+003	(-3.29748292172290e+001dB,-3.56311948424151e+001°)
2.58226019063463e+003	(-3.29084798740464e+001dB,-3.55052118370505e+001°)
2.59417936211885e+003	(-3.28420478262429e+001dB,-3.53794089990874e+001°)
2.60615354999893e+003	(-3.27755333183623e+001dB,-3.52537884110977e+001°)
2.61818300821902e+003	(-3.27089365973461e+001dB,-3.51283521383226e+001°)
2.63026799189542e+003	(-3.26422579124985e+001dB,-3.50031022285489e+001°)
2.64240875732198e+003	(-3.25754975154512e+001dB,-3.48780407119744e+001°)
2.65460556197557e+003	(-3.25086556601276e+001dB,-3.47531696010958e+001°)
2.66685866452151e+003	(-3.24417326027074e+001dB,-3.46284908905830e+001°)
2.67916832481907e+003	(-3.23747286015902e+001dB,-3.45040065571657e+001°)
2.69153480392695e+003	(-3.23076439173602e+001dB,-3.43797185595252e+001°)
2.70395836410888e+003	(-3.22404788127497e+001dB,-3.42556288381827e+001°)
2.71643926883912e+003	(-3.21732335526028e+001dB,-3.41317393153984e+001°)
2.72897778280808e+003	(-3.21059084038400e+001dB,-3.40080518950711e+001°)
2.74157417192792e+003	(-3.20385036354200e+001dB,-3.38845684626398e+001°)
2.75422870333820e+003	(-3.19710195183054e+001dB,-3.37612908849914e+001°)
2.76694164541155e+003	(-3.19034563254245e+001dB,-3.36382210103719e+001°)
2.77971326775933e+003	(-3.18358143316357e+001dB,-3.35153606683008e+001°)
2.79254384123738e+003	(-3.17680938136905e+001dB,-3.33927116694880e+001°)
2.80543363795175e+003	(-3.17002950501966e+001dB,-3.32702758057569e+001°)
2.81838293126449e+003	(-3.16324183215818e+001dB,-3.31480548499685e+001°)
2.83139199579942e+003	(-3.15644639100562e+001dB,-3.30260505559480e+001°)
2.84446110744795e+003	(-3.14964320995767e+001dB,-3.29042646584201e+001°)
2.85759054337499e+003	(-3.14283231758099e+001dB,-3.27826988729449e+001°)
2.87078058202473e+003	(-3.13601374260945e+001dB,-3.26613548958546e+001°)
2.88403150312665e+003	(-3.12918751394055e+001dB,-3.25402344041988e+001°)
2.89734358770136e+003	(-3.12235366063170e+001dB,-3.24193390556875e+001°)
2.91071711806665e+003	(-3.11551221189659e+001dB,-3.22986704886458e+001°)
2.92415237784338e+003	(-3.10866319710155e+001dB,-3.21782303219642e+001°)
2.93764965196157e+003	(-3.10180664576169e+001dB,-3.20580201550507e+001°)
2.95120922666643e+003	(-3.09494258753754e+001dB,-3.19380415678022e+001°)
2.96483138952438e+003	(-3.08807105223124e+001dB,-3.18182961205595e+001°)
2.97851642942923e+003	(-3.08119206978281e+001dB,-3.16987853540733e+001°)
2.99226463660823e+003	(-3.07430567026679e+001dB,-3.15795107894817e+001°)
3.00607630262827e+003	(-3.06741188388829e+001dB,-3.14604739282750e+001°)
3.01995172040206e+003	(-3.06051074097966e+001dB,-3.13416762522811e+001°)
3.03389118419431e+003	(-3.05360227199663e+001dB,-3.12231192236381e+001°)
3.04789498962803e+003	(-3.04668650751495e+001dB,-3.11048042847819e+001°)
3.06196343369072e+003	(-3.03976347822663e+001dB,-3.09867328584319e+001°)
3.07609681474075e+003	(-3.03283321493648e+001dB,-3.08689063475822e+001°)
3.09029543251364e+003	(-3.02589574855851e+001dB,-3.07513261354917e+001°)
3.10455958812840e+003	(-3.01895111011232e+001dB,-3.06339935856807e+001°)
3.11888958409398e+003	(-3.01199933071970e+001dB,-3.05169100419321e+001°)
3.13328572431563e+003	(-3.00504044160104e+001dB,-3.04000768282920e+001°)
3.14774831410136e+003	(-2.99807447407183e+001dB,-3.02834952490742e+001°)
3.16227766016843e+003	(-2.99110145953922e+001dB,-3.01671665888725e+001°)
3.17687407064982e+003	(-2.98412142949843e+001dB,-3.00510921125633e+001°)
3.19153785510081e+003	(-2.97713441552954e+001dB,-2.99352730653309e+001°)
3.20626932450551e+003	(-2.97014044929380e+001dB,-2.98197106726773e+001°)
3.22106879128348e+003	(-2.96313956253041e+001dB,-2.97044061404417e+001°)
3.23593656929633e+003	(-2.95613178705300e+001dB,-2.95893606548277e+001°)
3.25087297385439e+003	(-2.94911715474637e+001dB,-2.94745753824259e+001°)
3.26587832172341e+003	(-2.94209569756302e+001dB,-2.93600514702410e+001°)
3.28095293113124e+003	(-2.93506744751993e+001dB,-2.92457900457263e+001°)
3.29609712177463e+003	(-2.92803243669524e+001dB,-2.91317922168160e+001°)
3.31131121482596e+003	(-2.92099069722481e+001dB,-2.90180590719583e+001°)
3.32659553294010e+003	(-2.91394226129921e+001dB,-2.89045916801596e+001°)
3.34195040026120e+003	(-2.90688716116027e+001dB,-2.87913910910228e+001°)
3.35737614242960e+003	(-2.89982542909796e+001dB,-2.86784583347912e+001°)
3.37287308658874e+003	(-2.89275709744716e+001dB,-2.85657944223963e+001°)
3.38844156139208e+003	(-2.88568219858457e+001dB,-2.84534003455080e+001°)
3.40408189701006e+003	(-2.87860076492540e+001dB,-2.83412770765806e+001°)
3.41979442513714e+003	(-2.87151282892046e+001dB,-2.82294255689130e+001°)
3.43557947899880e+003	(-2.86441842305291e+001dB,-2.81178467567010e+001°)
3.45143739335862e+003	(-2.85731757983527e+001dB,-2.80065415550980e+001°)
3.46736850452537e+003	(-2.85021033180631e+001dB,-2.78955108602711e+001°)
3.48337315036018e+003	(-2.84309671152816e+001dB,-2.77847555494702e+001°)
3.49945167028363e+003	(-2.83597675158319e+001dB,-2.76742764810893e+001°)
