Freq.	V(out)
1.00000000000000e+003	(-2.94227703023886e+001dB,1.23861044536235e+002°)
1.00230523807790e+003	(-2.93912084271092e+001dB,1.23882828944490e+002°)
1.00461579027840e+003	(-2.93596295185186e+001dB,1.23904483485447e+002°)
1.00693166885180e+003	(-2.93280336218247e+001dB,1.23926007684385e+002°)
1.00925288607668e+003	(-2.92964207824995e+001dB,1.23947401067296e+002°)
1.01157945425990e+003	(-2.92647910462788e+001dB,1.23968663160887e+002°)
1.01391138573668e+003	(-2.92331444591615e+001dB,1.23989793492586e+002°)
1.01624869287070e+003	(-2.92014810674089e+001dB,1.24010791590555e+002°)
1.01859138805412e+003	(-2.91698009175438e+001dB,1.24031656983688e+002°)
1.02093948370768e+003	(-2.91381040563502e+001dB,1.24052389201625e+002°)
1.02329299228075e+003	(-2.91063905308722e+001dB,1.24072987774752e+002°)
1.02565192625141e+003	(-2.90746603884137e+001dB,1.24093452234211e+002°)
1.02801629812647e+003	(-2.90429136765372e+001dB,1.24113782111907e+002°)
1.03038612044162e+003	(-2.90111504430636e+001dB,1.24133976940510e+002°)
1.03276140576140e+003	(-2.89793707360711e+001dB,1.24154036253465e+002°)
1.03514216667934e+003	(-2.89475746038949e+001dB,1.24173959584997e+002°)
1.03752841581801e+003	(-2.89157620951259e+001dB,1.24193746470116e+002°)
1.03992016582906e+003	(-2.88839332586106e+001dB,1.24213396444625e+002°)
1.04231742939330e+003	(-2.88520881434499e+001dB,1.24232909045124e+002°)
1.04472021922080e+003	(-2.88202267989986e+001dB,1.24252283809019e+002°)
1.04712854805090e+003	(-2.87883492748647e+001dB,1.24271520274522e+002°)
1.04954242865232e+003	(-2.87564556209084e+001dB,1.24290617980663e+002°)
1.05196187382322e+003	(-2.87245458872418e+001dB,1.24309576467295e+002°)
1.05438689639126e+003	(-2.86926201242278e+001dB,1.24328395275094e+002°)
1.05681750921366e+003	(-2.86606783824793e+001dB,1.24347073945572e+002°)
1.05925372517729e+003	(-2.86287207128589e+001dB,1.24365612021079e+002°)
1.06169555719872e+003	(-2.85967471664777e+001dB,1.24384009044808e+002°)
1.06414301822431e+003	(-2.85647577946947e+001dB,1.24402264560804e+002°)
1.06659612123026e+003	(-2.85327526491162e+001dB,1.24420378113965e+002°)
1.06905487922266e+003	(-2.85007317815947e+001dB,1.24438349250050e+002°)
1.07151930523761e+003	(-2.84686952442285e+001dB,1.24456177515686e+002°)
1.07398941234124e+003	(-2.84366430893607e+001dB,1.24473862458369e+002°)
1.07646521362983e+003	(-2.84045753695786e+001dB,1.24491403626475e+002°)
1.07894672222983e+003	(-2.83724921377128e+001dB,1.24508800569260e+002°)
1.08143395129794e+003	(-2.83403934468364e+001dB,1.24526052836867e+002°)
1.08392691402120e+003	(-2.83082793502644e+001dB,1.24543159980335e+002°)
1.08642562361706e+003	(-2.82761499015528e+001dB,1.24560121551597e+002°)
1.08893009333343e+003	(-2.82440051544979e+001dB,1.24576937103490e+002°)
1.09144033644875e+003	(-2.82118451631354e+001dB,1.24593606189762e+002°)
1.09395636627209e+003	(-2.81796699817397e+001dB,1.24610128365071e+002°)
1.09647819614318e+003	(-2.81474796648233e+001dB,1.24626503184993e+002°)
1.09900583943252e+003	(-2.81152742671355e+001dB,1.24642730206029e+002°)
1.10153930954141e+003	(-2.80830538436622e+001dB,1.24658808985607e+002°)
1.10407861990207e+003	(-2.80508184496248e+001dB,1.24674739082088e+002°)
1.10662378397766e+003	(-2.80185681404795e+001dB,1.24690520054769e+002°)
1.10917481526240e+003	(-2.79863029719165e+001dB,1.24706151463891e+002°)
1.11173172728159e+003	(-2.79540229998591e+001dB,1.24721632870643e+002°)
1.11429453359173e+003	(-2.79217282804630e+001dB,1.24736963837164e+002°)
1.11686324778056e+003	(-2.78894188701157e+001dB,1.24752143926548e+002°)
1.11943788346715e+003	(-2.78570948254353e+001dB,1.24767172702854e+002°)
1.12201845430196e+003	(-2.78247562032701e+001dB,1.24782049731103e+002°)
1.12460497396692e+003	(-2.77924030606974e+001dB,1.24796774577288e+002°)
1.12719745617551e+003	(-2.77600354550232e+001dB,1.24811346808374e+002°)
1.12979591467279e+003	(-2.77276534437809e+001dB,1.24825765992308e+002°)
1.13240036323555e+003	(-2.76952570847310e+001dB,1.24840031698018e+002°)
1.13501081567231e+003	(-2.76628464358597e+001dB,1.24854143495419e+002°)
1.13762728582343e+003	(-2.76304215553786e+001dB,1.24868100955421e+002°)
1.14024978756117e+003	(-2.75979825017239e+001dB,1.24881903649925e+002°)
1.14287833478977e+003	(-2.75655293335551e+001dB,1.24895551151837e+002°)
1.14551294144553e+003	(-2.75330621097549e+001dB,1.24909043035065e+002°)
1.14815362149688e+003	(-2.75005808894276e+001dB,1.24922378874524e+002°)
1.15080038894443e+003	(-2.74680857318991e+001dB,1.24935558246144e+002°)
1.15345325782109e+003	(-2.74355766967156e+001dB,1.24948580726871e+002°)
1.15611224219210e+003	(-2.74030538436429e+001dB,1.24961445894669e+002°)
1.15877735615512e+003	(-2.73705172326657e+001dB,1.24974153328531e+002°)
1.16144861384034e+003	(-2.73379669239865e+001dB,1.24986702608473e+002°)
1.16412602941049e+003	(-2.73054029780252e+001dB,1.24999093315546e+002°)
1.16680961706096e+003	(-2.72728254554182e+001dB,1.25011325031837e+002°)
1.16949939101987e+003	(-2.72402344170174e+001dB,1.25023397340471e+002°)
1.17219536554813e+003	(-2.72076299238894e+001dB,1.25035309825618e+002°)
1.17489755493953e+003	(-2.71750120373150e+001dB,1.25047062072494e+002°)
1.17760597352080e+003	(-2.71423808187881e+001dB,1.25058653667365e+002°)
1.18032063565173e+003	(-2.71097363300150e+001dB,1.25070084197553e+002°)
1.18304155572516e+003	(-2.70770786329138e+001dB,1.25081353251436e+002°)
1.18576874816716e+003	(-2.70444077896132e+001dB,1.25092460418454e+002°)
1.18850222743701e+003	(-2.70117238624518e+001dB,1.25103405289111e+002°)
1.19124200802737e+003	(-2.69790269139778e+001dB,1.25114187454981e+002°)
1.19398810446427e+003	(-2.69463170069475e+001dB,1.25124806508708e+002°)
1.19674053130724e+003	(-2.69135942043249e+001dB,1.25135262044010e+002°)
1.19949930314937e+003	(-2.68808585692808e+001dB,1.25145553655685e+002°)
1.20226443461741e+003	(-2.68481101651920e+001dB,1.25155680939611e+002°)
1.20503594037179e+003	(-2.68153490556408e+001dB,1.25165643492752e+002°)
1.20781383510678e+003	(-2.67825753044135e+001dB,1.25175440913158e+002°)
1.21059813355048e+003	(-2.67497889755005e+001dB,1.25185072799972e+002°)
1.21338885046497e+003	(-2.67169901330946e+001dB,1.25194538753429e+002°)
1.21618600064636e+003	(-2.66841788415909e+001dB,1.25203838374863e+002°)
1.21898959892486e+003	(-2.66513551655860e+001dB,1.25212971266706e+002°)
1.22179966016487e+003	(-2.66185191698766e+001dB,1.25221937032496e+002°)
1.22461619926504e+003	(-2.65856709194592e+001dB,1.25230735276874e+002°)
1.22743923115840e+003	(-2.65528104795295e+001dB,1.25239365605592e+002°)
1.23026877081238e+003	(-2.65199379154809e+001dB,1.25247827625513e+002°)
1.23310483322890e+003	(-2.64870532929046e+001dB,1.25256120944615e+002°)
1.23594743344450e+003	(-2.64541566775881e+001dB,1.25264245171995e+002°)
1.23879658653036e+003	(-2.64212481355147e+001dB,1.25272199917866e+002°)
1.24165230759241e+003	(-2.63883277328629e+001dB,1.25279984793569e+002°)
1.24451461177138e+003	(-2.63553955360053e+001dB,1.25287599411567e+002°)
1.24738351424294e+003	(-2.63224516115080e+001dB,1.25295043385454e+002°)
1.25025903021771e+003	(-2.62894960261298e+001dB,1.25302316329954e+002°)
1.25314117494141e+003	(-2.62565288468216e+001dB,1.25309417860923e+002°)
1.25602996369487e+003	(-2.62235501407253e+001dB,1.25316347595355e+002°)
1.25892541179416e+003	(-2.61905599751733e+001dB,1.25323105151382e+002°)
1.26182753459066e+003	(-2.61575584176874e+001dB,1.25329690148278e+002°)
1.26473634747115e+003	(-2.61245455359787e+001dB,1.25336102206458e+002°)
1.26765186585784e+003	(-2.60915213979462e+001dB,1.25342340947487e+002°)
1.27057410520854e+003	(-2.60584860716761e+001dB,1.25348405994075e+002°)
1.27350308101666e+003	(-2.60254396254416e+001dB,1.25354296970084e+002°)
1.27643880881134e+003	(-2.59923821277014e+001dB,1.25360013500529e+002°)
1.27938130415752e+003	(-2.59593136470996e+001dB,1.25365555211580e+002°)
1.28233058265601e+003	(-2.59262342524645e+001dB,1.25370921730564e+002°)
1.28528665994361e+003	(-2.58931440128080e+001dB,1.25376112685970e+002°)
1.28824955169313e+003	(-2.58600429973251e+001dB,1.25381127707447e+002°)
1.29121927361353e+003	(-2.58269312753926e+001dB,1.25385966425808e+002°)
1.29419584144998e+003	(-2.57938089165690e+001dB,1.25390628473034e+002°)
1.29717927098395e+003	(-2.57606759905933e+001dB,1.25395113482273e+002°)
1.30016957803328e+003	(-2.57275325673846e+001dB,1.25399421087843e+002°)
1.30316677845229e+003	(-2.56943787170410e+001dB,1.25403550925236e+002°)
1.30617088813183e+003	(-2.56612145098393e+001dB,1.25407502631118e+002°)
1.30918192299940e+003	(-2.56280400162339e+001dB,1.25411275843330e+002°)
1.31219989901920e+003	(-2.55948553068562e+001dB,1.25414870200894e+002°)
1.31522483219223e+003	(-2.55616604525141e+001dB,1.25418285344010e+002°)
1.31825673855640e+003	(-2.55284555241910e+001dB,1.25421520914061e+002°)
1.32129563418657e+003	(-2.54952405930452e+001dB,1.25424576553615e+002°)
1.32434153519466e+003	(-2.54620157304092e+001dB,1.25427451906424e+002°)
1.32739445772973e+003	(-2.54287810077889e+001dB,1.25430146617430e+002°)
1.33045441797808e+003	(-2.53955364968631e+001dB,1.25432660332763e+002°)
1.33352143216332e+003	(-2.53622822694826e+001dB,1.25434992699745e+002°)
1.33659551654643e+003	(-2.53290183976695e+001dB,1.25437143366890e+002°)
1.33967668742593e+003	(-2.52957449536167e+001dB,1.25439111983909e+002°)
1.34276496113786e+003	(-2.52624620096871e+001dB,1.25440898201706e+002°)
1.34586035405594e+003	(-2.52291696384128e+001dB,1.25442501672387e+002°)
1.34896288259165e+003	(-2.51958679124946e+001dB,1.25443922049254e+002°)
1.35207256319427e+003	(-2.51625569048012e+001dB,1.25445158986813e+002°)
1.35518941235103e+003	(-2.51292366883686e+001dB,1.25446212140772e+002°)
1.35831344658715e+003	(-2.50959073363992e+001dB,1.25447081168043e+002°)
1.36144468246594e+003	(-2.50625689222616e+001dB,1.25447765726744e+002°)
1.36458313658892e+003	(-2.50292215194894e+001dB,1.25448265476202e+002°)
1.36772882559584e+003	(-2.49958652017809e+001dB,1.25448580076952e+002°)
1.37088176616484e+003	(-2.49625000429982e+001dB,1.25448709190738e+002°)
1.37404197501251e+003	(-2.49291261171669e+001dB,1.25448652480519e+002°)
1.37720946889394e+003	(-2.48957434984750e+001dB,1.25448409610465e+002°)
1.38038426460288e+003	(-2.48623522612724e+001dB,1.25447980245962e+002°)
1.38356637897177e+003	(-2.48289524800705e+001dB,1.25447364053612e+002°)
1.38675582887188e+003	(-2.47955442295411e+001dB,1.25446560701234e+002°)
1.38995263121334e+003	(-2.47621275845164e+001dB,1.25445569857866e+002°)
1.39315680294529e+003	(-2.47287026199875e+001dB,1.25444391193767e+002°)
1.39636836105593e+003	(-2.46952694111047e+001dB,1.25443024380417e+002°)
1.39958732257261e+003	(-2.46618280331761e+001dB,1.25441469090518e+002°)
1.40281370456195e+003	(-2.46283785616675e+001dB,1.25439724997999e+002°)
1.40604752412990e+003	(-2.45949210722013e+001dB,1.25437791778010e+002°)
1.40928879842186e+003	(-2.45614556405565e+001dB,1.25435669106933e+002°)
1.41253754462274e+003	(-2.45279823426674e+001dB,1.25433356662372e+002°)
1.41579377995707e+003	(-2.44945012546235e+001dB,1.25430854123164e+002°)
1.41905752168908e+003	(-2.44610124526687e+001dB,1.25428161169376e+002°)
1.42232878712281e+003	(-2.44275160132008e+001dB,1.25425277482305e+002°)
1.42560759360218e+003	(-2.43940120127704e+001dB,1.25422202744482e+002°)
1.42889395851109e+003	(-2.43605005280813e+001dB,1.25418936639670e+002°)
1.43218789927353e+003	(-2.43269816359888e+001dB,1.25415478852868e+002°)
1.43548943335364e+003	(-2.42934554134999e+001dB,1.25411829070311e+002°)
1.43879857825583e+003	(-2.42599219377724e+001dB,1.25407986979472e+002°)
1.44211535152486e+003	(-2.42263812861143e+001dB,1.25403952269060e+002°)
1.44543977074592e+003	(-2.41928335359834e+001dB,1.25399724629024e+002°)
1.44877185354475e+003	(-2.41592787649864e+001dB,1.25395303750556e+002°)
1.45211161758773e+003	(-2.41257170508787e+001dB,1.25390689326085e+002°)
1.45545908058195e+003	(-2.40921484715636e+001dB,1.25385881049286e+002°)
1.45881426027534e+003	(-2.40585731050918e+001dB,1.25380878615076e+002°)
1.46217717445671e+003	(-2.40249910296610e+001dB,1.25375681719616e+002°)
1.46554784095590e+003	(-2.39914023236148e+001dB,1.25370290060313e+002°)
1.46892627764385e+003	(-2.39578070654430e+001dB,1.25364703335822e+002°)
1.47231250243271e+003	(-2.39242053337804e+001dB,1.25358921246043e+002°)
1.47570653327588e+003	(-2.38905972074062e+001dB,1.25352943492126e+002°)
1.47910838816819e+003	(-2.38569827652441e+001dB,1.25346769776471e+002°)
1.48251808514594e+003	(-2.38233620863611e+001dB,1.25340399802726e+002°)
1.48593564228699e+003	(-2.37897352499674e+001dB,1.25333833275793e+002°)
1.48936107771090e+003	(-2.37561023354156e+001dB,1.25327069901825e+002°)
1.49279440957898e+003	(-2.37224634222004e+001dB,1.25320109388229e+002°)
1.49623565609442e+003	(-2.36888185899578e+001dB,1.25312951443665e+002°)
1.49968483550236e+003	(-2.36551679184648e+001dB,1.25305595778050e+002°)
1.50314196609001e+003	(-2.36215114876390e+001dB,1.25298042102554e+002°)
1.50660706618673e+003	(-2.35878493775376e+001dB,1.25290290129608e+002°)
1.51008015416413e+003	(-2.35541816683576e+001dB,1.25282339572899e+002°)
1.51356124843619e+003	(-2.35205084404345e+001dB,1.25274190147371e+002°)
1.51705036745932e+003	(-2.34868297742426e+001dB,1.25265841569230e+002°)
1.52054752973248e+003	(-2.34531457503938e+001dB,1.25257293555943e+002°)
1.52405275379728e+003	(-2.34194564496378e+001dB,1.25248545826236e+002°)
1.52756605823806e+003	(-2.33857619528609e+001dB,1.25239598100100e+002°)
1.53108746168201e+003	(-2.33520623410860e+001dB,1.25230450098788e+002°)
1.53461698279928e+003	(-2.33183576954719e+001dB,1.25221101544817e+002°)
1.53815464030302e+003	(-2.32846480973132e+001dB,1.25211552161969e+002°)
1.54170045294954e+003	(-2.32509336280393e+001dB,1.25201801675294e+002°)
1.54525443953840e+003	(-2.32172143692141e+001dB,1.25191849811105e+002°)
1.54881661891247e+003	(-2.31834904025357e+001dB,1.25181696296987e+002°)
1.55238700995807e+003	(-2.31497618098360e+001dB,1.25171340861790e+002°)
1.55596563160506e+003	(-2.31160286730798e+001dB,1.25160783235635e+002°)
1.55955250282694e+003	(-2.30822910743650e+001dB,1.25150023149914e+002°)
1.56314764264094e+003	(-2.30485490959215e+001dB,1.25139060337289e+002°)
1.56675107010813e+003	(-2.30148028201111e+001dB,1.25127894531695e+002°)
1.57036280433354e+003	(-2.29810523294271e+001dB,1.25116525468338e+002°)
1.57398286446620e+003	(-2.29472977064937e+001dB,1.25104952883702e+002°)
1.57761126969933e+003	(-2.29135390340657e+001dB,1.25093176515541e+002°)
1.58124803927037e+003	(-2.28797763950279e+001dB,1.25081196102887e+002°)
1.58489319246110e+003	(-2.28460098723948e+001dB,1.25069011386050e+002°)
1.58854674859776e+003	(-2.28122395493103e+001dB,1.25056622106614e+002°)
1.59220872705115e+003	(-2.27784655090470e+001dB,1.25044028007444e+002°)
1.59587914723672e+003	(-2.27446878350059e+001dB,1.25031228832684e+002°)
1.59955802861465e+003	(-2.27109066107161e+001dB,1.25018224327756e+002°)
1.60324539069002e+003	(-2.26771219198342e+001dB,1.25005014239366e+002°)
1.60694125301286e+003	(-2.26433338461442e+001dB,1.24991598315499e+002°)
1.61064563517825e+003	(-2.26095424735567e+001dB,1.24977976305426e+002°)
1.61435855682647e+003	(-2.25757478861087e+001dB,1.24964147959699e+002°)
1.61808003764305e+003	(-2.25419501679632e+001dB,1.24950113030157e+002°)
1.62181009735891e+003	(-2.25081494034090e+001dB,1.24935871269923e+002°)
1.62554875575047e+003	(-2.24743456768599e+001dB,1.24921422433408e+002°)
1.62929603263970e+003	(-2.24405390728546e+001dB,1.24906766276309e+002°)
1.63305194789432e+003	(-2.24067296760564e+001dB,1.24891902555613e+002°)
1.63681652142779e+003	(-2.23729175712524e+001dB,1.24876831029596e+002°)
1.64058977319952e+003	(-2.23391028433537e+001dB,1.24861551457826e+002°)
1.64437172321491e+003	(-2.23052855773946e+001dB,1.24846063601158e+002°)
1.64816239152549e+003	(-2.22714658585323e+001dB,1.24830367221746e+002°)
1.65196179822900e+003	(-2.22376437720467e+001dB,1.24814462083031e+002°)
1.65576996346951e+003	(-2.22038194033400e+001dB,1.24798347949754e+002°)
1.65958690743754e+003	(-2.21699928379361e+001dB,1.24782024587948e+002°)
1.66341265037015e+003	(-2.21361641614805e+001dB,1.24765491764943e+002°)
1.66724721255104e+003	(-2.21023334597401e+001dB,1.24748749249369e+002°)
1.67109061431069e+003	(-2.20685008186023e+001dB,1.24731796811152e+002°)
1.67494287602642e+003	(-2.20346663240753e+001dB,1.24714634221519e+002°)
1.67880401812254e+003	(-2.20008300622871e+001dB,1.24697261252998e+002°)
1.68267406107045e+003	(-2.19669921194857e+001dB,1.24679677679418e+002°)
1.68655302538872e+003	(-2.19331525820386e+001dB,1.24661883275912e+002°)
1.69044093164324e+003	(-2.18993115364324e+001dB,1.24643877818917e+002°)
1.69433780044731e+003	(-2.18654690692724e+001dB,1.24625661086174e+002°)
1.69824365246172e+003	(-2.18316252672826e+001dB,1.24607232856733e+002°)
1.70215850839493e+003	(-2.17977802173049e+001dB,1.24588592910949e+002°)
1.70608238900310e+003	(-2.17639340062992e+001dB,1.24569741030487e+002°)
1.71001531509027e+003	(-2.17300867213428e+001dB,1.24550676998321e+002°)
1.71395730750840e+003	(-2.16962384496303e+001dB,1.24531400598739e+002°)
1.71790838715757e+003	(-2.16623892784732e+001dB,1.24511911617338e+002°)
1.72186857498598e+003	(-2.16285392952994e+001dB,1.24492209841030e+002°)
1.72583789199018e+003	(-2.15946885876533e+001dB,1.24472295058042e+002°)
1.72981635921508e+003	(-2.15608372431949e+001dB,1.24452167057917e+002°)
1.73380399775412e+003	(-2.15269853497003e+001dB,1.24431825631515e+002°)
1.73780082874935e+003	(-2.14931329950607e+001dB,1.24411270571014e+002°)
1.74180687339159e+003	(-2.14592802672822e+001dB,1.24390501669915e+002°)
1.74582215292048e+003	(-2.14254272544861e+001dB,1.24369518723037e+002°)
1.74984668862463e+003	(-2.13915740449078e+001dB,1.24348321526524e+002°)
1.75388050184174e+003	(-2.13577207268970e+001dB,1.24326909877842e+002°)
1.75792361395867e+003	(-2.13238673889173e+001dB,1.24305283575783e+002°)
1.76197604641161e+003	(-2.12900141195459e+001dB,1.24283442420467e+002°)
1.76603782068614e+003	(-2.12561610074733e+001dB,1.24261386213342e+002°)
1.77010895831740e+003	(-2.12223081415030e+001dB,1.24239114757185e+002°)
1.77418948089014e+003	(-2.11884556105513e+001dB,1.24216627856104e+002°)
1.77827941003890e+003	(-2.11546035036470e+001dB,1.24193925315539e+002°)
1.78237876744807e+003	(-2.11207519099312e+001dB,1.24171006942267e+002°)
1.78648757485203e+003	(-2.10869009186567e+001dB,1.24147872544398e+002°)
1.79060585403527e+003	(-2.10530506191881e+001dB,1.24124521931379e+002°)
1.79473362683250e+003	(-2.10192011010013e+001dB,1.24100954913997e+002°)
1.79887091512876e+003	(-2.09853524536836e+001dB,1.24077171304380e+002°)
1.80301774085954e+003	(-2.09515047669328e+001dB,1.24053170915995e+002°)
1.80717412601090e+003	(-2.09176581305574e+001dB,1.24028953563655e+002°)
1.81134009261958e+003	(-2.08838126344765e+001dB,1.24004519063519e+002°)
1.81551566277311e+003	(-2.08499683687189e+001dB,1.23979867233089e+002°)
1.81970085860996e+003	(-2.08161254234235e+001dB,1.23954997891218e+002°)
1.82389570231961e+003	(-2.07822838888385e+001dB,1.23929910858110e+002°)
1.82810021614272e+003	(-2.07484438553216e+001dB,1.23904605955320e+002°)
1.83231442237119e+003	(-2.07146054133395e+001dB,1.23879083005756e+002°)
1.83653834334832e+003	(-2.06807686534677e+001dB,1.23853341833682e+002°)
1.84077200146893e+003	(-2.06469336663903e+001dB,1.23827382264720e+002°)
1.84501541917945e+003	(-2.06131005428995e+001dB,1.23801204125849e+002°)
1.84926861897805e+003	(-2.05792693738958e+001dB,1.23774807245412e+002°)
1.85353162341478e+003	(-2.05454402503873e+001dB,1.23748191453112e+002°)
1.85780445509167e+003	(-2.05116132634899e+001dB,1.23721356580018e+002°)
1.86208713666284e+003	(-2.04777885044265e+001dB,1.23694302458565e+002°)
1.86637969083464e+003	(-2.04439660645273e+001dB,1.23667028922558e+002°)
1.87068214036577e+003	(-2.04101460352293e+001dB,1.23639535807171e+002°)
1.87499450806739e+003	(-2.03763285080761e+001dB,1.23611822948950e+002°)
1.87931681680324e+003	(-2.03425135747174e+001dB,1.23583890185817e+002°)
1.88364908948977e+003	(-2.03087013269094e+001dB,1.23555737357071e+002°)
1.88799134909627e+003	(-2.02748918565139e+001dB,1.23527364303386e+002°)
