Freq.	V(n004)
1.00000000000000e+002	(-3.45588313257495e-003dB,-7.67636130481780e+000°)
1.00023028502082e+002	(-3.45910027451148e-003dB,-7.67812907024013e+000°)
1.00046062307284e+002	(-3.46231889867114e-003dB,-7.67989724276227e+000°)
1.00069101416826e+002	(-3.46553900575984e-003dB,-7.68166582247801e+000°)
1.00092145831930e+002	(-3.46876059644197e-003dB,-7.68343480948110e+000°)
1.00115195553817e+002	(-3.47198367142054e-003dB,-7.68520420386536e+000°)
1.00138250583710e+002	(-3.47520823134645e-003dB,-7.68697400572461e+000°)
1.00161310922831e+002	(-3.47843427694295e-003dB,-7.68874421515268e+000°)
1.00184376572403e+002	(-3.48166180889183e-003dB,-7.69051483224344e+000°)
1.00207447533648e+002	(-3.48489082783338e-003dB,-7.69228585709077e+000°)
1.00230523807790e+002	(-3.48812133451016e-003dB,-7.69405728978860e+000°)
1.00253605396052e+002	(-3.49135332956634e-003dB,-7.69582913043082e+000°)
1.00276692299659e+002	(-3.49458681369430e-003dB,-7.69760137911141e+000°)
1.00299784519833e+002	(-3.49782178761347e-003dB,-7.69937403592432e+000°)
1.00322882057800e+002	(-3.50105825198150e-003dB,-7.70114710096359e+000°)
1.00345984914784e+002	(-3.50429620747731e-003dB,-7.70292057432319e+000°)
1.00369093092010e+002	(-3.50753565480775e-003dB,-7.70469445609717e+000°)
1.00392206590702e+002	(-3.51077659464403e-003dB,-7.70646874637957e+000°)
1.00415325412088e+002	(-3.51401902769879e-003dB,-7.70824344526451e+000°)
1.00438449557391e+002	(-3.51726295462780e-003dB,-7.71001855284606e+000°)
1.00461579027839e+002	(-3.52050837614180e-003dB,-7.71179406921835e+000°)
1.00484713824658e+002	(-3.52375529291969e-003dB,-7.71356999447553e+000°)
1.00507853949074e+002	(-3.52700370565388e-003dB,-7.71534632871177e+000°)
1.00530999402313e+002	(-3.53025361504163e-003dB,-7.71712307202126e+000°)
1.00554150185604e+002	(-3.53350502176762e-003dB,-7.71890022449820e+000°)
1.00577306300174e+002	(-3.53675792651657e-003dB,-7.72067778623683e+000°)
1.00600467747249e+002	(-3.54001232998378e-003dB,-7.72245575733141e+000°)
1.00623634528060e+002	(-3.54326823285976e-003dB,-7.72423413787620e+000°)
1.00646806643832e+002	(-3.54652563581956e-003dB,-7.72601292796549e+000°)
1.00669984095796e+002	(-3.54978453958167e-003dB,-7.72779212769363e+000°)
1.00693166885180e+002	(-3.55304494482500e-003dB,-7.72957173715494e+000°)
1.00716355013213e+002	(-3.55630685223716e-003dB,-7.73135175644378e+000°)
1.00739548481125e+002	(-3.55957026250770e-003dB,-7.73313218565454e+000°)
1.00762747290145e+002	(-3.56283517635122e-003dB,-7.73491302488164e+000°)
1.00785951441503e+002	(-3.56610159443317e-003dB,-7.73669427421947e+000°)
1.00809160936429e+002	(-3.56936951748168e-003dB,-7.73847593376254e+000°)
1.00832375776155e+002	(-3.57263894612550e-003dB,-7.74025800360525e+000°)
1.00855595961910e+002	(-3.57590988112173e-003dB,-7.74204048384213e+000°)
1.00878821494927e+002	(-3.57918232315895e-003dB,-7.74382337456771e+000°)
1.00902052376435e+002	(-3.58245627290355e-003dB,-7.74560667587649e+000°)
1.00925288607668e+002	(-3.58573173106728e-003dB,-7.74739038786307e+000°)
1.00948530189857e+002	(-3.58900869833390e-003dB,-7.74917451062198e+000°)
1.00971777124234e+002	(-3.59228717542096e-003dB,-7.75095904424786e+000°)
1.00995029412032e+002	(-3.59556716299292e-003dB,-7.75274398883532e+000°)
1.01018287054483e+002	(-3.59884866176250e-003dB,-7.75452934447901e+000°)
1.01041550052821e+002	(-3.60213167243181e-003dB,-7.75631511127359e+000°)
1.01064818408279e+002	(-3.60541619568077e-003dB,-7.75810128931376e+000°)
1.01088092122091e+002	(-3.60870223223752e-003dB,-7.75988787869422e+000°)
1.01111371195490e+002	(-3.61198978276559e-003dB,-7.76167487950970e+000°)
1.01134655629712e+002	(-3.61527884798060e-003dB,-7.76346229185497e+000°)
1.01157945425989e+002	(-3.61856942857598e-003dB,-7.76525011582480e+000°)
1.01181240585558e+002	(-3.62186152525866e-003dB,-7.76703835151397e+000°)
1.01204541109654e+002	(-3.62515513871148e-003dB,-7.76882699901732e+000°)
1.01227846999511e+002	(-3.62845026963365e-003dB,-7.77061605842968e+000°)
1.01251158256365e+002	(-3.63174691872827e-003dB,-7.77240552984592e+000°)
1.01274474881453e+002	(-3.63504508671867e-003dB,-7.77419541336095e+000°)
1.01297796876010e+002	(-3.63834477426069e-003dB,-7.77598570906963e+000°)
1.01321124241273e+002	(-3.64164598208634e-003dB,-7.77777641706692e+000°)
1.01344456978479e+002	(-3.64494871089776e-003dB,-7.77956753744775e+000°)
1.01367795088864e+002	(-3.64825296138357e-003dB,-7.78135907030712e+000°)
1.01391138573667e+002	(-3.65155873424784e-003dB,-7.78315101574002e+000°)
1.01414487434125e+002	(-3.65486603019752e-003dB,-7.78494337384144e+000°)
1.01437841671476e+002	(-3.65817484992220e-003dB,-7.78673614470645e+000°)
1.01461201286958e+002	(-3.66148519412596e-003dB,-7.78852932843008e+000°)
1.01484566281809e+002	(-3.66479706353312e-003dB,-7.79032292510743e+000°)
1.01507936657269e+002	(-3.66811045880435e-003dB,-7.79211693483361e+000°)
1.01531312414576e+002	(-3.67142538068711e-003dB,-7.79391135770374e+000°)
1.01554693554969e+002	(-3.67474182986428e-003dB,-7.79570619381295e+000°)
1.01578080079690e+002	(-3.67805980704378e-003dB,-7.79750144325645e+000°)
1.01601471989976e+002	(-3.68137931292969e-003dB,-7.79929710612940e+000°)
1.01624869287069e+002	(-3.68470034821645e-003dB,-7.80109318252702e+000°)
1.01648271972209e+002	(-3.68802291361681e-003dB,-7.80288967254454e+000°)
1.01671680046637e+002	(-3.69134700984645e-003dB,-7.80468657627724e+000°)
1.01695093511594e+002	(-3.69467263759111e-003dB,-7.80648389382037e+000°)
1.01718512368321e+002	(-3.69799979756840e-003dB,-7.80828162526925e+000°)
1.01741936618060e+002	(-3.70132849048625e-003dB,-7.81007977071922e+000°)
1.01765366262053e+002	(-3.70465871704780e-003dB,-7.81187833026559e+000°)
1.01788801301542e+002	(-3.70799047794074e-003dB,-7.81367730400374e+000°)
1.01812241737769e+002	(-3.71132377390583e-003dB,-7.81547669202907e+000°)
1.01835687571978e+002	(-3.71465860563848e-003dB,-7.81727649443698e+000°)
1.01859138805411e+002	(-3.71799497383411e-003dB,-7.81907671132291e+000°)
1.01882595439312e+002	(-3.72133287921514e-003dB,-7.82087734278231e+000°)
1.01906057474924e+002	(-3.72467232249051e-003dB,-7.82267838891066e+000°)
1.01929524913492e+002	(-3.72801330434889e-003dB,-7.82447984980346e+000°)
1.01952997756260e+002	(-3.73135582552428e-003dB,-7.82628172555622e+000°)
1.01976476004471e+002	(-3.73469988670922e-003dB,-7.82808401626451e+000°)
1.01999959659371e+002	(-3.73804548863002e-003dB,-7.82988672202388e+000°)
1.02023448722206e+002	(-3.74139263197341e-003dB,-7.83168984292990e+000°)
1.02046943194219e+002	(-3.74474131746667e-003dB,-7.83349337907820e+000°)
1.02070443076658e+002	(-3.74809154581295e-003dB,-7.83529733056441e+000°)
1.02093948370767e+002	(-3.75144331772891e-003dB,-7.83710169748419e+000°)
1.02117459077794e+002	(-3.75479663393217e-003dB,-7.83890647993318e+000°)
1.02140975198984e+002	(-3.75815149510950e-003dB,-7.84071167800712e+000°)
1.02164496735585e+002	(-3.76150790200939e-003dB,-7.84251729180173e+000°)
1.02188023688843e+002	(-3.76486585530124e-003dB,-7.84432332141270e+000°)
1.02211556060006e+002	(-3.76822535575092e-003dB,-7.84612976693585e+000°)
1.02235093850322e+002	(-3.77158640400082e-003dB,-7.84793662846692e+000°)
1.02258637061039e+002	(-3.77494900083032e-003dB,-7.84974390610177e+000°)
1.02282185693404e+002	(-3.77831314692908e-003dB,-7.85155159993618e+000°)
1.02305739748666e+002	(-3.78167884300800e-003dB,-7.85335971006604e+000°)
1.02329299228075e+002	(-3.78504608978278e-003dB,-7.85516823658719e+000°)
1.02352864132878e+002	(-3.78841488795563e-003dB,-7.85697717959555e+000°)
1.02376434464327e+002	(-3.79178523825869e-003dB,-7.85878653918703e+000°)
1.02400010223669e+002	(-3.79515714139608e-003dB,-7.86059631545756e+000°)
1.02423591412156e+002	(-3.79853059810765e-003dB,-7.86240650850313e+000°)
1.02447178031037e+002	(-3.80190560908019e-003dB,-7.86421711841970e+000°)
1.02470770081564e+002	(-3.80528217504581e-003dB,-7.86602814530329e+000°)
1.02494367564986e+002	(-3.80866029670674e-003dB,-7.86783958924990e+000°)
1.02517970482555e+002	(-3.81203997479802e-003dB,-7.86965145035563e+000°)
1.02541578835522e+002	(-3.81542121003246e-003dB,-7.87146372871652e+000°)
1.02565192625140e+002	(-3.81880400310845e-003dB,-7.87327642442866e+000°)
1.02588811852659e+002	(-3.82218835477066e-003dB,-7.87508953758819e+000°)
1.02612436519333e+002	(-3.82557426572325e-003dB,-7.87690306829122e+000°)
1.02636066626414e+002	(-3.82896173669644e-003dB,-7.87871701663395e+000°)
1.02659702175154e+002	(-3.83235076838184e-003dB,-7.88053138271253e+000°)
1.02683343166808e+002	(-3.83574136152897e-003dB,-7.88234616662318e+000°)
1.02706989602627e+002	(-3.83913351683428e-003dB,-7.88416136846212e+000°)
1.02730641483867e+002	(-3.84252723505307e-003dB,-7.88597698832562e+000°)
1.02754298811780e+002	(-3.84592251685381e-003dB,-7.88779302630993e+000°)
1.02777961587622e+002	(-3.84931936300629e-003dB,-7.88960948251136e+000°)
1.02801629812646e+002	(-3.85271777419829e-003dB,-7.89142635702621e+000°)
1.02825303488109e+002	(-3.85611775117835e-003dB,-7.89324364995084e+000°)
1.02848982615264e+002	(-3.85951929462365e-003dB,-7.89506136138158e+000°)
1.02872667195367e+002	(-3.86292240530396e-003dB,-7.89687949141485e+000°)
1.02896357229674e+002	(-3.86632708390902e-003dB,-7.89869804014702e+000°)
1.02920052719442e+002	(-3.86973333119799e-003dB,-7.90051700767455e+000°)
1.02943753665926e+002	(-3.87314114784611e-003dB,-7.90233639409386e+000°)
1.02967460070382e+002	(-3.87655053462030e-003dB,-7.90415619950144e+000°)
1.02991171934069e+002	(-3.87996149222280e-003dB,-7.90597642399380e+000°)
1.03014889258242e+002	(-3.88337402136650e-003dB,-7.90779706766741e+000°)
1.03038612044161e+002	(-3.88678812279419e-003dB,-7.90961813061886e+000°)
1.03062340293081e+002	(-3.89020379723997e-003dB,-7.91143961294468e+000°)
1.03086074006261e+002	(-3.89362104539936e-003dB,-7.91326151474144e+000°)
1.03109813184961e+002	(-3.89703986802384e-003dB,-7.91508383610578e+000°)
1.03133557830437e+002	(-3.90046026581181e-003dB,-7.91690657713432e+000°)
1.03157307943950e+002	(-3.90388223949450e-003dB,-7.91872973792368e+000°)
1.03181063526758e+002	(-3.90730578982436e-003dB,-7.92055331857057e+000°)
1.03204824580121e+002	(-3.91073091750849e-003dB,-7.92237731917167e+000°)
1.03228591105299e+002	(-3.91415762329645e-003dB,-7.92420173982371e+000°)
1.03252363103551e+002	(-3.91758590788280e-003dB,-7.92602658062339e+000°)
1.03276140576139e+002	(-3.92101577199877e-003dB,-7.92785184166750e+000°)
1.03299923524322e+002	(-3.92444721639683e-003dB,-7.92967752305283e+000°)
1.03323711949362e+002	(-3.92788024176960e-003dB,-7.93150362487617e+000°)
1.03347505852520e+002	(-3.93131484889271e-003dB,-7.93333014723434e+000°)
1.03371305235057e+002	(-3.93475103846074e-003dB,-7.93515709022422e+000°)
1.03395110098236e+002	(-3.93818881120010e-003dB,-7.93698445394267e+000°)
1.03418920443318e+002	(-3.94162816786808e-003dB,-7.93881223848657e+000°)
1.03442736271566e+002	(-3.94506910916215e-003dB,-7.94064044395286e+000°)
1.03466557584242e+002	(-3.94851163583383e-003dB,-7.94246907043846e+000°)
1.03490384382610e+002	(-3.95195574861436e-003dB,-7.94429811804034e+000°)
1.03514216667933e+002	(-3.95540144822728e-003dB,-7.94612758685549e+000°)
1.03538054441474e+002	(-3.95884873541347e-003dB,-7.94795747698091e+000°)
1.03561897704497e+002	(-3.96229761087816e-003dB,-7.94978778851363e+000°)
1.03585746458267e+002	(-3.96574807538635e-003dB,-7.95161852155071e+000°)
1.03609600704047e+002	(-3.96920012964423e-003dB,-7.95344967618921e+000°)
1.03633460443103e+002	(-3.97265377440234e-003dB,-7.95528125252622e+000°)
1.03657325676699e+002	(-3.97610901039197e-003dB,-7.95711325065888e+000°)
1.03681196406101e+002	(-3.97956583833760e-003dB,-7.95894567068433e+000°)
1.03705072632575e+002	(-3.98302425897051e-003dB,-7.96077851269971e+000°)
1.03728954357386e+002	(-3.98648427302583e-003dB,-7.96261177680223e+000°)
1.03752841581800e+002	(-3.98994588126280e-003dB,-7.96444546308907e+000°)
1.03776734307084e+002	(-3.99340908439630e-003dB,-7.96627957165750e+000°)
1.03800632534505e+002	(-3.99687388314216e-003dB,-7.96811410260474e+000°)
1.03824536265330e+002	(-4.00034027827121e-003dB,-7.96994905602808e+000°)
1.03848445500826e+002	(-4.00380827049545e-003dB,-7.97178443202482e+000°)
1.03872360242261e+002	(-4.00727786056351e-003dB,-7.97362023069227e+000°)
1.03896280490902e+002	(-4.01074904921150e-003dB,-7.97545645212777e+000°)
1.03920206248019e+002	(-4.01422183715623e-003dB,-7.97729309642870e+000°)
1.03944137514879e+002	(-4.01769622517241e-003dB,-7.97913016369242e+000°)
1.03968074292751e+002	(-4.02117221395949e-003dB,-7.98096765401638e+000°)
1.03992016582905e+002	(-4.02464980426323e-003dB,-7.98280556749797e+000°)
1.04015964386609e+002	(-4.02812899683228e-003dB,-7.98464390423467e+000°)
1.04039917705134e+002	(-4.03160979241918e-003dB,-7.98648266432396e+000°)
1.04063876539749e+002	(-4.03509219173108e-003dB,-7.98832184786334e+000°)
1.04087840891725e+002	(-4.03857619553404e-003dB,-7.99016145495030e+000°)
1.04111810762332e+002	(-4.04206180453136e-003dB,-7.99200148568242e+000°)
1.04135786152842e+002	(-4.04554901951031e-003dB,-7.99384194015725e+000°)
1.04159767064525e+002	(-4.04903784118483e-003dB,-7.99568281847238e+000°)
1.04183753498652e+002	(-4.05252827028815e-003dB,-7.99752412072544e+000°)
1.04207745456496e+002	(-4.05602030756799e-003dB,-7.99936584701403e+000°)
1.04231742939329e+002	(-4.05951395379136e-003dB,-8.00120799743584e+000°)
1.04255745948422e+002	(-4.06300920965097e-003dB,-8.00305057208854e+000°)
1.04279754485049e+002	(-4.06650607590998e-003dB,-8.00489357106981e+000°)
1.04303768550482e+002	(-4.07000455332382e-003dB,-8.00673699447740e+000°)
1.04327788145995e+002	(-4.07350464262190e-003dB,-8.00858084240904e+000°)
1.04351813272861e+002	(-4.07700634456832e-003dB,-8.01042511496252e+000°)
1.04375843932353e+002	(-4.08050965988381e-003dB,-8.01226981223561e+000°)
1.04399880125747e+002	(-4.08401458932670e-003dB,-8.01411493432614e+000°)
1.04423921854316e+002	(-4.08752113359841e-003dB,-8.01596048133195e+000°)
1.04447969119335e+002	(-4.09102929348913e-003dB,-8.01780645335087e+000°)
1.04472021922078e+002	(-4.09453906974658e-003dB,-8.01965285048081e+000°)
1.04496080263822e+002	(-4.09805046308282e-003dB,-8.02149967281967e+000°)
1.04520144145842e+002	(-4.10156347426003e-003dB,-8.02334692046537e+000°)
1.04544213569413e+002	(-4.10507810403659e-003dB,-8.02519459351587e+000°)
1.04568288535812e+002	(-4.10859435314286e-003dB,-8.02704269206913e+000°)
1.04592369046315e+002	(-4.11211222231695e-003dB,-8.02889121622315e+000°)
1.04616455102199e+002	(-4.11563171232685e-003dB,-8.03074016607594e+000°)
1.04640546704741e+002	(-4.11915282390102e-003dB,-8.03258954172556e+000°)
1.04664643855218e+002	(-4.12267555777950e-003dB,-8.03443934327004e+000°)
1.04688746554908e+002	(-4.12619991475441e-003dB,-8.03628957080751e+000°)
1.04712854805088e+002	(-4.12972589553878e-003dB,-8.03814022443603e+000°)
1.04736968607038e+002	(-4.13325350087457e-003dB,-8.03999130425378e+000°)
1.04761087962034e+002	(-4.13678273152885e-003dB,-8.04184281035886e+000°)
1.04785212871357e+002	(-4.14031358823683e-003dB,-8.04369474284948e+000°)
1.04809343336286e+002	(-4.14384607176171e-003dB,-8.04554710182382e+000°)
1.04833479358098e+002	(-4.14738018284449e-003dB,-8.04739988738012e+000°)
1.04857620938075e+002	(-4.15091592225129e-003dB,-8.04925309961662e+000°)
1.04881768077497e+002	(-4.15445329069707e-003dB,-8.05110673863156e+000°)
1.04905920777643e+002	(-4.15799228897783e-003dB,-8.05296080452326e+000°)
1.04930079039794e+002	(-4.16153291780759e-003dB,-8.05481529739001e+000°)
1.04954242865230e+002	(-4.16507517795052e-003dB,-8.05667021733017e+000°)
1.04978412255234e+002	(-4.16861907016212e-003dB,-8.05852556444206e+000°)
1.05002587211087e+002	(-4.17216459519114e-003dB,-8.06038133882408e+000°)
1.05026767734069e+002	(-4.17571175378631e-003dB,-8.06223754057464e+000°)
1.05050953825464e+002	(-4.17926054669930e-003dB,-8.06409416979215e+000°)
1.05075145486553e+002	(-4.18281097471453e-003dB,-8.06595122657506e+000°)
1.05099342718620e+002	(-4.18636303852674e-003dB,-8.06780871102183e+000°)
1.05123545522946e+002	(-4.18991673894451e-003dB,-8.06966662323098e+000°)
1.05147753900816e+002	(-4.19347207669439e-003dB,-8.07152496330100e+000°)
1.05171967853513e+002	(-4.19702905253192e-003dB,-8.07338373133044e+000°)
1.05196187382320e+002	(-4.20058766723092e-003dB,-8.07524292741786e+000°)
1.05220412488522e+002	(-4.20414792152858e-003dB,-8.07710255166184e+000°)
1.05244643173403e+002	(-4.20770981617176e-003dB,-8.07896260416098e+000°)
1.05268879438248e+002	(-4.21127335193911e-003dB,-8.08082308501392e+000°)
1.05293121284342e+002	(-4.21483852957364e-003dB,-8.08268399431930e+000°)
1.05317368712970e+002	(-4.21840534985979e-003dB,-8.08454533217583e+000°)
1.05341621725417e+002	(-4.22197381349040e-003dB,-8.08640709868215e+000°)
1.05365880322970e+002	(-4.22554392129143e-003dB,-8.08826929393701e+000°)
1.05390144506914e+002	(-4.22911567397594e-003dB,-8.09013191803916e+000°)
1.05414414278537e+002	(-4.23268907232458e-003dB,-8.09199497108735e+000°)
1.05438689639124e+002	(-4.23626411710059e-003dB,-8.09385845318037e+000°)
1.05462970589963e+002	(-4.23984080902478e-003dB,-8.09572236441703e+000°)
1.05487257132342e+002	(-4.24341914891636e-003dB,-8.09758670489619e+000°)
1.05511549267547e+002	(-4.24699913749133e-003dB,-8.09945147471667e+000°)
1.05535846996867e+002	(-4.25058077551006e-003dB,-8.10131667397735e+000°)
1.05560150321591e+002	(-4.25416406375221e-003dB,-8.10318230277716e+000°)
1.05584459243006e+002	(-4.25774900295500e-003dB,-8.10504836121500e+000°)
1.05608773762401e+002	(-4.26133559389715e-003dB,-8.10691484938982e+000°)
1.05633093881067e+002	(-4.26492383735447e-003dB,-8.10878176740061e+000°)
1.05657419600291e+002	(-4.26851373403427e-003dB,-8.11064911534633e+000°)
1.05681750921364e+002	(-4.27210528477123e-003dB,-8.11251689332604e+000°)
1.05706087845575e+002	(-4.27569849026495e-003dB,-8.11438510143872e+000°)
1.05730430374216e+002	(-4.27929335131634e-003dB,-8.11625373978349e+000°)
1.05754778508577e+002	(-4.28288986866650e-003dB,-8.11812280845939e+000°)
1.05779132249948e+002	(-4.28648804309608e-003dB,-8.11999230756556e+000°)
1.05803491599621e+002	(-4.29008787533942e-003dB,-8.12186223720110e+000°)
1.05827856558887e+002	(-4.29368936620227e-003dB,-8.12373259746518e+000°)
1.05852227129039e+002	(-4.29729251642573e-003dB,-8.12560338845698e+000°)
1.05876603311368e+002	(-4.30089732677599e-003dB,-8.12747461027568e+000°)
1.05900985107166e+002	(-4.30450379801634e-003dB,-8.12934626302051e+000°)
1.05925372517727e+002	(-4.30811193091492e-003dB,-8.13121834679073e+000°)
1.05949765544343e+002	(-4.31172172624177e-003dB,-8.13309086168559e+000°)
1.05974164188308e+002	(-4.31533318475731e-003dB,-8.13496380780437e+000°)
1.05998568450915e+002	(-4.31894630722098e-003dB,-8.13683718524640e+000°)
1.06022978333458e+002	(-4.32256109442022e-003dB,-8.13871099411102e+000°)
1.06047393837231e+002	(-4.32617754709325e-003dB,-8.14058523449756e+000°)
1.06071814963529e+002	(-4.32979566603040e-003dB,-8.14245990650542e+000°)
1.06096241713647e+002	(-4.33341545201621e-003dB,-8.14433501023402e+000°)
1.06120674088879e+002	(-4.33703690577830e-003dB,-8.14621054578277e+000°)
1.06145112090522e+002	(-4.34066002810990e-003dB,-8.14808651325110e+000°)
1.06169555719870e+002	(-4.34428481975792e-003dB,-8.14996291273851e+000°)
1.06194004978220e+002	(-4.34791128153394e-003dB,-8.15183974434451e+000°)
1.06218459866868e+002	(-4.35153941415594e-003dB,-8.15371700816857e+000°)
1.06242920387110e+002	(-4.35516921843452e-003dB,-8.15559470431028e+000°)
1.06267386540244e+002	(-4.35880069512433e-003dB,-8.15747283286916e+000°)
1.06291858327567e+002	(-4.36243384499545e-003dB,-8.15935139394485e+000°)
1.06316335750375e+002	(-4.36606866880254e-003dB,-8.16123038763691e+000°)
1.06340818809967e+002	(-4.36970516735043e-003dB,-8.16310981404500e+000°)
1.06365307507641e+002	(-4.37334334139762e-003dB,-8.16498967326877e+000°)
1.06389801844696e+002	(-4.37698319170457e-003dB,-8.16686996540789e+000°)
1.06414301822429e+002	(-4.38062471906357e-003dB,-8.16875069056210e+000°)
1.06438807442140e+002	(-4.38426792423796e-003dB,-8.17063184883108e+000°)
1.06463318705129e+002	(-4.38791280798724e-003dB,-8.17251344031458e+000°)
