Freq.	V(n004)
1.00000000000000e+002	(-5.00204289640864e+001dB,-2.50119031641358e-001°)
1.00023028502082e+002	(-5.00204308821792e+001dB,-2.50176631234851e-001°)
1.00046062307284e+002	(-5.00204328011559e+001dB,-2.50234244093308e-001°)
1.00069101416826e+002	(-5.00204347210168e+001dB,-2.50291870219783e-001°)
1.00092145831930e+002	(-5.00204366417624e+001dB,-2.50349509617335e-001°)
1.00115195553817e+002	(-5.00204385633930e+001dB,-2.50407162289019e-001°)
1.00138250583710e+002	(-5.00204404859092e+001dB,-2.50464828237890e-001°)
1.00161310922831e+002	(-5.00204424093113e+001dB,-2.50522507467012e-001°)
1.00184376572403e+002	(-5.00204443335995e+001dB,-2.50580199979434e-001°)
1.00207447533648e+002	(-5.00204462587746e+001dB,-2.50637905778228e-001°)
1.00230523807790e+002	(-5.00204481848368e+001dB,-2.50695624866442e-001°)
1.00253605396052e+002	(-5.00204501117865e+001dB,-2.50753357247144e-001°)
1.00276692299659e+002	(-5.00204520396241e+001dB,-2.50811102923395e-001°)
1.00299784519833e+002	(-5.00204539683501e+001dB,-2.50868861898251e-001°)
1.00322882057800e+002	(-5.00204558979649e+001dB,-2.50926634174786e-001°)
1.00345984914784e+002	(-5.00204578284688e+001dB,-2.50984419756055e-001°)
1.00369093092010e+002	(-5.00204597598623e+001dB,-2.51042218645123e-001°)
1.00392206590702e+002	(-5.00204616921458e+001dB,-2.51100030845058e-001°)
1.00415325412088e+002	(-5.00204636253196e+001dB,-2.51157856358922e-001°)
1.00438449557391e+002	(-5.00204655593843e+001dB,-2.51215695189787e-001°)
1.00461579027839e+002	(-5.00204674943402e+001dB,-2.51273547340714e-001°)
1.00484713824658e+002	(-5.00204694301878e+001dB,-2.51331412814778e-001°)
1.00507853949074e+002	(-5.00204713669273e+001dB,-2.51389291615041e-001°)
1.00530999402313e+002	(-5.00204733045593e+001dB,-2.51447183744575e-001°)
1.00554150185604e+002	(-5.00204752430842e+001dB,-2.51505089206448e-001°)
1.00577306300174e+002	(-5.00204771825024e+001dB,-2.51563008003735e-001°)
1.00600467747249e+002	(-5.00204791228142e+001dB,-2.51620940139504e-001°)
1.00623634528060e+002	(-5.00204810640201e+001dB,-2.51678885616827e-001°)
1.00646806643832e+002	(-5.00204830061206e+001dB,-2.51736844438779e-001°)
1.00669984095796e+002	(-5.00204849491159e+001dB,-2.51794816608431e-001°)
1.00693166885180e+002	(-5.00204868930066e+001dB,-2.51852802128859e-001°)
1.00716355013213e+002	(-5.00204888377931e+001dB,-2.51910801003140e-001°)
1.00739548481125e+002	(-5.00204907834757e+001dB,-2.51968813234343e-001°)
1.00762747290145e+002	(-5.00204927300549e+001dB,-2.52026838825549e-001°)
1.00785951441503e+002	(-5.00204946775311e+001dB,-2.52084877779833e-001°)
1.00809160936429e+002	(-5.00204966259047e+001dB,-2.52142930100278e-001°)
1.00832375776155e+002	(-5.00204985751761e+001dB,-2.52200995789959e-001°)
1.00855595961910e+002	(-5.00205005253457e+001dB,-2.52259074851954e-001°)
1.00878821494927e+002	(-5.00205024764140e+001dB,-2.52317167289344e-001°)
1.00902052376435e+002	(-5.00205044283813e+001dB,-2.52375273105207e-001°)
1.00925288607668e+002	(-5.00205063812481e+001dB,-2.52433392302628e-001°)
1.00948530189857e+002	(-5.00205083350147e+001dB,-2.52491524884686e-001°)
1.00971777124234e+002	(-5.00205102896817e+001dB,-2.52549670854467e-001°)
1.00995029412032e+002	(-5.00205122452494e+001dB,-2.52607830215055e-001°)
1.01018287054483e+002	(-5.00205142017182e+001dB,-2.52666002969528e-001°)
1.01041550052821e+002	(-5.00205161590886e+001dB,-2.52724189120978e-001°)
1.01064818408279e+002	(-5.00205181173609e+001dB,-2.52782388672488e-001°)
1.01088092122091e+002	(-5.00205200765356e+001dB,-2.52840601627143e-001°)
1.01111371195490e+002	(-5.00205220366131e+001dB,-2.52898827988030e-001°)
1.01134655629712e+002	(-5.00205239975938e+001dB,-2.52957067758235e-001°)
1.01157945425989e+002	(-5.00205259594781e+001dB,-2.53015320940852e-001°)
1.01181240585558e+002	(-5.00205279222665e+001dB,-2.53073587538967e-001°)
1.01204541109654e+002	(-5.00205298859593e+001dB,-2.53131867555670e-001°)
1.01227846999511e+002	(-5.00205318505570e+001dB,-2.53190160994050e-001°)
1.01251158256365e+002	(-5.00205338160600e+001dB,-2.53248467857201e-001°)
1.01274474881453e+002	(-5.00205357824688e+001dB,-2.53306788148215e-001°)
1.01297796876010e+002	(-5.00205377497836e+001dB,-2.53365121870183e-001°)
1.01321124241273e+002	(-5.00205397180050e+001dB,-2.53423469026195e-001°)
1.01344456978479e+002	(-5.00205416871333e+001dB,-2.53481829619353e-001°)
1.01367795088864e+002	(-5.00205436571691e+001dB,-2.53540203652747e-001°)
1.01391138573667e+002	(-5.00205456281126e+001dB,-2.53598591129473e-001°)
1.01414487434125e+002	(-5.00205475999643e+001dB,-2.53656992052627e-001°)
1.01437841671476e+002	(-5.00205495727247e+001dB,-2.53715406425307e-001°)
1.01461201286958e+002	(-5.00205515463942e+001dB,-2.53773834250610e-001°)
1.01484566281809e+002	(-5.00205535209731e+001dB,-2.53832275531636e-001°)
1.01507936657269e+002	(-5.00205554964619e+001dB,-2.53890730271481e-001°)
1.01531312414576e+002	(-5.00205574728610e+001dB,-2.53949198473246e-001°)
1.01554693554969e+002	(-5.00205594501709e+001dB,-2.54007680140033e-001°)
1.01578080079690e+002	(-5.00205614283919e+001dB,-2.54066175274944e-001°)
1.01601471989976e+002	(-5.00205634075245e+001dB,-2.54124683881078e-001°)
1.01624869287069e+002	(-5.00205653875691e+001dB,-2.54183205961538e-001°)
1.01648271972209e+002	(-5.00205673685261e+001dB,-2.54241741519431e-001°)
1.01671680046637e+002	(-5.00205693503959e+001dB,-2.54300290557856e-001°)
1.01695093511594e+002	(-5.00205713331790e+001dB,-2.54358853079923e-001°)
1.01718512368321e+002	(-5.00205733168757e+001dB,-2.54417429088732e-001°)
1.01741936618060e+002	(-5.00205753014866e+001dB,-2.54476018587392e-001°)
1.01765366262053e+002	(-5.00205772870120e+001dB,-2.54534621579012e-001°)
1.01788801301542e+002	(-5.00205792734523e+001dB,-2.54593238066701e-001°)
1.01812241737769e+002	(-5.00205812608080e+001dB,-2.54651868053559e-001°)
1.01835687571978e+002	(-5.00205832490794e+001dB,-2.54710511542702e-001°)
1.01859138805411e+002	(-5.00205852382671e+001dB,-2.54769168537238e-001°)
1.01882595439312e+002	(-5.00205872283714e+001dB,-2.54827839040279e-001°)
1.01906057474924e+002	(-5.00205892193927e+001dB,-2.54886523054935e-001°)
1.01929524913492e+002	(-5.00205912113316e+001dB,-2.54945220584316e-001°)
1.01952997756260e+002	(-5.00205932041883e+001dB,-2.55003931631537e-001°)
1.01976476004471e+002	(-5.00205951979634e+001dB,-2.55062656199715e-001°)
1.01999959659371e+002	(-5.00205971926571e+001dB,-2.55121394291956e-001°)
1.02023448722206e+002	(-5.00205991882701e+001dB,-2.55180145911382e-001°)
1.02046943194219e+002	(-5.00206011848026e+001dB,-2.55238911061104e-001°)
1.02070443076658e+002	(-5.00206031822552e+001dB,-2.55297689744240e-001°)
1.02093948370767e+002	(-5.00206051806282e+001dB,-2.55356481963910e-001°)
1.02117459077794e+002	(-5.00206071799220e+001dB,-2.55415287723225e-001°)
1.02140975198984e+002	(-5.00206091801372e+001dB,-2.55474107025308e-001°)
1.02164496735585e+002	(-5.00206111812740e+001dB,-2.55532939873278e-001°)
1.02188023688843e+002	(-5.00206131833330e+001dB,-2.55591786270254e-001°)
1.02211556060006e+002	(-5.00206151863146e+001dB,-2.55650646219358e-001°)
1.02235093850322e+002	(-5.00206171902191e+001dB,-2.55709519723709e-001°)
1.02258637061039e+002	(-5.00206191950471e+001dB,-2.55768406786433e-001°)
1.02282185693404e+002	(-5.00206212007989e+001dB,-2.55827307410646e-001°)
1.02305739748666e+002	(-5.00206232074750e+001dB,-2.55886221599479e-001°)
1.02329299228075e+002	(-5.00206252150757e+001dB,-2.55945149356050e-001°)
1.02352864132878e+002	(-5.00206272236016e+001dB,-2.56004090683488e-001°)
1.02376434464327e+002	(-5.00206292330530e+001dB,-2.56063045584917e-001°)
1.02400010223669e+002	(-5.00206312434304e+001dB,-2.56122014063462e-001°)
1.02423591412156e+002	(-5.00206332547342e+001dB,-2.56180996122255e-001°)
1.02447178031037e+002	(-5.00206352669648e+001dB,-2.56239991764417e-001°)
1.02470770081564e+002	(-5.00206372801227e+001dB,-2.56299000993085e-001°)
1.02494367564986e+002	(-5.00206392942082e+001dB,-2.56358023811380e-001°)
1.02517970482555e+002	(-5.00206413092218e+001dB,-2.56417060222434e-001°)
1.02541578835522e+002	(-5.00206433251640e+001dB,-2.56476110229382e-001°)
1.02565192625140e+002	(-5.00206453420352e+001dB,-2.56535173835349e-001°)
1.02588811852659e+002	(-5.00206473598357e+001dB,-2.56594251043472e-001°)
1.02612436519333e+002	(-5.00206493785660e+001dB,-2.56653341856883e-001°)
1.02636066626414e+002	(-5.00206513982266e+001dB,-2.56712446278715e-001°)
1.02659702175154e+002	(-5.00206534188179e+001dB,-2.56771564312101e-001°)
1.02683343166808e+002	(-5.00206554403403e+001dB,-2.56830695960179e-001°)
1.02706989602627e+002	(-5.00206574627942e+001dB,-2.56889841226082e-001°)
1.02730641483867e+002	(-5.00206594861801e+001dB,-2.56949000112947e-001°)
1.02754298811780e+002	(-5.00206615104984e+001dB,-2.57008172623910e-001°)
1.02777961587622e+002	(-5.00206635357495e+001dB,-2.57067358762113e-001°)
1.02801629812646e+002	(-5.00206655619338e+001dB,-2.57126558530691e-001°)
1.02825303488109e+002	(-5.00206675890518e+001dB,-2.57185771932784e-001°)
1.02848982615264e+002	(-5.00206696171040e+001dB,-2.57244998971534e-001°)
1.02872667195367e+002	(-5.00206716460907e+001dB,-2.57304239650081e-001°)
1.02896357229674e+002	(-5.00206736760124e+001dB,-2.57363493971563e-001°)
1.02920052719442e+002	(-5.00206757068695e+001dB,-2.57422761939128e-001°)
1.02943753665926e+002	(-5.00206777386623e+001dB,-2.57482043555914e-001°)
1.02967460070382e+002	(-5.00206797713915e+001dB,-2.57541338825069e-001°)
1.02991171934069e+002	(-5.00206818050574e+001dB,-2.57600647749734e-001°)
1.03014889258242e+002	(-5.00206838396604e+001dB,-2.57659970333053e-001°)
1.03038612044161e+002	(-5.00206858752010e+001dB,-2.57719306578178e-001°)
1.03062340293081e+002	(-5.00206879116796e+001dB,-2.57778656488250e-001°)
1.03086074006261e+002	(-5.00206899490966e+001dB,-2.57838020066418e-001°)
1.03109813184961e+002	(-5.00206919874525e+001dB,-2.57897397315830e-001°)
1.03133557830437e+002	(-5.00206940267476e+001dB,-2.57956788239635e-001°)
1.03157307943950e+002	(-5.00206960669825e+001dB,-2.58016192840982e-001°)
1.03181063526758e+002	(-5.00206981081576e+001dB,-2.58075611123022e-001°)
1.03204824580121e+002	(-5.00207001502732e+001dB,-2.58135043088907e-001°)
1.03228591105299e+002	(-5.00207021933299e+001dB,-2.58194488741785e-001°)
1.03252363103551e+002	(-5.00207042373280e+001dB,-2.58253948084810e-001°)
1.03276140576139e+002	(-5.00207062822681e+001dB,-2.58313421121142e-001°)
1.03299923524322e+002	(-5.00207083281505e+001dB,-2.58372907853923e-001°)
1.03323711949362e+002	(-5.00207103749756e+001dB,-2.58432408286313e-001°)
1.03347505852520e+002	(-5.00207124227439e+001dB,-2.58491922421472e-001°)
1.03371305235057e+002	(-5.00207144714559e+001dB,-2.58551450262547e-001°)
1.03395110098236e+002	(-5.00207165211119e+001dB,-2.58610991812699e-001°)
1.03418920443318e+002	(-5.00207185717125e+001dB,-2.58670547075090e-001°)
1.03442736271566e+002	(-5.00207206232579e+001dB,-2.58730116052869e-001°)
1.03466557584242e+002	(-5.00207226757488e+001dB,-2.58789698749204e-001°)
1.03490384382610e+002	(-5.00207247291855e+001dB,-2.58849295167250e-001°)
1.03514216667933e+002	(-5.00207267835684e+001dB,-2.58908905310167e-001°)
1.03538054441474e+002	(-5.00207288388980e+001dB,-2.58968529181116e-001°)
1.03561897704497e+002	(-5.00207308951747e+001dB,-2.59028166783261e-001°)
1.03585746458267e+002	(-5.00207329523990e+001dB,-2.59087818119763e-001°)
1.03609600704047e+002	(-5.00207350105712e+001dB,-2.59147483193785e-001°)
1.03633460443103e+002	(-5.00207370696919e+001dB,-2.59207162008493e-001°)
1.03657325676699e+002	(-5.00207391297615e+001dB,-2.59266854567050e-001°)
1.03681196406101e+002	(-5.00207411907803e+001dB,-2.59326560872625e-001°)
1.03705072632575e+002	(-5.00207432527490e+001dB,-2.59386280928379e-001°)
1.03728954357386e+002	(-5.00207453156678e+001dB,-2.59446014737481e-001°)
1.03752841581800e+002	(-5.00207473795372e+001dB,-2.59505762303100e-001°)
1.03776734307084e+002	(-5.00207494443576e+001dB,-2.59565523628402e-001°)
1.03800632534505e+002	(-5.00207515101296e+001dB,-2.59625298716559e-001°)
1.03824536265330e+002	(-5.00207535768535e+001dB,-2.59685087570740e-001°)
1.03848445500826e+002	(-5.00207556445297e+001dB,-2.59744890194112e-001°)
1.03872360242261e+002	(-5.00207577131588e+001dB,-2.59804706589852e-001°)
1.03896280490902e+002	(-5.00207597827412e+001dB,-2.59864536761131e-001°)
1.03920206248019e+002	(-5.00207618532772e+001dB,-2.59924380711117e-001°)
1.03944137514879e+002	(-5.00207639247674e+001dB,-2.59984238442989e-001°)
1.03968074292751e+002	(-5.00207659972121e+001dB,-2.60044109959918e-001°)
1.03992016582905e+002	(-5.00207680706118e+001dB,-2.60103995265080e-001°)
1.04015964386609e+002	(-5.00207701449670e+001dB,-2.60163894361651e-001°)
1.04039917705134e+002	(-5.00207722202781e+001dB,-2.60223807252808e-001°)
1.04063876539749e+002	(-5.00207742965455e+001dB,-2.60283733941723e-001°)
1.04087840891725e+002	(-5.00207763737697e+001dB,-2.60343674431583e-001°)
1.04111810762332e+002	(-5.00207784519510e+001dB,-2.60403628725558e-001°)
1.04135786152842e+002	(-5.00207805310901e+001dB,-2.60463596826836e-001°)
1.04159767064525e+002	(-5.00207826111872e+001dB,-2.60523578738588e-001°)
1.04183753498652e+002	(-5.00207846922429e+001dB,-2.60583574464001e-001°)
1.04207745456496e+002	(-5.00207867742575e+001dB,-2.60643584006256e-001°)
1.04231742939329e+002	(-5.00207888572316e+001dB,-2.60703607368535e-001°)
1.04255745948422e+002	(-5.00207909411656e+001dB,-2.60763644554016e-001°)
1.04279754485049e+002	(-5.00207930260598e+001dB,-2.60823695565889e-001°)
1.04303768550482e+002	(-5.00207951119148e+001dB,-2.60883760407338e-001°)
1.04327788145995e+002	(-5.00207971987310e+001dB,-2.60943839081546e-001°)
1.04351813272861e+002	(-5.00207992865088e+001dB,-2.61003931591698e-001°)
1.04375843932353e+002	(-5.00208013752487e+001dB,-2.61064037940984e-001°)
1.04399880125747e+002	(-5.00208034649512e+001dB,-2.61124158132593e-001°)
1.04423921854316e+002	(-5.00208055556166e+001dB,-2.61184292169706e-001°)
1.04447969119335e+002	(-5.00208076472454e+001dB,-2.61244440055515e-001°)
1.04472021922078e+002	(-5.00208097398380e+001dB,-2.61304601793213e-001°)
1.04496080263822e+002	(-5.00208118333950e+001dB,-2.61364777385987e-001°)
1.04520144145842e+002	(-5.00208139279166e+001dB,-2.61424966837028e-001°)
1.04544213569413e+002	(-5.00208160234036e+001dB,-2.61485170149532e-001°)
1.04568288535812e+002	(-5.00208181198561e+001dB,-2.61545387326687e-001°)
1.04592369046315e+002	(-5.00208202172747e+001dB,-2.61605618371689e-001°)
1.04616455102199e+002	(-5.00208223156598e+001dB,-2.61665863287729e-001°)
1.04640546704741e+002	(-5.00208244150119e+001dB,-2.61726122078005e-001°)
1.04664643855218e+002	(-5.00208265153313e+001dB,-2.61786394745709e-001°)
1.04688746554908e+002	(-5.00208286166187e+001dB,-2.61846681294043e-001°)
1.04712854805088e+002	(-5.00208307188744e+001dB,-2.61906981726198e-001°)
1.04736968607038e+002	(-5.00208328220988e+001dB,-2.61967296045377e-001°)
1.04761087962034e+002	(-5.00208349262924e+001dB,-2.62027624254771e-001°)
1.04785212871357e+002	(-5.00208370314557e+001dB,-2.62087966357590e-001°)
1.04809343336286e+002	(-5.00208391375891e+001dB,-2.62148322357024e-001°)
1.04833479358098e+002	(-5.00208412446930e+001dB,-2.62208692256280e-001°)
1.04857620938075e+002	(-5.00208433527679e+001dB,-2.62269076058558e-001°)
1.04881768077497e+002	(-5.00208454618142e+001dB,-2.62329473767056e-001°)
1.04905920777643e+002	(-5.00208475718324e+001dB,-2.62389885384981e-001°)
1.04930079039794e+002	(-5.00208496828229e+001dB,-2.62450310915536e-001°)
1.04954242865230e+002	(-5.00208517947863e+001dB,-2.62510750361926e-001°)
1.04978412255234e+002	(-5.00208539077228e+001dB,-2.62571203727354e-001°)
1.05002587211087e+002	(-5.00208560216330e+001dB,-2.62631671015030e-001°)
1.05026767734069e+002	(-5.00208581365174e+001dB,-2.62692152228153e-001°)
1.05050953825464e+002	(-5.00208602523763e+001dB,-2.62752647369939e-001°)
1.05075145486553e+002	(-5.00208623692103e+001dB,-2.62813156443591e-001°)
1.05099342718620e+002	(-5.00208644870197e+001dB,-2.62873679452320e-001°)
1.05123545522946e+002	(-5.00208666058050e+001dB,-2.62934216399332e-001°)
1.05147753900816e+002	(-5.00208687255668e+001dB,-2.62994767287843e-001°)
1.05171967853513e+002	(-5.00208708463053e+001dB,-2.63055332121058e-001°)
1.05196187382320e+002	(-5.00208729680211e+001dB,-2.63115910902193e-001°)
1.05220412488522e+002	(-5.00208750907147e+001dB,-2.63176503634459e-001°)
1.05244643173403e+002	(-5.00208772143864e+001dB,-2.63237110321070e-001°)
1.05268879438248e+002	(-5.00208793390367e+001dB,-2.63297730965240e-001°)
1.05293121284342e+002	(-5.00208814646661e+001dB,-2.63358365570180e-001°)
1.05317368712970e+002	(-5.00208835912751e+001dB,-2.63419014139110e-001°)
1.05341621725417e+002	(-5.00208857188640e+001dB,-2.63479676675246e-001°)
1.05365880322970e+002	(-5.00208878474334e+001dB,-2.63540353181802e-001°)
1.05390144506914e+002	(-5.00208899769836e+001dB,-2.63601043662001e-001°)
1.05414414278537e+002	(-5.00208921075152e+001dB,-2.63661748119054e-001°)
1.05438689639124e+002	(-5.00208942390286e+001dB,-2.63722466556186e-001°)
1.05462970589963e+002	(-5.00208963715242e+001dB,-2.63783198976615e-001°)
1.05487257132342e+002	(-5.00208985050025e+001dB,-2.63843945383561e-001°)
1.05511549267547e+002	(-5.00209006394639e+001dB,-2.63904705780246e-001°)
1.05535846996867e+002	(-5.00209027749090e+001dB,-2.63965480169893e-001°)
1.05560150321591e+002	(-5.00209049113381e+001dB,-2.64026268555725e-001°)
1.05584459243006e+002	(-5.00209070487517e+001dB,-2.64087070940961e-001°)
1.05608773762401e+002	(-5.00209091871503e+001dB,-2.64147887328833e-001°)
1.05633093881067e+002	(-5.00209113265343e+001dB,-2.64208717722560e-001°)
1.05657419600291e+002	(-5.00209134669041e+001dB,-2.64269562125372e-001°)
1.05681750921364e+002	(-5.00209156082603e+001dB,-2.64330420540493e-001°)
1.05706087845575e+002	(-5.00209177506033e+001dB,-2.64391292971150e-001°)
1.05730430374216e+002	(-5.00209198939335e+001dB,-2.64452179420573e-001°)
1.05754778508577e+002	(-5.00209220382514e+001dB,-2.64513079891990e-001°)
1.05779132249948e+002	(-5.00209241835574e+001dB,-2.64573994388629e-001°)
1.05803491599621e+002	(-5.00209263298520e+001dB,-2.64634922913723e-001°)
1.05827856558887e+002	(-5.00209284771357e+001dB,-2.64695865470504e-001°)
1.05852227129039e+002	(-5.00209306254089e+001dB,-2.64756822062197e-001°)
1.05876603311368e+002	(-5.00209327746721e+001dB,-2.64817792692044e-001°)
1.05900985107166e+002	(-5.00209349249256e+001dB,-2.64878777363272e-001°)
1.05925372517727e+002	(-5.00209370761701e+001dB,-2.64939776079116e-001°)
1.05949765544343e+002	(-5.00209392284059e+001dB,-2.65000788842810e-001°)
1.05974164188308e+002	(-5.00209413816335e+001dB,-2.65061815657595e-001°)
1.05998568450915e+002	(-5.00209435358534e+001dB,-2.65122856526702e-001°)
1.06022978333458e+002	(-5.00209456910659e+001dB,-2.65183911453364e-001°)
1.06047393837231e+002	(-5.00209478472717e+001dB,-2.65244980440830e-001°)
1.06071814963529e+002	(-5.00209500044710e+001dB,-2.65306063492331e-001°)
1.06096241713647e+002	(-5.00209521626644e+001dB,-2.65367160611109e-001°)
1.06120674088879e+002	(-5.00209543218524e+001dB,-2.65428271800400e-001°)
1.06145112090522e+002	(-5.00209564820354e+001dB,-2.65489397063448e-001°)
1.06169555719870e+002	(-5.00209586432138e+001dB,-2.65550536403495e-001°)
1.06194004978220e+002	(-5.00209608053882e+001dB,-2.65611689823784e-001°)
1.06218459866868e+002	(-5.00209629685589e+001dB,-2.65672857327555e-001°)
1.06242920387110e+002	(-5.00209651327265e+001dB,-2.65734038918053e-001°)
1.06267386540244e+002	(-5.00209672978913e+001dB,-2.65795234598520e-001°)
1.06291858327567e+002	(-5.00209694640539e+001dB,-2.65856444372209e-001°)
1.06316335750375e+002	(-5.00209716312147e+001dB,-2.65917668242357e-001°)
1.06340818809967e+002	(-5.00209737993743e+001dB,-2.65978906212216e-001°)
1.06365307507641e+002	(-5.00209759685329e+001dB,-2.66040158285033e-001°)
1.06389801844696e+002	(-5.00209781386911e+001dB,-2.66101424464054e-001°)
1.06414301822429e+002	(-5.00209803098495e+001dB,-2.66162704752532e-001°)
1.06438807442140e+002	(-5.00209824820082e+001dB,-2.66223999153708e-001°)
1.06463318705129e+002	(-5.00209846551681e+001dB,-2.66285307670843e-001°)
