Freq.	V(outder)
1.00000000000000e+001	(-3.63242965954303e+001dB,8.99892611950778e+001°)
1.02329299228075e+001	(-3.61242965976676e+001dB,8.99890110561775e+001°)
1.04712854805090e+001	(-3.59242966000104e+001dB,8.99887550907936e+001°)
1.07151930523761e+001	(-3.57242966024637e+001dB,8.99884931632101e+001°)
1.09647819614319e+001	(-3.55242966050325e+001dB,8.99882251345494e+001°)
1.12201845430196e+001	(-3.53242966077224e+001dB,8.99879508626991e+001°)
1.14815362149688e+001	(-3.51242966105391e+001dB,8.99876702022367e+001°)
1.17489755493953e+001	(-3.49242966134885e+001dB,8.99873830043523e+001°)
1.20226443461741e+001	(-3.47242966165770e+001dB,8.99870891167698e+001°)
1.23026877081238e+001	(-3.45242966198109e+001dB,8.99867883836661e+001°)
1.25892541179417e+001	(-3.43242966231973e+001dB,8.99864806455884e+001°)
1.28824955169313e+001	(-3.41242966267433e+001dB,8.99861657393701e+001°)
1.31825673855641e+001	(-3.39242966304564e+001dB,8.99858434980437e+001°)
1.34896288259165e+001	(-3.37242966343445e+001dB,8.99855137507525e+001°)
1.38038426460288e+001	(-3.35242966384159e+001dB,8.99851763226602e+001°)
1.41253754462275e+001	(-3.33242966426791e+001dB,8.99848310348579e+001°)
1.44543977074593e+001	(-3.31242966471433e+001dB,8.99844777042694e+001°)
1.47910838816821e+001	(-3.29242966518178e+001dB,8.99841161435542e+001°)
1.51356124843621e+001	(-3.27242966567126e+001dB,8.99837461610081e+001°)
1.54881661891248e+001	(-3.25242966618381e+001dB,8.99833675604613e+001°)
1.58489319246111e+001	(-3.23242966672052e+001dB,8.99829801411749e+001°)
1.62181009735893e+001	(-3.21242966728252e+001dB,8.99825836977340e+001°)
1.65958690743756e+001	(-3.19242966787101e+001dB,8.99821780199390e+001°)
1.69824365246174e+001	(-3.17242966848723e+001dB,8.99817628926942e+001°)
1.73780082874937e+001	(-3.15242966913250e+001dB,8.99813380958936e+001°)
1.77827941003892e+001	(-3.13242966980817e+001dB,8.99809034043044e+001°)
1.81970085860998e+001	(-3.11242967051569e+001dB,8.99804585874473e+001°)
1.86208713666287e+001	(-3.09242967125656e+001dB,8.99800034094745e+001°)
1.90546071796325e+001	(-3.07242967203233e+001dB,8.99795376290446e+001°)
1.94984459975804e+001	(-3.05242967284467e+001dB,8.99790609991947e+001°)
1.99526231496888e+001	(-3.03242967369530e+001dB,8.99785732672092e+001°)
2.04173794466953e+001	(-3.01242967458601e+001dB,8.99780741744864e+001°)
2.08929613085404e+001	(-2.99242967551870e+001dB,8.99775634564004e+001°)
2.13796208950223e+001	(-2.97242967649535e+001dB,8.99770408421620e+001°)
2.18776162394955e+001	(-2.95242967751803e+001dB,8.99765060546739e+001°)
2.23872113856834e+001	(-2.93242967858890e+001dB,8.99759588103850e+001°)
2.29086765276777e+001	(-2.91242967971024e+001dB,8.99753988191389e+001°)
2.34422881531992e+001	(-2.89242968088443e+001dB,8.99748257840209e+001°)
2.39883291901949e+001	(-2.87242968211396e+001dB,8.99742394012001e+001°)
2.45470891568503e+001	(-2.85242968340143e+001dB,8.99736393597687e+001°)
2.51188643150958e+001	(-2.83242968474958e+001dB,8.99730253415767e+001°)
2.57039578276886e+001	(-2.81242968616126e+001dB,8.99723970210635e+001°)
2.63026799189538e+001	(-2.79242968763948e+001dB,8.99717540650852e+001°)
2.69153480392691e+001	(-2.77242968918736e+001dB,8.99710961327381e+001°)
2.75422870333816e+001	(-2.75242969080819e+001dB,8.99704228751776e+001°)
2.81838293126445e+001	(-2.73242969250541e+001dB,8.99697339354338e+001°)
2.88403150312660e+001	(-2.71242969428261e+001dB,8.99690289482216e+001°)
2.95120922666638e+001	(-2.69242969614358e+001dB,8.99683075397474e+001°)
3.01995172040201e+001	(-2.67242969809225e+001dB,8.99675693275108e+001°)
3.09029543251359e+001	(-2.65242970013275e+001dB,8.99668139201020e+001°)
3.16227766016838e+001	(-2.63242970226943e+001dB,8.99660409169940e+001°)
3.23593656929628e+001	(-2.61242970450679e+001dB,8.99652499083301e+001°)
3.31131121482591e+001	(-2.59242970684961e+001dB,8.99644404747071e+001°)
3.38844156139202e+001	(-2.57242970930284e+001dB,8.99636121869526e+001°)
3.46736850452531e+001	(-2.55242971187168e+001dB,8.99627646058973e+001°)
3.54813389233575e+001	(-2.53242971456159e+001dB,8.99618972821426e+001°)
3.63078054770101e+001	(-2.51242971737827e+001dB,8.99610097558218e+001°)
3.71535229097172e+001	(-2.49242972032770e+001dB,8.99601015563568e+001°)
3.80189396320561e+001	(-2.47242972341613e+001dB,8.99591722022080e+001°)
3.89045144994280e+001	(-2.45242972665012e+001dB,8.99582212006195e+001°)
3.98107170553497e+001	(-2.43242973003652e+001dB,8.99572480473577e+001°)
4.07380277804112e+001	(-2.41242973358251e+001dB,8.99562522264437e+001°)
4.16869383470335e+001	(-2.39242973729562e+001dB,8.99552332098801e+001°)
4.26579518801592e+001	(-2.37242974118372e+001dB,8.99541904573707e+001°)
4.36515832240165e+001	(-2.35242974525507e+001dB,8.99531234160342e+001°)
4.46683592150962e+001	(-2.33242974951829e+001dB,8.99520315201112e+001°)
4.57088189614874e+001	(-2.31242975398243e+001dB,8.99509141906638e+001°)
4.67735141287197e+001	(-2.29242975865696e+001dB,8.99497708352690e+001°)
4.78630092322638e+001	(-2.27242976355180e+001dB,8.99486008477047e+001°)
4.89778819368445e+001	(-2.25242976867732e+001dB,8.99474036076278e+001°)
5.01187233627271e+001	(-2.23242977404439e+001dB,8.99461784802457e+001°)
5.12861383991364e+001	(-2.21242977966442e+001dB,8.99449248159794e+001°)
5.24807460249772e+001	(-2.19242978554930e+001dB,8.99436419501194e+001°)
5.37031796370252e+001	(-2.17242979171153e+001dB,8.99423292024732e+001°)
5.49540873857624e+001	(-2.15242979816418e+001dB,8.99409858770044e+001°)
5.62341325190348e+001	(-2.13242980492093e+001dB,8.99396112614639e+001°)
5.75439937337156e+001	(-2.11242981199612e+001dB,8.99382046270121e+001°)
5.88843655355588e+001	(-2.09242981940475e+001dB,8.99367652278327e+001°)
6.02559586074357e+001	(-2.07242982716254e+001dB,8.99352923007368e+001°)
6.16595001861481e+001	(-2.05242983528595e+001dB,8.99337850647590e+001°)
6.30957344480192e+001	(-2.03242984379220e+001dB,8.99322427207424e+001°)
6.45654229034654e+001	(-2.01242985269933e+001dB,8.99306644509156e+001°)
6.60693448007595e+001	(-1.99242986202625e+001dB,8.99290494184587e+001°)
6.76082975391980e+001	(-1.97242987179273e+001dB,8.99273967670599e+001°)
6.91830970918935e+001	(-1.95242988201949e+001dB,8.99257056204613e+001°)
7.07945784384136e+001	(-1.93242989272822e+001dB,8.99239750819940e+001°)
7.24435960074988e+001	(-1.91242990394164e+001dB,8.99222042341035e+001°)
7.41310241300916e+001	(-1.89242991568354e+001dB,8.99203921378622e+001°)
7.58577575029182e+001	(-1.87242992797881e+001dB,8.99185378324725e+001°)
7.76247116628690e+001	(-1.85242994085354e+001dB,8.99166403347564e+001°)
7.94328234724279e+001	(-1.83242995433504e+001dB,8.99146986386353e+001°)
8.12830516164097e+001	(-1.81242996845191e+001dB,8.99127117145955e+001°)
8.31763771102669e+001	(-1.79242998323408e+001dB,8.99106785091430e+001°)
8.51138038202374e+001	(-1.77242999871291e+001dB,8.99085979442450e+001°)
8.70963589956078e+001	(-1.75243001492124e+001dB,8.99064689167576e+001°)
8.91250938133743e+001	(-1.73243003189345e+001dB,8.99042902978416e+001°)
9.12010839355907e+001	(-1.71243004966553e+001dB,8.99020609323638e+001°)
9.33254300796988e+001	(-1.69243006827519e+001dB,8.98997796382841e+001°)
9.54992586021433e+001	(-1.67243008776189e+001dB,8.98974452060296e+001°)
9.77237220955808e+001	(-1.65243010816698e+001dB,8.98950563978524e+001°)
9.99999999999997e+001	(-1.63243012953373e+001dB,8.98926119471738e+001°)
1.02329299228075e+002	(-1.61243015190746e+001dB,8.98901105579127e+001°)
1.04712854805090e+002	(-1.59243017533564e+001dB,8.98875509037984e+001°)
1.07151930523760e+002	(-1.57243019986795e+001dB,8.98849316276670e+001°)
1.09647819614318e+002	(-1.55243022555644e+001dB,8.98822513407425e+001°)
1.12201845430196e+002	(-1.53243025245560e+001dB,8.98795086218999e+001°)
1.14815362149688e+002	(-1.51243028062247e+001dB,8.98767020169119e+001°)
1.17489755493953e+002	(-1.49243031011681e+001dB,8.98738300376779e+001°)
1.20226443461741e+002	(-1.47243034100118e+001dB,8.98708911614347e+001°)
1.23026877081238e+002	(-1.45243037334109e+001dB,8.98678838299496e+001°)
1.25892541179416e+002	(-1.43243040720513e+001dB,8.98648064486935e+001°)
1.28824955169313e+002	(-1.41243044266514e+001dB,8.98616573859962e+001°)
1.31825673855640e+002	(-1.39243047979634e+001dB,8.98584349721808e+001°)
1.34896288259165e+002	(-1.37243051867747e+001dB,8.98551374986784e+001°)
1.38038426460288e+002	(-1.35243055939103e+001dB,8.98517632171224e+001°)
1.41253754462275e+002	(-1.33243060202336e+001dB,8.98483103384214e+001°)
1.44543977074592e+002	(-1.31243064666490e+001dB,8.98447770318103e+001°)
1.47910838816820e+002	(-1.29243069341033e+001dB,8.98411614238803e+001°)
1.51356124843620e+002	(-1.27243074235882e+001dB,8.98374615975848e+001°)
1.54881661891248e+002	(-1.25243079361419e+001dB,8.98336755912233e+001°)
1.58489319246111e+002	(-1.23243084728516e+001dB,8.98298013974013e+001°)
1.62181009735892e+002	(-1.21243090348557e+001dB,8.98258369619659e+001°)
1.65958690743755e+002	(-1.19243096233463e+001dB,8.98217801829165e+001°)
1.69824365246174e+002	(-1.17243102395718e+001dB,8.98176289092904e+001°)
1.73780082874937e+002	(-1.15243108848392e+001dB,8.98133809400224e+001°)
1.77827941003892e+002	(-1.13243115605173e+001dB,8.98090340227776e+001°)
1.81970085860998e+002	(-1.11243122680393e+001dB,8.98045858527571e+001°)
1.86208713666286e+002	(-1.09243130089059e+001dB,8.98000340714760e+001°)
1.90546071796324e+002	(-1.07243137846887e+001dB,8.97953762655130e+001°)
1.94984459975804e+002	(-1.05243145970332e+001dB,8.97906099652306e+001°)
1.99526231496887e+002	(-1.03243154476626e+001dB,8.97857326434657e+001°)
2.04173794466952e+002	(-1.01243163383811e+001dB,8.97807417141894e+001°)
2.08929613085403e+002	(-9.92431727107819e+000dB,8.97756345311364e+001°)
2.13796208950222e+002	(-9.72431824773223e+000dB,8.97704083864010e+001°)
2.18776162394954e+002	(-9.52431927041486e+000dB,8.97650605090022e+001°)
2.23872113856833e+002	(-9.32432034129542e+000dB,8.97595880634137e+001°)
2.29086765276776e+002	(-9.12432146264541e+000dB,8.97539881480609e+001°)
2.34422881531991e+002	(-8.92432263684342e+000dB,8.97482577937822e+001°)
2.39883291901948e+002	(-8.72432386638016e+000dB,8.97423939622545e+001°)
2.45470891568502e+002	(-8.52432515386371e+000dB,8.97363935443826e+001°)
2.51188643150957e+002	(-8.32432650202505e+000dB,8.97302533586503e+001°)
2.57039578276885e+002	(-8.12432791372389e+000dB,8.97239701494334e+001°)
2.63026799189537e+002	(-7.92432939195475e+000dB,8.97175405852737e+001°)
2.69153480392690e+002	(-7.72433093985322e+000dB,8.97109612571125e+001°)
2.75422870333816e+002	(-7.52433256070272e+000dB,8.97042286764828e+001°)
2.81838293126444e+002	(-7.32433425794142e+000dB,8.96973392736597e+001°)
2.88403150312659e+002	(-7.12433603516948e+000dB,8.96902893957676e+001°)
2.95120922666637e+002	(-6.92433789615682e+000dB,8.96830753048431e+001°)
3.01995172040200e+002	(-6.72433984485098e+000dB,8.96756931758532e+001°)
3.09029543251358e+002	(-6.52434188538557e+000dB,8.96681390946671e+001°)
3.16227766016837e+002	(-6.32434402208901e+000dB,8.96604090559806e+001°)
3.23593656929627e+002	(-6.12434625949376e+000dB,8.96524989611921e+001°)
3.31131121482590e+002	(-5.92434860234586e+000dB,8.96444046162298e+001°)
3.38844156139201e+002	(-5.72435105561507e+000dB,8.96361217293275e+001°)
3.46736850452530e+002	(-5.52435362450536e+000dB,8.96276459087488e+001°)
3.54813389233574e+002	(-5.32435631446598e+000dB,8.96189726604584e+001°)
3.63078054770100e+002	(-5.12435913120301e+000dB,8.96100973857394e+001°)
3.71535229097171e+002	(-4.92436208069151e+000dB,8.96010153787542e+001°)
3.80189396320559e+002	(-4.72436516918810e+000dB,8.95917218240496e+001°)
3.89045144994279e+002	(-4.52436840324432e+000dB,8.95822117940034e+001°)
3.98107170553495e+002	(-4.32437178972051e+000dB,8.95724802462110e+001°)
4.07380277804111e+002	(-4.12437533580034e+000dB,8.95625220208120e+001°)
4.16869383470333e+002	(-3.92437904900608e+000dB,8.95523318377538e+001°)
4.26579518801591e+002	(-3.72438293721454e+000dB,8.95419042939918e+001°)
4.36515832240164e+002	(-3.52438700867382e+000dB,8.95312338606244e+001°)
4.46683592150961e+002	(-3.32439127202075e+000dB,8.95203148799607e+001°)
4.57088189614873e+002	(-3.12439573629927e+000dB,8.95091415625210e+001°)
4.67735141287196e+002	(-2.92440041097960e+000dB,8.94977079839661e+001°)
4.78630092322636e+002	(-2.72440530597832e+000dB,8.94860080819558e+001°)
4.89778819368444e+002	(-2.52441043167945e+000dB,8.94740356529343e+001°)
5.01187233627270e+002	(-2.32441579895645e+000dB,8.94617843488402e+001°)
5.12861383991362e+002	(-2.12442141919531e+000dB,8.94492476737404e+001°)
5.24807460249770e+002	(-1.92442730431872e+000dB,8.94364189803847e+001°)
5.37031796370250e+002	(-1.72443346681131e+000dB,8.94232914666814e+001°)
5.49540873857622e+002	(-1.52443991974629e+000dB,8.94098581720893e+001°)
5.62341325190346e+002	(-1.32444667681301e+000dB,8.93961119739270e+001°)
5.75439937337154e+002	(-1.12445375234614e+000dB,8.93820455835952e+001°)
5.88843655355586e+002	(-9.24461161356054e-001dB,8.93676515427114e+001°)
6.02559586074355e+002	(-7.24468919560692e-001dB,8.93529222191544e+001°)
6.16595001861479e+002	(-5.24477043418913e-001dB,8.93378498030165e+001°)
6.30957344480190e+002	(-3.24485550165415e-001dB,8.93224263024621e+001°)
6.45654229034652e+002	(-1.24494457847380e-001dB,8.93066435394884e+001°)
6.60693448007592e+002	(7.54962146373200e-002dB,8.92904931455885e+001°)
6.76082975391978e+002	(2.75486447499901e-001dB,8.92739665573131e+001°)
6.91830970918933e+002	(4.75476220018749e-001dB,8.92570550117282e+001°)
7.07945784384134e+002	(6.75465510495348e-001dB,8.92397495417680e+001°)
7.24435960074986e+002	(8.75454296208307e-001dB,8.92220409714781e+001°)
7.41310241300914e+002	(1.07544255336504e+000dB,8.92039199111490e+001°)
7.58577575029180e+002	(1.27543025705131e+000dB,8.91853767523358e+001°)
7.76247116628688e+002	(1.47541738117826e+000dB,8.91664016627611e+001°)
7.94328234724277e+002	(1.67540389842715e+000dB,8.91469845811004e+001°)
8.12830516164095e+002	(1.87538978019115e+000dB,8.91271152116447e+001°)
8.31763771102666e+002	(2.07537499651480e+000dB,8.91067830188390e+001°)
8.51138038202372e+002	(2.27535951603026e+000dB,8.90859772216943e+001°)
8.70963589956076e+002	(2.47534330589073e+000dB,8.90646867880678e+001°)
8.91250938133741e+002	(2.67532633170069e+000dB,8.90429004288107e+001°)
9.12010839355905e+002	(2.87530855744287e+000dB,8.90206065917796e+001°)
9.33254300796986e+002	(3.07528994540170e+000dB,8.89977934557078e+001°)
9.54992586021431e+002	(3.27527045608320e+000dB,8.89744489239337e+001°)
9.77237220955805e+002	(3.47525004813111e+000dB,8.89505606179832e+001°)
9.99999999999994e+002	(3.67522867823899e+000dB,8.89261158710021e+001°)
1.02329299228075e+003	(3.87520630105821e+000dB,8.89011017210353e+001°)
1.04712854805089e+003	(4.07518286910162e+000dB,8.88755049041499e+001°)
1.07151930523760e+003	(4.27515833264259e+000dB,8.88493118473967e+001°)
1.09647819614318e+003	(4.47513263960936e+000dB,8.88225086616080e+001°)
1.12201845430196e+003	(4.67510573547435e+000dB,8.87950811340282e+001°)
1.14815362149688e+003	(4.87507756313825e+000dB,8.87670147207707e+001°)
1.17489755493952e+003	(5.07504806280865e+000dB,8.87382945391001e+001°)
1.20226443461741e+003	(5.27501717187288e+000dB,8.87089053595340e+001°)
1.23026877081237e+003	(5.47498482476489e+000dB,8.86788315977602e+001°)
1.25892541179416e+003	(5.67495095282585e+000dB,8.86480573063648e+001°)
1.28824955169313e+003	(5.87491548415807e+000dB,8.86165661663685e+001°)
1.31825673855640e+003	(6.07487834347211e+000dB,8.85843414785637e+001°)
1.34896288259165e+003	(6.27483945192657e+000dB,8.85513661546506e+001°)
1.38038426460288e+003	(6.47479872696037e+000dB,8.85176227081652e+001°)
1.41253754462275e+003	(6.67475608211705e+000dB,8.84830932451966e+001°)
1.44543977074592e+003	(6.87471142686073e+000dB,8.84477594548861e+001°)
1.47910838816820e+003	(7.07466466638348e+000dB,8.84116025997053e+001°)
1.51356124843620e+003	(7.27461570140333e+000dB,8.83746035055069e+001°)
1.54881661891247e+003	(7.47456442795302e+000dB,8.83367425513424e+001°)
1.58489319246110e+003	(7.67451073715846e+000dB,8.82979996590427e+001°)
1.62181009735892e+003	(7.87445451500682e+000dB,8.82583542825543e+001°)
1.65958690743755e+003	(8.07439564210368e+000dB,8.82177853970266e+001°)
1.69824365246173e+003	(8.27433399341853e+000dB,8.81762714876440e+001°)
1.73780082874936e+003	(8.47426943801829e+000dB,8.81337905381968e+001°)
1.77827941003891e+003	(8.67420183878814e+000dB,8.80903200193844e+001°)
1.81970085860997e+003	(8.87413105213917e+000dB,8.80458368768451e+001°)
1.86208713666286e+003	(9.07405692770205e+000dB,8.80003175189062e+001°)
1.90546071796323e+003	(9.27397930800621e+000dB,8.79537378040466e+001°)
1.94984459975803e+003	(9.47389802814379e+000dB,8.79060730280660e+001°)
1.99526231496887e+003	(9.67381291541756e+000dB,8.78572979109545e+001°)
2.04173794466952e+003	(9.87372378897219e+000dB,8.78073865834534e+001°)
2.08929613085403e+003	(1.00736304594079e+001dB,8.77563125733021e+001°)
2.13796208950222e+003	(1.02735327283756e+001dB,8.77040487911624e+001°)
2.18776162394954e+003	(1.04734303881533e+001dB,8.76505675162128e+001°)
2.23872113856832e+003	(1.06733232212014e+001dB,8.75958403814053e+001°)
2.29086765276776e+003	(1.08732109996979e+001dB,8.75398383583761e+001°)
2.34422881531991e+003	(1.10730934850505e+001dB,8.74825317420028e+001°)
2.39883291901947e+003	(1.12729704273859e+001dB,8.74238901345987e+001°)
2.45470891568501e+003	(1.14728415650146e+001dB,8.73638824297365e+001°)
2.51188643150956e+003	(1.16727066238704e+001dB,8.73024767956926e+001°)
2.57039578276885e+003	(1.18725653169225e+001dB,8.72396406585011e+001°)
2.63026799189536e+003	(1.20724173435603e+001dB,8.71753406846118e+001°)
2.69153480392690e+003	(1.22722623889481e+001dB,8.71095427631384e+001°)
2.75422870333815e+003	(1.24721001233491e+001dB,8.70422119876915e+001°)
2.81838293126443e+003	(1.26719302014170e+001dB,8.69733126377827e+001°)
2.88403150312659e+003	(1.28717522614542e+001dB,8.69028081597920e+001°)
2.95120922666636e+003	(1.30715659246330e+001dB,8.68306611474873e+001°)
3.01995172040199e+003	(1.32713707941811e+001dB,8.67568333220847e+001°)
3.09029543251357e+003	(1.34711664545266e+001dB,8.66812855118402e+001°)
3.16227766016836e+003	(1.36709524704027e+001dB,8.66039776311593e+001°)
3.23593656929626e+003	(1.38707283859086e+001dB,8.65248686592152e+001°)
3.31131121482589e+003	(1.40704937235261e+001dB,8.64439166180622e+001°)
3.38844156139200e+003	(1.42702479830874e+001dB,8.63610785502335e+001°)
3.46736850452529e+003	(1.44699906406944e+001dB,8.62763104958093e+001°)
3.54813389233573e+003	(1.46697211475847e+001dB,8.61895674689445e+001°)
3.63078054770099e+003	(1.48694389289436e+001dB,8.61008034338414e+001°)
3.71535229097170e+003	(1.50691433826574e+001dB,8.60099712801554e+001°)
3.80189396320558e+003	(1.52688338780077e+001dB,8.59170227978182e+001°)
3.89045144994278e+003	(1.54685097543006e+001dB,8.58219086512670e+001°)
3.98107170553494e+003	(1.56681703194305e+001dB,8.57245783530631e+001°)
4.07380277804110e+003	(1.58678148483731e+001dB,8.56249802368869e+001°)
4.16869383470332e+003	(1.60674425816058e+001dB,8.55230614298933e+001°)
4.26579518801589e+003	(1.62670527234496e+001dB,8.54187678244123e+001°)
4.36515832240162e+003	(1.64666444403309e+001dB,8.53120440489798e+001°)
4.46683592150960e+003	(1.66662168589579e+001dB,8.52028334386819e+001°)
4.57088189614871e+003	(1.68657690644071e+001dB,8.50910780047960e+001°)
4.67735141287194e+003	(1.70653000981160e+001dB,8.49767184037127e+001°)
4.78630092322634e+003	(1.72648089557767e+001dB,8.48596939051209e+001°)
4.89778819368442e+003	(1.74642945851258e+001dB,8.47399423594386e+001°)
5.01187233627268e+003	(1.76637558836246e+001dB,8.46174001644712e+001°)
5.12861383991361e+003	(1.78631916960243e+001dB,8.44920022312800e+001°)
5.24807460249768e+003	(1.80626008118111e+001dB,8.43636819492406e+001°)
5.37031796370248e+003	(1.82619819625226e+001dB,8.42323711502743e+001°)
5.49540873857620e+003	(1.84613338189323e+001dB,8.40980000722314e+001°)
5.62341325190344e+003	(1.86606549880912e+001dB,8.39604973214074e+001°)
5.75439937337152e+003	(1.88599440102231e+001dB,8.38197898341725e+001°)
5.88843655355584e+003	(1.90591993554623e+001dB,8.36758028376930e+001°)
