Freq.	V(outint)/V(Vin)
1.00000000000000e+001	(1.00772887999134e+001dB,1.76329616776232e+002°)
1.02329299228075e+001	(1.00764505049964e+001dB,1.76244364295000e+002°)
1.04712854805090e+001	(1.00755728756288e+001dB,1.76157143255084e+002°)
1.07151930523761e+001	(1.00746540757125e+001dB,1.76067909027367e+002°)
1.09647819614319e+001	(1.00736921819919e+001dB,1.75976616030360e+002°)
1.12201845430196e+001	(1.00726851838814e+001dB,1.75883217712775e+002°)
1.14815362149688e+001	(1.00716309781474e+001dB,1.75787666538926e+002°)
1.17489755493953e+001	(1.00705273632616e+001dB,1.75689913971065e+002°)
1.20226443461741e+001	(1.00693720369879e+001dB,1.75589910456706e+002°)
1.23026877081238e+001	(1.00681625905264e+001dB,1.75487605408356e+002°)
1.25892541179417e+001	(1.00668965064894e+001dB,1.75382947191683e+002°)
1.28824955169313e+001	(1.00655711487907e+001dB,1.75275883109520e+002°)
1.31825673855641e+001	(1.00641837625261e+001dB,1.75166359383668e+002°)
1.34896288259165e+001	(1.00627314648146e+001dB,1.75054321145515e+002°)
1.38038426460288e+001	(1.00612112439865e+001dB,1.74939712416693e+002°)
1.41253754462275e+001	(1.00596199466938e+001dB,1.74822476098896e+002°)
1.44543977074593e+001	(1.00579542782624e+001dB,1.74702553956696e+002°)
1.47910838816821e+001	(1.00562107946248e+001dB,1.74579886608623e+002°)
1.51356124843621e+001	(1.00543858930141e+001dB,1.74454413511696e+002°)
1.54881661891248e+001	(1.00524758071414e+001dB,1.74326072951552e+002°)
1.58489319246111e+001	(1.00504766018583e+001dB,1.74194802031209e+002°)
1.62181009735893e+001	(1.00483841636031e+001dB,1.74060536660493e+002°)
1.65958690743756e+001	(1.00461941909113e+001dB,1.73923211546564e+002°)
1.69824365246174e+001	(1.00439021914734e+001dB,1.73782760188597e+002°)
1.73780082874937e+001	(1.00415034691390e+001dB,1.73639114866998e+002°)
1.77827941003892e+001	(1.00389931170549e+001dB,1.73492206641031e+002°)
1.81970085860998e+001	(1.00363660112042e+001dB,1.73341965343897e+002°)
1.86208713666287e+001	(1.00336167953658e+001dB,1.73188319576237e+002°)
1.90546071796325e+001	(1.00307398767171e+001dB,1.73031196712329e+002°)
1.94984459975804e+001	(1.00277294144571e+001dB,1.72870522893181e+002°)
1.99526231496888e+001	(1.00245793084442e+001dB,1.72706223033936e+002°)
2.04173794466953e+001	(1.00212831900718e+001dB,1.72538220827233e+002°)
2.08929613085404e+001	(1.00178344090148e+001dB,1.72366438747829e+002°)
2.13796208950223e+001	(1.00142260259152e+001dB,1.72190798066301e+002°)
2.18776162394955e+001	(1.00104507942626e+001dB,1.72011218856305e+002°)
2.23872113856834e+001	(1.00065011562924e+001dB,1.71827620012873e+002°)
2.29086765276777e+001	(1.00023692237487e+001dB,1.71639919267048e+002°)
2.34422881531992e+001	(9.99804676843068e+000dB,1.71448033209385e+002°)
2.39883291901949e+001	(9.99352520851247e+000dB,1.71251877313239e+002°)
2.45470891568503e+001	(9.98879559398771e+000dB,1.71051365963259e+002°)
2.51188643150958e+001	(9.98384859419007e+000dB,1.70846412484272e+002°)
2.57039578276886e+001	(9.97867448194128e+000dB,1.70636929185854e+002°)
2.63026799189538e+001	(9.97326311987712e+000dB,1.70422827389999e+002°)
2.69153480392691e+001	(9.96760394622785e+000dB,1.70204017490609e+002°)
2.75422870333816e+001	(9.96168595666087e+000dB,1.69980408993779e+002°)
2.81838293126445e+001	(9.95549769210839e+000dB,1.69751910579466e+002°)
2.88403150312660e+001	(9.94902722071786e+000dB,1.69518430161195e+002°)
2.95120922666638e+001	(9.94226212198276e+000dB,1.69279874948342e+002°)
3.01995172040201e+001	(9.93518947057853e+000dB,1.69036151536445e+002°)
3.09029543251359e+001	(9.92779581961736e+000dB,1.68787165967218e+002°)
3.16227766016838e+001	(9.92006718472135e+000dB,1.68532823830565e+002°)
3.23593656929628e+001	(9.91198902402472e+000dB,1.68273030355616e+002°)
3.31131121482591e+001	(9.90354622608031e+000dB,1.68007690513962e+002°)
3.38844156139202e+001	(9.89472308697333e+000dB,1.67736709128130e+002°)
3.46736850452531e+001	(9.88550329850994e+000dB,1.67459990999783e+002°)
3.54813389233575e+001	(9.87586992768489e+000dB,1.67177441027492e+002°)
3.63078054770101e+001	(9.86580540014075e+000dB,1.66888964352160e+002°)
3.71535229097172e+001	(9.85529148477018e+000dB,1.66594466505028e+002°)
3.80189396320561e+001	(9.84430927739761e+000dB,1.66293853559602e+002°)
3.89045144994280e+001	(9.83283918221135e+000dB,1.65987032307854e+002°)
3.98107170553497e+001	(9.82086089894322e+000dB,1.65673910431295e+002°)
4.07380277804112e+001	(9.80835340509262e+000dB,1.65354396697245e+002°)
4.16869383470335e+001	(9.79529494506173e+000dB,1.65028401156085e+002°)
4.26579518801592e+001	(9.78166301242300e+000dB,1.64695835355236e+002°)
4.36515832240165e+001	(9.76743433927706e+000dB,1.64356612563040e+002°)
4.46683592150962e+001	(9.75258488559738e+000dB,1.64010648010348e+002°)
4.57088189614874e+001	(9.73708982710715e+000dB,1.63657859133291e+002°)
4.67735141287197e+001	(9.72092354561907e+000dB,1.63298165831365e+002°)
4.78630092322638e+001	(9.70405962222071e+000dB,1.62931490753813e+002°)
4.89778819368445e+001	(9.68647083280627e+000dB,1.62557759571715e+002°)
5.01187233627271e+001	(9.66812914064394e+000dB,1.62176901280401e+002°)
5.12861383991364e+001	(9.64900569681543e+000dB,1.61788848513302e+002°)
5.24807460249772e+001	(9.62907083736050e+000dB,1.61393537852977e+002°)
5.37031796370252e+001	(9.60829409024172e+000dB,1.60990910168743e+002°)
5.49540873857624e+001	(9.58664417589114e+000dB,1.60580910964742e+002°)
5.62341325190348e+001	(9.56408901597127e+000dB,1.60163490722933e+002°)
5.75439937337156e+001	(9.54059574884947e+000dB,1.59738605271081e+002°)
5.88843655355588e+001	(9.51613073442508e+000dB,1.59306216151573e+002°)
6.02559586074357e+001	(9.49065958080642e+000dB,1.58866290998054e+002°)
6.16595001861481e+001	(9.46414715962313e+000dB,1.58418803922415e+002°)
6.30957344480192e+001	(9.43655763378698e+000dB,1.57963735902990e+002°)
6.45654229034654e+001	(9.40785448519123e+000dB,1.57501075169894e+002°)
6.60693448007595e+001	(9.37800054712650e+000dB,1.57030817610563e+002°)
6.76082975391980e+001	(9.34695804391982e+000dB,1.56552967155673e+002°)
6.91830970918935e+001	(9.31468863161212e+000dB,1.56067536173419e+002°)
7.07945784384136e+001	(9.28115344280644e+000dB,1.55574545854393e+002°)
7.24435960074988e+001	(9.24631314213665e+000dB,1.55074026593866e+002°)
7.41310241300916e+001	(9.21012797986926e+000dB,1.54566018365971e+002°)
7.58577575029182e+001	(9.17255785275006e+000dB,1.54050571076086e+002°)
7.76247116628690e+001	(9.13356237133766e+000dB,1.53527744917931e+002°)
7.94328234724279e+001	(9.09310093270338e+000dB,1.52997610682279e+002°)
8.12830516164097e+001	(9.05113279218423e+000dB,1.52460250089336e+002°)
8.31763771102669e+001	(9.00761714841945e+000dB,1.51915756045460e+002°)
8.51138038202374e+001	(8.96251322732171e+000dB,1.51364232929548e+002°)
8.70963589956078e+001	(8.91578037191989e+000dB,1.50805796793274e+002°)
8.91250938133743e+001	(8.86737813714206e+000dB,1.50240575575067e+002°)
9.12010839355907e+001	(8.81726638983735e+000dB,1.49668709243898e+002°)
9.33254300796988e+001	(8.76540540681692e+000dB,1.49090349922573e+002°)
9.54992586021433e+001	(8.71175598513861e+000dB,1.48505661979219e+002°)
9.77237220955808e+001	(8.65627954816602e+000dB,1.47914822037237e+002°)
9.99999999999997e+001	(8.59893825660932e+000dB,1.47318018971918e+002°)
1.02329299228075e+002	(8.53969512097708e+000dB,1.46715453843773e+002°)
1.04712854805090e+002	(8.47851411521858e+000dB,1.46107339778650e+002°)
1.07151930523760e+002	(8.41536029422279e+000dB,1.45493901791844e+002°)
1.09647819614318e+002	(8.35019990416343e+000dB,1.44875376571927e+002°)
1.12201845430196e+002	(8.28300049882754e+000dB,1.44252012191495e+002°)
1.14815362149688e+002	(8.21373105203494e+000dB,1.43624067766398e+002°)
1.17489755493953e+002	(8.14236206851093e+000dB,1.42991813063860e+002°)
1.20226443461741e+002	(8.06886568865419e+000dB,1.42355528042937e+002°)
1.23026877081238e+002	(7.99321579303946e+000dB,1.41715502348331e+002°)
1.25892541179416e+002	(7.91538810527978e+000dB,1.41072034747895e+002°)
1.28824955169313e+002	(7.83536027822610e+000dB,1.40425432519191e+002°)
1.31825673855640e+002	(7.75311198899901e+000dB,1.39776010778576e+002°)
1.34896288259165e+002	(7.66862501554009e+000dB,1.39124091775761e+002°)
1.38038426460288e+002	(7.58188331133627e+000dB,1.38470004131247e+002°)
1.41253754462275e+002	(7.49287307103481e+000dB,1.37814082061798e+002°)
1.44543977074592e+002	(7.40158278817572e+000dB,1.37156664511525e+002°)
1.47910838816820e+002	(7.30800330083257e+000dB,1.36498094341973e+002°)
1.51356124843620e+002	(7.21212783248605e+000dB,1.35838717412413e+002°)
1.54881661891248e+002	(7.11395201924870e+000dB,1.35178881693641e+002°)
1.58489319246111e+002	(7.01347392821260e+000dB,1.34518936343228e+002°)
1.62181009735892e+002	(6.91069406573237e+000dB,1.33859230789365e+002°)
1.65958690743755e+002	(6.80561537631861e+000dB,1.33200113800950e+002°)
1.69824365246174e+002	(6.69824322845567e+000dB,1.32541932566869e+002°)
1.73780082874937e+002	(6.58858539355204e+000dB,1.31885031775904e+002°)
1.77827941003892e+002	(6.47665201167409e+000dB,1.31229752745105e+002°)
1.81970085860998e+002	(6.36245555067995e+000dB,1.30576432511931e+002°)
1.86208713666286e+002	(6.24601075354714e+000dB,1.29925403017754e+002°)
1.90546071796324e+002	(6.12733457921465e+000dB,1.29276990278706e+002°)
1.94984459975804e+002	(6.00644613083924e+000dB,1.28631513602865e+002°)
1.99526231496887e+002	(5.88336658269892e+000dB,1.27989284862644e+002°)
2.04173794466952e+002	(5.75811909350746e+000dB,1.27350607797053e+002°)
2.08929613085403e+002	(5.63072871789141e+000dB,1.26715777372479e+002°)
2.13796208950222e+002	(5.50122230805305e+000dB,1.26085079173702e+002°)
2.18776162394954e+002	(5.36962841763886e+000dB,1.25458788880135e+002°)
2.23872113856833e+002	(5.23597718959187e+000dB,1.24837171773195e+002°)
2.29086765276776e+002	(5.10030025446418e+000dB,1.24220482307532e+002°)
2.34422881531991e+002	(4.96263061374070e+000dB,1.23608963731919e+002°)
2.39883291901948e+002	(4.82300253042575e+000dB,1.23002847783223e+002°)
2.45470891568502e+002	(4.68145141292898e+000dB,1.22402354411083e+002°)
2.51188643150957e+002	(4.53801370073552e+000dB,1.21807691593518e+002°)
2.57039578276885e+002	(4.39272674984271e+000dB,1.21219055176984e+002°)
2.63026799189537e+002	(4.24562871920509e+000dB,1.20636628779977e+002°)
2.69153480392690e+002	(4.09675845911686e+000dB,1.20060583746403e+002°)
2.75422870333816e+002	(3.94615540148345e+000dB,1.19491079165793e+002°)
2.81838293126444e+002	(3.79385945154843e+000dB,1.18928261900295e+002°)
2.88403150312659e+002	(3.63991088538617e+000dB,1.18372266696024e+002°)
2.95120922666637e+002	(3.48435024652748e+000dB,1.17823216312150e+002°)
3.01995172040200e+002	(3.32721825226438e+000dB,1.17281221698320e+002°)
3.09029543251358e+002	(3.16855569953188e+000dB,1.16746382197841e+002°)
3.16227766016837e+002	(3.00840337529137e+000dB,1.16218785791600e+002°)
3.23593656929627e+002	(2.84680197362423e+000dB,1.15698509368596e+002°)
3.31131121482590e+002	(2.68379201956305e+000dB,1.15185619010558e+002°)
3.38844156139201e+002	(2.51941379153168e+000dB,1.14680170321893e+002°)
3.46736850452530e+002	(2.35370725253856e+000dB,1.14182208746988e+002°)
3.54813389233574e+002	(2.18671198838216e+000dB,1.13691769940769e+002°)
3.63078054770100e+002	(2.01846714671934e+000dB,1.13208880122212e+002°)
3.71535229097171e+002	(1.84901138190434e+000dB,1.12733556448247e+002°)
3.80189396320559e+002	(1.67838280876557e+000dB,1.12265807403658e+002°)
3.89045144994279e+002	(1.50661895416771e+000dB,1.11805633189644e+002°)
3.98107170553495e+002	(1.33375671915782e+000dB,1.11353026112843e+002°)
4.07380277804111e+002	(1.15983234379864e+000dB,1.10907970976882e+002°)
4.16869383470333e+002	(9.84881373519384e-001dB,1.10470445486360e+002°)
4.26579518801591e+002	(8.08938633147153e-001dB,1.10040420627061e+002°)
4.36515832240164e+002	(6.32038204841889e-001dB,1.09617861055573e+002°)
4.46683592150961e+002	(4.54213406475460e-001dB,1.09202725480337e+002°)
4.57088189614873e+002	(2.75496776974149e-001dB,1.08794967039981e+002°)
4.67735141287196e+002	(9.59200625208790e-002dB,1.08394533670186e+002°)
4.78630092322636e+002	(-8.44857913222466e-002dB,1.08001368451089e+002°)
4.89778819368444e+002	(-2.65690647182968e-001dB,1.07615409970809e+002°)
5.01187233627270e+002	(-4.47665180973752e-001dB,1.07236592654326e+002°)
5.12861383991362e+002	(-6.30380880469715e-001dB,1.06864847093220e+002°)
5.24807460249770e+002	(-8.13810047649661e-001dB,1.06500100360174e+002°)
5.37031796370250e+002	(-9.97925792767200e-001dB,1.06142276315806e+002°)
5.49540873857622e+002	(-1.18270203138922e+000dB,1.05791295898575e+002°)
5.62341325190346e+002	(-1.36811347609692e+000dB,1.05447077406055e+002°)
5.75439937337154e+002	(-1.55413562969675e+000dB,1.05109536761693e+002°)
5.88843655355586e+002	(-1.74074477416220e+000dB,1.04778587772610e+002°)
6.02559586074355e+002	(-1.92791795968740e+000dB,1.04454142368094e+002°)
6.16595001861479e+002	(-2.11563299463170e+000dB,1.04136110839967e+002°)
6.30957344480190e+002	(-2.30386842827695e+000dB,1.03824402050302e+002°)
6.45654229034652e+002	(-2.49260354148404e+000dB,1.03518923648764e+002°)
6.60693448007592e+002	(-2.68181832796429e+000dB,1.03219582263472e+002°)
6.76082975391978e+002	(-2.87149348239167e+000dB,1.02926283688364e+002°)
6.91830970918933e+002	(-3.06161038085086e+000dB,1.02638933056497e+002°)
7.07945784384134e+002	(-3.25215106847346e+000dB,1.02357435005974e+002°)
7.24435960074986e+002	(-3.44309824015930e+000dB,1.02081693824883e+002°)
7.41310241300914e+002	(-3.63443522431418e+000dB,1.01811613606343e+002°)
7.58577575029180e+002	(-3.82614596623216e+000dB,1.01547098371613e+002°)
7.76247116628688e+002	(-4.01821501027983e+000dB,1.01288052203997e+002°)
7.94328234724277e+002	(-4.21062748529090e+000dB,1.01034379357976e+002°)
8.12830516164095e+002	(-4.40336908241991e+000dB,1.00785984368090e+002°)
8.31763771102666e+002	(-4.59642604337480e+000dB,1.00542772152271e+002°)
8.51138038202372e+002	(-4.78978514095931e+000dB,1.00304648097189e+002°)
8.70963589956076e+002	(-4.98343366225263e+000dB,1.00071518149467e+002°)
8.91250938133741e+002	(-5.17735939183119e+000dB,9.98432888840439e+001°)
9.12010839355905e+002	(-5.37155059732120e+000dB,9.96198675881163e+001°)
9.33254300796986e+002	(-5.56599600995402e+000dB,9.94011623120702e+001°)
9.54992586021431e+002	(-5.76068481318237e+000dB,9.91870819360123e+001°)
9.77237220955805e+002	(-5.95560662341619e+000dB,9.89775362236790e+001°)
9.99999999999994e+002	(-6.15075147669872e+000dB,9.87724358662485e+001°)
1.02329299228075e+003	(-6.34610981290225e+000dB,9.85716925280324e+001°)
1.04712854805089e+003	(-6.54167246241682e+000dB,9.83752188830851e+001°)
1.07151930523760e+003	(-6.73743063039566e+000dB,9.81829286482181e+001°)
1.09647819614318e+003	(-6.93337588486570e+000dB,9.79947366203910e+001°)
1.12201845430196e+003	(-7.12950014114571e+000dB,9.78105586871496e+001°)
1.14815362149688e+003	(-7.32579565092149e+000dB,9.76303118672007e+001°)
1.17489755493952e+003	(-7.52225498837867e+000dB,9.74539143143805e+001°)
1.20226443461741e+003	(-7.71887103719418e+000dB,9.72812853418559e+001°)
1.23026877081237e+003	(-7.91563698045464e+000dB,9.71123454341411e+001°)
1.25892541179416e+003	(-8.11254628914522e+000dB,9.69470162525508e+001°)
1.28824955169313e+003	(-8.30959270657361e+000dB,9.67852206470152e+001°)
1.31825673855640e+003	(-8.50677024491461e+000dB,9.66268826618840e+001°)
1.34896288259165e+003	(-8.70407316715305e+000dB,9.64719275332793e+001°)
1.38038426460288e+003	(-8.90149598359923e+000dB,9.63202816982907e+001°)
1.41253754462275e+003	(-9.09903343588168e+000dB,9.61718727859766e+001°)
1.44543977074592e+003	(-9.29668049362660e+000dB,9.60266296190800e+001°)
1.47910838816820e+003	(-9.49443234095324e+000dB,9.58844822123137e+001°)
1.51356124843620e+003	(-9.69228436752813e+000dB,9.57453617581994e+001°)
1.54881661891247e+003	(-9.89023216527671e+000dB,9.56092006310032e+001°)
1.58489319246110e+003	(-1.00882715131659e+001dB,9.54759323675404e+001°)
1.62181009735892e+003	(-1.02863983748734e+001dB,9.53454916692957e+001°)
1.65958690743755e+003	(-1.04846088874438e+001dB,9.52178143805848e+001°)
1.69824365246173e+003	(-1.06828993579676e+001dB,9.50928374852613e+001°)
1.73780082874936e+003	(-1.08812662521255e+001dB,9.49704990903277e+001°)
1.77827941003891e+003	(-1.10797061898525e+001dB,9.48507384154998e+001°)
1.81970085860997e+003	(-1.12782159403058e+001dB,9.47334957803746e+001°)
1.86208713666286e+003	(-1.14767924139927e+001dB,9.46187125872000e+001°)
1.90546071796323e+003	(-1.16754326527996e+001dB,9.45063313053592e+001°)
1.94984459975803e+003	(-1.18741338337571e+001dB,9.43962954623036e+001°)
1.99526231496887e+003	(-1.20728932543272e+001dB,9.42885496224361e+001°)
2.04173794466952e+003	(-1.22717083327754e+001dB,9.41830393728495e+001°)
2.08929613085403e+003	(-1.24705765989837e+001dB,9.40797113046137e+001°)
2.13796208950222e+003	(-1.26694956952685e+001dB,9.39785130036094e+001°)
2.18776162394954e+003	(-1.28684633642885e+001dB,9.38793930240467e+001°)
2.23872113856832e+003	(-1.30674774513281e+001dB,9.37823008778665e+001°)
2.29086765276776e+003	(-1.32665358952577e+001dB,9.36871870147799e+001°)
2.34422881531991e+003	(-1.34656367280668e+001dB,9.35940028063629e+001°)
2.39883291901947e+003	(-1.36647780676478e+001dB,9.35027005286492e+001°)
2.45470891568501e+003	(-1.38639581169285e+001dB,9.34132333432807e+001°)
2.51188643150956e+003	(-1.40631751575145e+001dB,9.33255552814344e+001°)
2.57039578276885e+003	(-1.42624275482621e+001dB,9.32396212248982e+001°)
2.63026799189536e+003	(-1.44617137212314e+001dB,9.31553868903958e+001°)
2.69153480392690e+003	(-1.46610321790872e+001dB,9.30728088102569e+001°)
2.75422870333815e+003	(-1.48603814913157e+001dB,9.29918443175999e+001°)
2.81838293126443e+003	(-1.50597602902215e+001dB,9.29124515242891e+001°)
2.88403150312659e+003	(-1.52591672714369e+001dB,9.28345893088148e+001°)
2.95120922666636e+003	(-1.54586011882160e+001dB,9.27582172953411e+001°)
3.01995172040199e+003	(-1.56580608497677e+001dB,9.26832958393887e+001°)
3.09029543251357e+003	(-1.58575451192741e+001dB,9.26097860068657e+001°)
3.16227766016836e+003	(-1.60570529121324e+001dB,9.25376495629344e+001°)
3.23593656929626e+003	(-1.62565831918691e+001dB,9.24668489492411e+001°)
3.31131121482589e+003	(-1.64561349695825e+001dB,9.23973472709909e+001°)
3.38844156139200e+003	(-1.66557072997914e+001dB,9.23291082792311e+001°)
3.46736850452529e+003	(-1.68552992826804e+001dB,9.22620963545623e+001°)
3.54813389233573e+003	(-1.70549100570624e+001dB,9.21962764912004e+001°)
3.63078054770099e+003	(-1.72545388037499e+001dB,9.21316142802183e+001°)
3.71535229097170e+003	(-1.74541847390471e+001dB,9.20680758943981e+001°)
3.80189396320558e+003	(-1.76538471148487e+001dB,9.20056280718968e+001°)
3.89045144994278e+003	(-1.78535252208762e+001dB,9.19442381004666e+001°)
3.98107170553494e+003	(-1.80532183768444e+001dB,9.18838738033588e+001°)
4.07380277804110e+003	(-1.82529259341206e+001dB,9.18245035219483e+001°)
4.16869383470332e+003	(-1.84526472761129e+001dB,9.17660961020329e+001°)
4.26579518801589e+003	(-1.86523818150750e+001dB,9.17086208791437e+001°)
4.36515832240162e+003	(-1.88521289889259e+001dB,9.16520476618924e+001°)
4.46683592150960e+003	(-1.90518882643512e+001dB,9.15963467192435e+001°)
4.57088189614871e+003	(-1.92516591321261e+001dB,9.15414887650417e+001°)
4.67735141287194e+003	(-1.94514411090557e+001dB,9.14874449441526e+001°)
4.78630092322634e+003	(-1.96512337337726e+001dB,9.14341868173229e+001°)
4.89778819368442e+003	(-1.98510365670039e+001dB,9.13816863482051e+001°)
5.01187233627268e+003	(-2.00508491929981e+001dB,9.13299158888466e+001°)
5.12861383991361e+003	(-2.02506712154950e+001dB,9.12788481665723e+001°)
5.24807460249768e+003	(-2.04505022578215e+001dB,9.12284562690479e+001°)
5.37031796370248e+003	(-2.06503419629056e+001dB,9.11787136321999e+001°)
5.49540873857620e+003	(-2.08501899913152e+001dB,9.11295940260793e+001°)
5.62341325190344e+003	(-2.10500460214449e+001dB,9.10810715420641e+001°)
5.75439937337152e+003	(-2.12499097493317e+001dB,9.10331205791259e+001°)
5.88843655355584e+003	(-2.14497808858016e+001dB,9.09857158316753e+001°)
6.02559586074353e+003	(-2.16496591589153e+001dB,9.09388322760679e+001°)
