Freq.	V(out)
1.00000000000000e+000	(-9.34903912573079e+001dB,9.00556612909337e+001°)
1.00230523807790e+000	(-9.34703912245983e+001dB,9.00557896032689e+001°)
1.00461579027840e+000	(-9.34503911917378e+001dB,9.00559182113932e+001°)
1.00693166885180e+000	(-9.34303911587255e+001dB,9.00560471159886e+001°)
1.00925288607668e+000	(-9.34103911255608e+001dB,9.00561763177384e+001°)
1.01157945425990e+000	(-9.33903910922431e+001dB,9.00563058173276e+001°)
1.01391138573668e+000	(-9.33703910587716e+001dB,9.00564356154428e+001°)
1.01624869287070e+000	(-9.33503910251456e+001dB,9.00565657127723e+001°)
1.01859138805412e+000	(-9.33303909913644e+001dB,9.00566961100056e+001°)
1.02093948370768e+000	(-9.33103909574272e+001dB,9.00568268078342e+001°)
1.02329299228075e+000	(-9.32903909233334e+001dB,9.00569578069510e+001°)
1.02565192625141e+000	(-9.32703908890822e+001dB,9.00570891080506e+001°)
1.02801629812647e+000	(-9.32503908546730e+001dB,9.00572207118290e+001°)
1.03038612044162e+000	(-9.32303908201049e+001dB,9.00573526189840e+001°)
1.03276140576140e+000	(-9.32103907853773e+001dB,9.00574848302150e+001°)
1.03514216667934e+000	(-9.31903907504893e+001dB,9.00576173462229e+001°)
1.03752841581801e+000	(-9.31703907154404e+001dB,9.00577501677102e+001°)
1.03992016582906e+000	(-9.31503906802296e+001dB,9.00578832953812e+001°)
1.04231742939330e+000	(-9.31303906448563e+001dB,9.00580167299418e+001°)
1.04472021922080e+000	(-9.31103906093198e+001dB,9.00581504720992e+001°)
1.04712854805090e+000	(-9.30903905736192e+001dB,9.00582845225627e+001°)
1.04954242865232e+000	(-9.30703905377538e+001dB,9.00584188820429e+001°)
1.05196187382322e+000	(-9.30503905017229e+001dB,9.00585535512521e+001°)
1.05438689639126e+000	(-9.30303904655257e+001dB,9.00586885309044e+001°)
1.05681750921366e+000	(-9.30103904291614e+001dB,9.00588238217154e+001°)
1.05925372517729e+000	(-9.29903903926292e+001dB,9.00589594244023e+001°)
1.06169555719872e+000	(-9.29703903559284e+001dB,9.00590953396841e+001°)
1.06414301822431e+000	(-9.29503903190582e+001dB,9.00592315682815e+001°)
1.06659612123026e+000	(-9.29303902820179e+001dB,9.00593681109166e+001°)
1.06905487922266e+000	(-9.29103902448065e+001dB,9.00595049683133e+001°)
1.07151930523761e+000	(-9.28903902074235e+001dB,9.00596421411974e+001°)
1.07398941234124e+000	(-9.28703901698678e+001dB,9.00597796302960e+001°)
1.07646521362983e+000	(-9.28503901321388e+001dB,9.00599174363380e+001°)
1.07894672222983e+000	(-9.28303900942357e+001dB,9.00600555600541e+001°)
1.08143395129794e+000	(-9.28103900561576e+001dB,9.00601940021766e+001°)
1.08392691402120e+000	(-9.27903900179037e+001dB,9.00603327634395e+001°)
1.08642562361706e+000	(-9.27703899794733e+001dB,9.00604718445785e+001°)
1.08893009333343e+000	(-9.27503899408655e+001dB,9.00606112463309e+001°)
1.09144033644876e+000	(-9.27303899020794e+001dB,9.00607509694358e+001°)
1.09395636627209e+000	(-9.27103898631144e+001dB,9.00608910146340e+001°)
1.09647819614318e+000	(-9.26903898239695e+001dB,9.00610313826680e+001°)
1.09900583943252e+000	(-9.26703897846439e+001dB,9.00611720742820e+001°)
1.10153930954141e+000	(-9.26503897451368e+001dB,9.00613130902219e+001°)
1.10407861990207e+000	(-9.26303897054473e+001dB,9.00614544312354e+001°)
1.10662378397766e+000	(-9.26103896655747e+001dB,9.00615960980718e+001°)
1.10917481526240e+000	(-9.25903896255180e+001dB,9.00617380914821e+001°)
1.11173172728159e+000	(-9.25703895852764e+001dB,9.00618804122193e+001°)
1.11429453359173e+000	(-9.25503895448490e+001dB,9.00620230610378e+001°)
1.11686324778056e+000	(-9.25303895042351e+001dB,9.00621660386940e+001°)
1.11943788346715e+000	(-9.25103894634337e+001dB,9.00623093459459e+001°)
1.12201845430196e+000	(-9.24903894224439e+001dB,9.00624529835533e+001°)
1.12460497396692e+000	(-9.24703893812650e+001dB,9.00625969522777e+001°)
1.12719745617551e+000	(-9.24503893398960e+001dB,9.00627412528823e+001°)
1.12979591467280e+000	(-9.24303892983360e+001dB,9.00628858861324e+001°)
1.13240036323556e+000	(-9.24103892565842e+001dB,9.00630308527946e+001°)
1.13501081567231e+000	(-9.23903892146397e+001dB,9.00631761536376e+001°)
1.13762728582343e+000	(-9.23703891725016e+001dB,9.00633217894316e+001°)
1.14024978756117e+000	(-9.23503891301689e+001dB,9.00634677609489e+001°)
1.14287833478977e+000	(-9.23303890876409e+001dB,9.00636140689633e+001°)
1.14551294144553e+000	(-9.23103890449166e+001dB,9.00637607142506e+001°)
1.14815362149688e+000	(-9.22903890019951e+001dB,9.00639076975882e+001°)
1.15080038894443e+000	(-9.22703889588755e+001dB,9.00640550197553e+001°)
1.15345325782109e+000	(-9.22503889155568e+001dB,9.00642026815331e+001°)
1.15611224219210e+000	(-9.22303888720382e+001dB,9.00643506837045e+001°)
1.15877735615512e+000	(-9.22103888283187e+001dB,9.00644990270540e+001°)
1.16144861384034e+000	(-9.21903887843974e+001dB,9.00646477123682e+001°)
1.16412602941049e+000	(-9.21703887402734e+001dB,9.00647967404354e+001°)
1.16680961706096e+000	(-9.21503886959457e+001dB,9.00649461120457e+001°)
1.16949939101987e+000	(-9.21303886514134e+001dB,9.00650958279910e+001°)
1.17219536554813e+000	(-9.21103886066755e+001dB,9.00652458890651e+001°)
1.17489755493953e+000	(-9.20903885617312e+001dB,9.00653962960635e+001°)
1.17760597352080e+000	(-9.20703885165794e+001dB,9.00655470497838e+001°)
1.18032063565173e+000	(-9.20503884712192e+001dB,9.00656981510251e+001°)
1.18304155572516e+000	(-9.20303884256496e+001dB,9.00658496005885e+001°)
1.18576874816716e+000	(-9.20103883798697e+001dB,9.00660013992771e+001°)
1.18850222743702e+000	(-9.19903883338784e+001dB,9.00661535478956e+001°)
1.19124200802737e+000	(-9.19703882876749e+001dB,9.00663060472507e+001°)
1.19398810446427e+000	(-9.19503882412581e+001dB,9.00664588981508e+001°)
1.19674053130724e+000	(-9.19303881946271e+001dB,9.00666121014064e+001°)
1.19949930314938e+000	(-9.19103881477808e+001dB,9.00667656578297e+001°)
1.20226443461741e+000	(-9.18903881007183e+001dB,9.00669195682349e+001°)
1.20503594037179e+000	(-9.18703880534386e+001dB,9.00670738334379e+001°)
1.20781383510678e+000	(-9.18503880059406e+001dB,9.00672284542565e+001°)
1.21059813355048e+000	(-9.18303879582234e+001dB,9.00673834315107e+001°)
1.21338885046497e+000	(-9.18103879102859e+001dB,9.00675387660220e+001°)
1.21618600064636e+000	(-9.17903878621272e+001dB,9.00676944586139e+001°)
1.21898959892486e+000	(-9.17703878137462e+001dB,9.00678505101119e+001°)
1.22179966016487e+000	(-9.17503877651419e+001dB,9.00680069213435e+001°)
1.22461619926504e+000	(-9.17303877163132e+001dB,9.00681636931377e+001°)
1.22743923115840e+000	(-9.17103876672591e+001dB,9.00683208263258e+001°)
1.23026877081238e+000	(-9.16903876179786e+001dB,9.00684783217409e+001°)
1.23310483322890e+000	(-9.16703875684707e+001dB,9.00686361802179e+001°)
1.23594743344451e+000	(-9.16503875187342e+001dB,9.00687944025938e+001°)
1.23879658653036e+000	(-9.16303874687682e+001dB,9.00689529897075e+001°)
1.24165230759241e+000	(-9.16103874185715e+001dB,9.00691119423997e+001°)
1.24451461177138e+000	(-9.15903873681431e+001dB,9.00692712615132e+001°)
1.24738351424294e+000	(-9.15703873174820e+001dB,9.00694309478926e+001°)
1.25025903021771e+000	(-9.15503872665870e+001dB,9.00695910023846e+001°)
1.25314117494141e+000	(-9.15303872154571e+001dB,9.00697514258377e+001°)
1.25602996369487e+000	(-9.15103871640912e+001dB,9.00699122191024e+001°)
1.25892541179416e+000	(-9.14903871124882e+001dB,9.00700733830313e+001°)
1.26182753459066e+000	(-9.14703870606470e+001dB,9.00702349184788e+001°)
1.26473634747115e+000	(-9.14503870085665e+001dB,9.00703968263013e+001°)
1.26765186585784e+000	(-9.14303869562456e+001dB,9.00705591073571e+001°)
1.27057410520854e+000	(-9.14103869036833e+001dB,9.00707217625068e+001°)
1.27350308101666e+000	(-9.13903868508783e+001dB,9.00708847926126e+001°)
1.27643880881134e+000	(-9.13703867978296e+001dB,9.00710481985388e+001°)
1.27938130415752e+000	(-9.13503867445360e+001dB,9.00712119811519e+001°)
1.28233058265602e+000	(-9.13303866909964e+001dB,9.00713761413202e+001°)
1.28528665994361e+000	(-9.13103866372097e+001dB,9.00715406799139e+001°)
1.28824955169313e+000	(-9.12903865831748e+001dB,9.00717055978054e+001°)
1.29121927361353e+000	(-9.12703865288904e+001dB,9.00718708958691e+001°)
1.29419584144998e+000	(-9.12503864743554e+001dB,9.00720365749813e+001°)
1.29717927098395e+000	(-9.12303864195687e+001dB,9.00722026360205e+001°)
1.30016957803328e+000	(-9.12103863645292e+001dB,9.00723690798670e+001°)
1.30316677845229e+000	(-9.11903863092356e+001dB,9.00725359074033e+001°)
1.30617088813183e+000	(-9.11703862536868e+001dB,9.00727031195139e+001°)
1.30918192299940e+000	(-9.11503861978816e+001dB,9.00728707170853e+001°)
1.31219989901920e+000	(-9.11303861418188e+001dB,9.00730387010059e+001°)
1.31522483219223e+000	(-9.11103860854972e+001dB,9.00732070721666e+001°)
1.31825673855640e+000	(-9.10903860289157e+001dB,9.00733758314598e+001°)
1.32129563418657e+000	(-9.10703859720729e+001dB,9.00735449797803e+001°)
1.32434153519466e+000	(-9.10503859149678e+001dB,9.00737145180250e+001°)
1.32739445772973e+000	(-9.10303858575992e+001dB,9.00738844470926e+001°)
1.33045441797808e+000	(-9.10103857999657e+001dB,9.00740547678840e+001°)
1.33352143216332e+000	(-9.09903857420662e+001dB,9.00742254813023e+001°)
1.33659551654643e+000	(-9.09703856838995e+001dB,9.00743965882526e+001°)
1.33967668742593e+000	(-9.09503856254642e+001dB,9.00745680896419e+001°)
1.34276496113786e+000	(-9.09303855667593e+001dB,9.00747399863796e+001°)
1.34586035405594e+000	(-9.09103855077833e+001dB,9.00749122793770e+001°)
1.34896288259164e+000	(-9.08903854485352e+001dB,9.00750849695476e+001°)
1.35207256319427e+000	(-9.08703853890136e+001dB,9.00752580578069e+001°)
1.35518941235103e+000	(-9.08503853292172e+001dB,9.00754315450725e+001°)
1.35831344658715e+000	(-9.08303852691448e+001dB,9.00756054322643e+001°)
1.36144468246594e+000	(-9.08103852087952e+001dB,9.00757797203042e+001°)
1.36458313658892e+000	(-9.07903851481670e+001dB,9.00759544101161e+001°)
1.36772882559584e+000	(-9.07703850872589e+001dB,9.00761295026263e+001°)
1.37088176616484e+000	(-9.07503850260698e+001dB,9.00763049987631e+001°)
1.37404197501251e+000	(-9.07303849645981e+001dB,9.00764808994568e+001°)
1.37720946889394e+000	(-9.07103849028428e+001dB,9.00766572056400e+001°)
1.38038426460288e+000	(-9.06903848408024e+001dB,9.00768339182476e+001°)
1.38356637897177e+000	(-9.06703847784756e+001dB,9.00770110382162e+001°)
1.38675582887188e+000	(-9.06503847158611e+001dB,9.00771885664851e+001°)
1.38995263121334e+000	(-9.06303846529576e+001dB,9.00773665039954e+001°)
1.39315680294529e+000	(-9.06103845897638e+001dB,9.00775448516904e+001°)
1.39636836105593e+000	(-9.05903845262783e+001dB,9.00777236105158e+001°)
1.39958732257261e+000	(-9.05703844624997e+001dB,9.00779027814192e+001°)
1.40281370456195e+000	(-9.05503843984268e+001dB,9.00780823653506e+001°)
1.40604752412990e+000	(-9.05303843340581e+001dB,9.00782623632620e+001°)
1.40928879842186e+000	(-9.05103842693923e+001dB,9.00784427761078e+001°)
1.41253754462274e+000	(-9.04903842044280e+001dB,9.00786236048445e+001°)
1.41579377995707e+000	(-9.04703841391639e+001dB,9.00788048504307e+001°)
1.41905752168908e+000	(-9.04503840735985e+001dB,9.00789865138274e+001°)
1.42232878712281e+000	(-9.04303840077305e+001dB,9.00791685959977e+001°)
1.42560759360218e+000	(-9.04103839415584e+001dB,9.00793510979070e+001°)
1.42889395851109e+000	(-9.03903838750809e+001dB,9.00795340205227e+001°)
1.43218789927353e+000	(-9.03703838082966e+001dB,9.00797173648148e+001°)
1.43548943335364e+000	(-9.03503837412040e+001dB,9.00799011317553e+001°)
1.43879857825583e+000	(-9.03303836738017e+001dB,9.00800853223184e+001°)
1.44211535152486e+000	(-9.03103836060884e+001dB,9.00802699374806e+001°)
1.44543977074592e+000	(-9.02903835380624e+001dB,9.00804549782208e+001°)
1.44877185354475e+000	(-9.02703834697225e+001dB,9.00806404455199e+001°)
1.45211161758773e+000	(-9.02503834010671e+001dB,9.00808263403613e+001°)
1.45545908058195e+000	(-9.02303833320948e+001dB,9.00810126637305e+001°)
1.45881426027534e+000	(-9.02103832628042e+001dB,9.00811994166154e+001°)
1.46217717445671e+000	(-9.01903831931938e+001dB,9.00813866000060e+001°)
1.46554784095590e+000	(-9.01703831232620e+001dB,9.00815742148948e+001°)
1.46892627764385e+000	(-9.01503830530074e+001dB,9.00817622622764e+001°)
1.47231250243271e+000	(-9.01303829824286e+001dB,9.00819507431478e+001°)
1.47570653327588e+000	(-9.01103829115240e+001dB,9.00821396585082e+001°)
1.47910838816819e+000	(-9.00903828402921e+001dB,9.00823290093593e+001°)
1.48251808514594e+000	(-9.00703827687314e+001dB,9.00825187967049e+001°)
1.48593564228699e+000	(-9.00503826968404e+001dB,9.00827090215512e+001°)
1.48936107771090e+000	(-9.00303826246176e+001dB,9.00828996849067e+001°)
1.49279440957898e+000	(-9.00103825520614e+001dB,9.00830907877823e+001°)
1.49623565609442e+000	(-8.99903824791703e+001dB,9.00832823311911e+001°)
1.49968483550236e+000	(-8.99703824059428e+001dB,9.00834743161486e+001°)
1.50314196609001e+000	(-8.99503823323772e+001dB,9.00836667436727e+001°)
1.50660706618673e+000	(-8.99303822584721e+001dB,9.00838596147835e+001°)
1.51008015416413e+000	(-8.99103821842259e+001dB,9.00840529305037e+001°)
1.51356124843619e+000	(-8.98903821096370e+001dB,9.00842466918581e+001°)
1.51705036745932e+000	(-8.98703820347037e+001dB,9.00844408998739e+001°)
1.52054752973248e+000	(-8.98503819594246e+001dB,9.00846355555809e+001°)
1.52405275379728e+000	(-8.98303818837981e+001dB,9.00848306600109e+001°)
1.52756605823806e+000	(-8.98103818078224e+001dB,9.00850262141984e+001°)
1.53108746168202e+000	(-8.97903817314961e+001dB,9.00852222191802e+001°)
1.53461698279928e+000	(-8.97703816548175e+001dB,9.00854186759953e+001°)
1.53815464030302e+000	(-8.97503815777849e+001dB,9.00856155856854e+001°)
1.54170045294954e+000	(-8.97303815003968e+001dB,9.00858129492945e+001°)
1.54525443953840e+000	(-8.97103814226515e+001dB,9.00860107678687e+001°)
1.54881661891247e+000	(-8.96903813445472e+001dB,9.00862090424571e+001°)
1.55238700995807e+000	(-8.96703812660825e+001dB,9.00864077741106e+001°)
1.55596563160506e+000	(-8.96503811872557e+001dB,9.00866069638829e+001°)
1.55955250282694e+000	(-8.96303811080649e+001dB,9.00868066128301e+001°)
1.56314764264094e+000	(-8.96103810285087e+001dB,9.00870067220107e+001°)
1.56675107010813e+000	(-8.95903809485853e+001dB,9.00872072924855e+001°)
1.57036280433354e+000	(-8.95703808682929e+001dB,9.00874083253179e+001°)
1.57398286446620e+000	(-8.95503807876299e+001dB,9.00876098215737e+001°)
1.57761126969933e+000	(-8.95303807065946e+001dB,9.00878117823212e+001°)
1.58124803927037e+000	(-8.95103806251852e+001dB,9.00880142086312e+001°)
1.58489319246110e+000	(-8.94903805434002e+001dB,9.00882171015767e+001°)
1.58854674859776e+000	(-8.94703804612375e+001dB,9.00884204622335e+001°)
1.59220872705115e+000	(-8.94503803786957e+001dB,9.00886242916798e+001°)
1.59587914723672e+000	(-8.94303802957728e+001dB,9.00888285909961e+001°)
1.59955802861465e+000	(-8.94103802124672e+001dB,9.00890333612656e+001°)
1.60324539069002e+000	(-8.93903801287771e+001dB,9.00892386035739e+001°)
1.60694125301286e+000	(-8.93703800447007e+001dB,9.00894443190091e+001°)
1.61064563517825e+000	(-8.93503799602362e+001dB,9.00896505086619e+001°)
1.61435855682647e+000	(-8.93303798753819e+001dB,9.00898571736254e+001°)
1.61808003764305e+000	(-8.93103797901358e+001dB,9.00900643149953e+001°)
1.62181009735891e+000	(-8.92903797044963e+001dB,9.00902719338698e+001°)
1.62554875575047e+000	(-8.92703796184615e+001dB,9.00904800313495e+001°)
1.62929603263970e+000	(-8.92503795320296e+001dB,9.00906886085378e+001°)
1.63305194789432e+000	(-8.92303794451987e+001dB,9.00908976665405e+001°)
1.63681652142779e+000	(-8.92103793579671e+001dB,9.00911072064659e+001°)
1.64058977319952e+000	(-8.91903792703327e+001dB,9.00913172294249e+001°)
1.64437172321491e+000	(-8.91703791822940e+001dB,9.00915277365310e+001°)
1.64816239152549e+000	(-8.91503790938488e+001dB,9.00917387289001e+001°)
1.65196179822900e+000	(-8.91303790049954e+001dB,9.00919502076511e+001°)
1.65576996346951e+000	(-8.91103789157319e+001dB,9.00921621739049e+001°)
1.65958690743754e+000	(-8.90903788260563e+001dB,9.00923746287854e+001°)
1.66341265037015e+000	(-8.90703787359669e+001dB,9.00925875734189e+001°)
1.66724721255104e+000	(-8.90503786454615e+001dB,9.00928010089344e+001°)
1.67109061431069e+000	(-8.90303785545385e+001dB,9.00930149364635e+001°)
1.67494287602642e+000	(-8.90103784631958e+001dB,9.00932293571403e+001°)
1.67880401812254e+000	(-8.89903783714314e+001dB,9.00934442721016e+001°)
1.68267406107045e+000	(-8.89703782792435e+001dB,9.00936596824867e+001°)
1.68655302538872e+000	(-8.89503781866300e+001dB,9.00938755894378e+001°)
1.69044093164324e+000	(-8.89303780935891e+001dB,9.00940919940995e+001°)
1.69433780044731e+000	(-8.89103780001188e+001dB,9.00943088976190e+001°)
1.69824365246172e+000	(-8.88903779062169e+001dB,9.00945263011464e+001°)
1.70215850839493e+000	(-8.88703778118817e+001dB,9.00947442058342e+001°)
1.70608238900310e+000	(-8.88503777171110e+001dB,9.00949626128376e+001°)
1.71001531509027e+000	(-8.88303776219029e+001dB,9.00951815233146e+001°)
1.71395730750840e+000	(-8.88103775262554e+001dB,9.00954009384258e+001°)
1.71790838715757e+000	(-8.87903774301663e+001dB,9.00956208593344e+001°)
1.72186857498599e+000	(-8.87703773336337e+001dB,9.00958412872063e+001°)
1.72583789199018e+000	(-8.87503772366556e+001dB,9.00960622232102e+001°)
1.72981635921508e+000	(-8.87303771392298e+001dB,9.00962836685174e+001°)
1.73380399775412e+000	(-8.87103770413543e+001dB,9.00965056243019e+001°)
1.73780082874935e+000	(-8.86903769430271e+001dB,9.00967280917404e+001°)
1.74180687339159e+000	(-8.86703768442460e+001dB,9.00969510720124e+001°)
1.74582215292048e+000	(-8.86503767450089e+001dB,9.00971745663001e+001°)
1.74984668862464e+000	(-8.86303766453138e+001dB,9.00973985757882e+001°)
1.75388050184174e+000	(-8.86103765451586e+001dB,9.00976231016644e+001°)
1.75792361395867e+000	(-8.85903764445410e+001dB,9.00978481451191e+001°)
1.76197604641161e+000	(-8.85703763434590e+001dB,9.00980737073454e+001°)
1.76603782068614e+000	(-8.85503762419104e+001dB,9.00982997895391e+001°)
1.77010895831740e+000	(-8.85303761398932e+001dB,9.00985263928987e+001°)
1.77418948089014e+000	(-8.85103760374050e+001dB,9.00987535186257e+001°)
1.77827941003890e+000	(-8.84903759344437e+001dB,9.00989811679242e+001°)
1.78237876744807e+000	(-8.84703758310073e+001dB,9.00992093420011e+001°)
1.78648757485203e+000	(-8.84503757270934e+001dB,9.00994380420661e+001°)
1.79060585403527e+000	(-8.84303756226998e+001dB,9.00996672693317e+001°)
1.79473362683250e+000	(-8.84103755178244e+001dB,9.00998970250130e+001°)
1.79887091512876e+000	(-8.83903754124649e+001dB,9.01001273103283e+001°)
1.80301774085955e+000	(-8.83703753066191e+001dB,9.01003581264983e+001°)
1.80717412601090e+000	(-8.83503752002847e+001dB,9.01005894747469e+001°)
1.81134009261958e+000	(-8.83303750934595e+001dB,9.01008213563004e+001°)
1.81551566277311e+000	(-8.83103749861412e+001dB,9.01010537723882e+001°)
1.81970085860996e+000	(-8.82903748783276e+001dB,9.01012867242425e+001°)
1.82389570231961e+000	(-8.82703747700163e+001dB,9.01015202130984e+001°)
1.82810021614272e+000	(-8.82503746612051e+001dB,9.01017542401936e+001°)
1.83231442237119e+000	(-8.82303745518917e+001dB,9.01019888067689e+001°)
1.83653834334832e+000	(-8.82103744420737e+001dB,9.01022239140679e+001°)
1.84077200146893e+000	(-8.81903743317488e+001dB,9.01024595633370e+001°)
1.84501541917945e+000	(-8.81703742209146e+001dB,9.01026957558255e+001°)
1.84926861897805e+000	(-8.81503741095689e+001dB,9.01029324927856e+001°)
1.85353162341479e+000	(-8.81303739977092e+001dB,9.01031697754724e+001°)
1.85780445509167e+000	(-8.81103738853332e+001dB,9.01034076051439e+001°)
1.86208713666284e+000	(-8.80903737724385e+001dB,9.01036459830609e+001°)
1.86637969083464e+000	(-8.80703736590227e+001dB,9.01038849104872e+001°)
1.87068214036577e+000	(-8.80503735450835e+001dB,9.01041243886895e+001°)
1.87499450806739e+000	(-8.80303734306183e+001dB,9.01043644189374e+001°)
1.87931681680324e+000	(-8.80103733156247e+001dB,9.01046050025035e+001°)
1.88364908948977e+000	(-8.79903732001004e+001dB,9.01048461406632e+001°)
1.88799134909627e+000	(-8.79703730840428e+001dB,9.01050878346949e+001°)
