Freq.	V(v4)
1.00000000000000e+005	(-6.05460224169261e+000dB,2.41428054081718e+000°)
1.00230523807790e+005	(-6.05443007764200e+000dB,2.41704118409170e+000°)
1.00461579027840e+005	(-6.05425730074326e+000dB,2.41981423834485e+000°)
1.00693166885180e+005	(-6.05408390736679e+000dB,2.42259971535510e+000°)
1.00925288607668e+005	(-6.05390989386931e+000dB,2.42539762694589e+000°)
1.01157945425990e+005	(-6.05373525659600e+000dB,2.42820798498925e+000°)
1.01391138573668e+005	(-6.05355999187848e+000dB,2.43103080140169e+000°)
1.01624869287070e+005	(-6.05338409603479e+000dB,2.43386608814820e+000°)
1.01859138805412e+005	(-6.05320756537148e+000dB,2.43671385723836e+000°)
1.02093948370768e+005	(-6.05303039618040e+000dB,2.43957412072914e+000°)
1.02329299228075e+005	(-6.05285258474133e+000dB,2.44244689072389e+000°)
1.02565192625141e+005	(-6.05267412732037e+000dB,2.44533217937036e+000°)
1.02801629812647e+005	(-6.05249502017040e+000dB,2.44822999886501e+000°)
1.03038612044162e+005	(-6.05231525953065e+000dB,2.45114036144827e+000°)
1.03276140576140e+005	(-6.05213484162715e+000dB,2.45406327940703e+000°)
1.03514216667934e+005	(-6.05195376267220e+000dB,2.45699876507420e+000°)
1.03752841581801e+005	(-6.05177201886462e+000dB,2.45994683082820e+000°)
1.03992016582906e+005	(-6.05158960638917e+000dB,2.46290748909342e+000°)
1.04231742939330e+005	(-6.05140652141744e+000dB,2.46588075233979e+000°)
1.04472021922080e+005	(-6.05122276010648e+000dB,2.46886663308169e+000°)
1.04712854805090e+005	(-6.05103831859982e+000dB,2.47186514388088e+000°)
1.04954242865232e+005	(-6.05085319302663e+000dB,2.47487629734235e+000°)
1.05196187382322e+005	(-6.05066737950259e+000dB,2.47790010611852e+000°)
1.05438689639126e+005	(-6.05048087412825e+000dB,2.48093658290364e+000°)
1.05681750921366e+005	(-6.05029367299069e+000dB,2.48398574044100e+000°)
1.05925372517729e+005	(-6.05010577216223e+000dB,2.48704759151596e+000°)
1.06169555719872e+005	(-6.04991716770125e+000dB,2.49012214896023e+000°)
1.06414301822431e+005	(-6.04972785565106e+000dB,2.49320942564919e+000°)
1.06659612123026e+005	(-6.04953783204062e+000dB,2.49630943450406e+000°)
1.06905487922266e+005	(-6.04934709288428e+000dB,2.49942218848961e+000°)
1.07151930523760e+005	(-6.04915563418135e+000dB,2.50254770061596e+000°)
1.07398941234124e+005	(-6.04896345191670e+000dB,2.50568598393688e+000°)
1.07646521362983e+005	(-6.04877054206005e+000dB,2.50883705155074e+000°)
1.07894672222983e+005	(-6.04857690056658e+000dB,2.51200091660093e+000°)
1.08143395129794e+005	(-6.04838252337558e+000dB,2.51517759227356e+000°)
1.08392691402120e+005	(-6.04818740641198e+000dB,2.51836709179982e+000°)
1.08642562361706e+005	(-6.04799154558495e+000dB,2.52156942845476e+000°)
1.08893009333343e+005	(-6.04779493678856e+000dB,2.52478461555603e+000°)
1.09144033644875e+005	(-6.04759757590136e+000dB,2.52801266646677e+000°)
1.09395636627209e+005	(-6.04739945878662e+000dB,2.53125359459247e+000°)
1.09647819614318e+005	(-6.04720058129194e+000dB,2.53450741338276e+000°)
1.09900583943252e+005	(-6.04700093924913e+000dB,2.53777413633066e+000°)
1.10153930954141e+005	(-6.04680052847442e+000dB,2.54105377697155e+000°)
1.10407861990207e+005	(-6.04659934476834e+000dB,2.54434634888582e+000°)
1.10662378397766e+005	(-6.04639738391495e+000dB,2.54765186569517e+000°)
1.10917481526240e+005	(-6.04619464168312e+000dB,2.55097034106534e+000°)
1.11173172728159e+005	(-6.04599111382500e+000dB,2.55430178870497e+000°)
1.11429453359173e+005	(-6.04578679607689e+000dB,2.55764622236501e+000°)
1.11686324778056e+005	(-6.04558168415879e+000dB,2.56100365583876e+000°)
1.11943788346715e+005	(-6.04537577377444e+000dB,2.56437410296388e+000°)
1.12201845430196e+005	(-6.04516906061089e+000dB,2.56775757761819e+000°)
1.12460497396692e+005	(-6.04496154033883e+000dB,2.57115409372277e+000°)
1.12719745617551e+005	(-6.04475320861228e+000dB,2.57456366524197e+000°)
1.12979591467279e+005	(-6.04454406106903e+000dB,2.57798630618009e+000°)
1.13240036323555e+005	(-6.04433409332937e+000dB,2.58142203058513e+000°)
1.13501081567231e+005	(-6.04412330099734e+000dB,2.58487085254691e+000°)
1.13762728582343e+005	(-6.04391167965951e+000dB,2.58833278619596e+000°)
1.14024978756117e+005	(-6.04369922488591e+000dB,2.59180784570558e+000°)
1.14287833478977e+005	(-6.04348593222931e+000dB,2.59529604528997e+000°)
1.14551294144553e+005	(-6.04327179722488e+000dB,2.59879739920436e+000°)
1.14815362149688e+005	(-6.04305681539098e+000dB,2.60231192174614e+000°)
1.15080038894443e+005	(-6.04284098222825e+000dB,2.60583962725360e+000°)
1.15345325782109e+005	(-6.04262429322004e+000dB,2.60938053010546e+000°)
1.15611224219210e+005	(-6.04240674383189e+000dB,2.61293464472224e+000°)
1.15877735615512e+005	(-6.04218832951216e+000dB,2.61650198556443e+000°)
1.16144861384034e+005	(-6.04196904569092e+000dB,2.62008256713366e+000°)
1.16412602941049e+005	(-6.04174888778043e+000dB,2.62367640397268e+000°)
1.16680961706096e+005	(-6.04152785117533e+000dB,2.62728351066291e+000°)
1.16949939101987e+005	(-6.04130593125201e+000dB,2.63090390182718e+000°)
1.17219536554813e+005	(-6.04108312336874e+000dB,2.63453759212916e+000°)
1.17489755493953e+005	(-6.04085942286572e+000dB,2.63818459627078e+000°)
1.17760597352080e+005	(-6.04063482506448e+000dB,2.64184492899537e+000°)
1.18032063565173e+005	(-6.04040932526843e+000dB,2.64551860508483e+000°)
1.18304155572516e+005	(-6.04018291876293e+000dB,2.64920563936199e+000°)
1.18576874816716e+005	(-6.03995560081359e+000dB,2.65290604668757e+000°)
1.18850222743701e+005	(-6.03972736666813e+000dB,2.65661984196311e+000°)
1.19124200802737e+005	(-6.03949821155537e+000dB,2.66034704012780e+000°)
1.19398810446427e+005	(-6.03926813068531e+000dB,2.66408765616146e+000°)
1.19674053130724e+005	(-6.03903711924885e+000dB,2.66784170508140e+000°)
1.19949930314937e+005	(-6.03880517241758e+000dB,2.67160920194509e+000°)
1.20226443461741e+005	(-6.03857228534453e+000dB,2.67539016184686e+000°)
1.20503594037179e+005	(-6.03833845316282e+000dB,2.67918459992168e+000°)
1.20781383510678e+005	(-6.03810367098643e+000dB,2.68299253133997e+000°)
1.21059813355048e+005	(-6.03786793391012e+000dB,2.68681397131329e+000°)
1.21338885046497e+005	(-6.03763123700874e+000dB,2.69064893508935e+000°)
1.21618600064636e+005	(-6.03739357533788e+000dB,2.69449743795460e+000°)
1.21898959892486e+005	(-6.03715494393278e+000dB,2.69835949523279e+000°)
1.22179966016487e+005	(-6.03691533780940e+000dB,2.70223512228406e+000°)
1.22461619926504e+005	(-6.03667475196333e+000dB,2.70612433450863e+000°)
1.22743923115840e+005	(-6.03643318137068e+000dB,2.71002714734246e+000°)
1.23026877081238e+005	(-6.03619062098646e+000dB,2.71394357625766e+000°)
1.23310483322890e+005	(-6.03594706574640e+000dB,2.71787363676531e+000°)
1.23594743344450e+005	(-6.03570251056520e+000dB,2.72181734441159e+000°)
1.23879658653036e+005	(-6.03545695033751e+000dB,2.72577471477951e+000°)
1.24165230759240e+005	(-6.03521037993717e+000dB,2.72974576348956e+000°)
1.24451461177138e+005	(-6.03496279421734e+000dB,2.73373050619718e+000°)
1.24738351424294e+005	(-6.03471418801055e+000dB,2.73772895859455e+000°)
1.25025903021771e+005	(-6.03446455612868e+000dB,2.74174113641056e+000°)
1.25314117494141e+005	(-6.03421389336225e+000dB,2.74576705540841e+000°)
1.25602996369487e+005	(-6.03396219448053e+000dB,2.74980673138744e+000°)
1.25892541179416e+005	(-6.03370945423236e+000dB,2.75386018018263e+000°)
1.26182753459066e+005	(-6.03345566734461e+000dB,2.75792741766475e+000°)
1.26473634747114e+005	(-6.03320082852303e+000dB,2.76200845973687e+000°)
1.26765186585784e+005	(-6.03294493245204e+000dB,2.76610332234152e+000°)
1.27057410520853e+005	(-6.03268797379413e+000dB,2.77021202145253e+000°)
1.27350308101665e+005	(-6.03242994719016e+000dB,2.77433457307840e+000°)
1.27643880881134e+005	(-6.03217084725936e+000dB,2.77847099326347e+000°)
1.27938130415752e+005	(-6.03191066859914e+000dB,2.78262129808546e+000°)
1.28233058265601e+005	(-6.03164940578432e+000dB,2.78678550365655e+000°)
1.28528665994361e+005	(-6.03138705336837e+000dB,2.79096362612181e+000°)
1.28824955169313e+005	(-6.03112360588191e+000dB,2.79515568166044e+000°)
1.29121927361353e+005	(-6.03085905783316e+000dB,2.79936168648461e+000°)
1.29419584144998e+005	(-6.03059340370832e+000dB,2.80358165684092e+000°)
1.29717927098395e+005	(-6.03032663797116e+000dB,2.80781560900729e+000°)
1.30016957803328e+005	(-6.03005875506206e+000dB,2.81206355929617e+000°)
1.30316677845229e+005	(-6.02978974939931e+000dB,2.81632552405130e+000°)
1.30617088813183e+005	(-6.02951961537773e+000dB,2.82060151964935e+000°)
1.30918192299940e+005	(-6.02924834736976e+000dB,2.82489156250002e+000°)
1.31219989901919e+005	(-6.02897593972398e+000dB,2.82919566904321e+000°)
1.31522483219223e+005	(-6.02870238676654e+000dB,2.83351385575215e+000°)
1.31825673855640e+005	(-6.02842768279968e+000dB,2.83784613913134e+000°)
1.32129563418657e+005	(-6.02815182210224e+000dB,2.84219253571640e+000°)
1.32434153519466e+005	(-6.02787479893007e+000dB,2.84655306207522e+000°)
1.32739445772973e+005	(-6.02759660751444e+000dB,2.85092773480452e+000°)
1.33045441797808e+005	(-6.02731724206342e+000dB,2.85531657053328e+000°)
1.33352143216332e+005	(-6.02703669676108e+000dB,2.85971958592131e+000°)
1.33659551654643e+005	(-6.02675496576764e+000dB,2.86413679765880e+000°)
1.33967668742593e+005	(-6.02647204321871e+000dB,2.86856822246451e+000°)
1.34276496113785e+005	(-6.02618792322606e+000dB,2.87301387708889e+000°)
1.34586035405594e+005	(-6.02590259987687e+000dB,2.87747377831099e+000°)
1.34896288259164e+005	(-6.02561606723404e+000dB,2.88194794294030e+000°)
1.35207256319427e+005	(-6.02532831933588e+000dB,2.88643638781447e+000°)
1.35518941235103e+005	(-6.02503935019553e+000dB,2.89093912980070e+000°)
1.35831344658714e+005	(-6.02474915380179e+000dB,2.89545618579409e+000°)
1.36144468246594e+005	(-6.02445772411868e+000dB,2.89998757272105e+000°)
1.36458313658891e+005	(-6.02416505508433e+000dB,2.90453330753213e+000°)
1.36772882559584e+005	(-6.02387114061245e+000dB,2.90909340720962e+000°)
1.37088176616484e+005	(-6.02357597459137e+000dB,2.91366788876264e+000°)
1.37404197501251e+005	(-6.02327955088340e+000dB,2.91825676922592e+000°)
1.37720946889394e+005	(-6.02298186332597e+000dB,2.92286006566404e+000°)
1.38038426460288e+005	(-6.02268290573057e+000dB,2.92747779516757e+000°)
1.38356637897177e+005	(-6.02238267188282e+000dB,2.93210997485388e+000°)
1.38675582887188e+005	(-6.02208115554283e+000dB,2.93675662186793e+000°)
1.38995263121334e+005	(-6.02177835044397e+000dB,2.94141775337967e+000°)
1.39315680294529e+005	(-6.02147425029400e+000dB,2.94609338658602e+000°)
1.39636836105593e+005	(-6.02116884877446e+000dB,2.95078353870979e+000°)
1.39958732257261e+005	(-6.02086213954022e+000dB,2.95548822699885e+000°)
1.40281370456195e+005	(-6.02055411621962e+000dB,2.96020746872711e+000°)
1.40604752412990e+005	(-6.02024477241453e+000dB,2.96494128119271e+000°)
1.40928879842186e+005	(-6.01993410170018e+000dB,2.96968968172008e+000°)
1.41253754462274e+005	(-6.01962209762431e+000dB,2.97445268765607e+000°)
1.41579377995707e+005	(-6.01930875370826e+000dB,2.97923031637330e+000°)
1.41905752168908e+005	(-6.01899406344593e+000dB,2.98402258526872e+000°)
1.42232878712281e+005	(-6.01867802030383e+000dB,2.98882951176125e+000°)
1.42560759360218e+005	(-6.01836061772152e+000dB,2.99365111329552e+000°)
1.42889395851109e+005	(-6.01804184911056e+000dB,2.99848740733760e+000°)
1.43218789927353e+005	(-6.01772170785510e+000dB,3.00333841137711e+000°)
1.43548943335364e+005	(-6.01740018731149e+000dB,3.00820414292652e+000°)
1.43879857825583e+005	(-6.01707728080802e+000dB,3.01308461952042e+000°)
1.44211535152486e+005	(-6.01675298164518e+000dB,3.01797985871605e+000°)
1.44543977074592e+005	(-6.01642728309512e+000dB,3.02288987809151e+000°)
1.44877185354475e+005	(-6.01610017840155e+000dB,3.02781469524612e+000°)
1.45211161758773e+005	(-6.01577166078009e+000dB,3.03275432780178e+000°)
1.45545908058195e+005	(-6.01544172341750e+000dB,3.03770879340060e+000°)
1.45881426027534e+005	(-6.01511035947193e+000dB,3.04267810970447e+000°)
1.46217717445671e+005	(-6.01477756207277e+000dB,3.04766229439685e+000°)
1.46554784095590e+005	(-6.01444332432039e+000dB,3.05266136518048e+000°)
1.46892627764385e+005	(-6.01410763928610e+000dB,3.05767533977845e+000°)
1.47231250243271e+005	(-6.01377050001212e+000dB,3.06270423593279e+000°)
1.47570653327588e+005	(-6.01343189951074e+000dB,3.06774807140378e+000°)
1.47910838816820e+005	(-6.01309183076519e+000dB,3.07280686397110e+000°)
1.48251808514594e+005	(-6.01275028672943e+000dB,3.07788063143468e+000°)
1.48593564228699e+005	(-6.01240726032681e+000dB,3.08296939160906e+000°)
1.48936107771090e+005	(-6.01206274445137e+000dB,3.08807316232927e+000°)
1.49279440957898e+005	(-6.01171673196688e+000dB,3.09319196144679e+000°)
1.49623565609442e+005	(-6.01136921570695e+000dB,3.09832580683033e+000°)
1.49968483550236e+005	(-6.01102018847515e+000dB,3.10347471636586e+000°)
1.50314196609001e+005	(-6.01066964304412e+000dB,3.10863870795563e+000°)
1.50660706618673e+005	(-6.01031757215619e+000dB,3.11381779951757e+000°)
1.51008015416414e+005	(-6.00996396852263e+000dB,3.11901200898489e+000°)
1.51356124843619e+005	(-6.00960882482442e+000dB,3.12422135430865e+000°)
1.51705036745932e+005	(-6.00925213371108e+000dB,3.12944585345293e+000°)
1.52054752973248e+005	(-6.00889388780106e+000dB,3.13468552439704e+000°)
1.52405275379728e+005	(-6.00853407968157e+000dB,3.13994038513473e+000°)
1.52756605823806e+005	(-6.00817270190843e+000dB,3.14521045367536e+000°)
1.53108746168202e+005	(-6.00780974700552e+000dB,3.15049574803874e+000°)
1.53461698279928e+005	(-6.00744520746548e+000dB,3.15579628626088e+000°)
1.53815464030302e+005	(-6.00707907574863e+000dB,3.16111208638952e+000°)
1.54170045294955e+005	(-6.00671134428384e+000dB,3.16644316648646e+000°)
1.54525443953840e+005	(-6.00634200546713e+000dB,3.17178954462339e+000°)
1.54881661891247e+005	(-6.00597105166298e+000dB,3.17715123888704e+000°)
1.55238700995807e+005	(-6.00559847520228e+000dB,3.18252826737093e+000°)
1.55596563160506e+005	(-6.00522426838471e+000dB,3.18792064818593e+000°)
1.55955250282694e+005	(-6.00484842347623e+000dB,3.19332839944839e+000°)
1.56314764264094e+005	(-6.00447093271039e+000dB,3.19875153928914e+000°)
1.56675107010813e+005	(-6.00409178828744e+000dB,3.20419008584556e+000°)
1.57036280433354e+005	(-6.00371098237424e+000dB,3.20964405726560e+000°)
1.57398286446620e+005	(-6.00332850710491e+000dB,3.21511347170859e+000°)
1.57761126969933e+005	(-6.00294435457968e+000dB,3.22059834734101e+000°)
1.58124803927037e+005	(-6.00255851686510e+000dB,3.22609870233669e+000°)
1.58489319246110e+005	(-6.00217098599437e+000dB,3.23161455488054e+000°)
1.58854674859776e+005	(-6.00178175396606e+000dB,3.23714592316237e+000°)
1.59220872705115e+005	(-6.00139081274497e+000dB,3.24269282537932e+000°)
1.59587914723672e+005	(-6.00099815426197e+000dB,3.24825527973789e+000°)
1.59955802861465e+005	(-6.00060377041316e+000dB,3.25383330444871e+000°)
1.60324539069002e+005	(-6.00020765306007e+000dB,3.25942691772902e+000°)
1.60694125301286e+005	(-5.99980979402973e+000dB,3.26503613780148e+000°)
1.61064563517825e+005	(-5.99941018511434e+000dB,3.27066098289585e+000°)
1.61435855682647e+005	(-5.99900881807068e+000dB,3.27630147124251e+000°)
1.61808003764305e+005	(-5.99860568462092e+000dB,3.28195762108084e+000°)
1.62181009735891e+005	(-5.99820077645134e+000dB,3.28762945065001e+000°)
1.62554875575047e+005	(-5.99779408521295e+000dB,3.29331697819463e+000°)
1.62929603263970e+005	(-5.99738560252156e+000dB,3.29902022196361e+000°)
1.63305194789432e+005	(-5.99697531995641e+000dB,3.30473920020597e+000°)
1.63681652142779e+005	(-5.99656322906120e+000dB,3.31047393117282e+000°)
1.64058977319952e+005	(-5.99614932134356e+000dB,3.31622443311966e+000°)
1.64437172321491e+005	(-5.99573358827486e+000dB,3.32199072430111e+000°)
1.64816239152549e+005	(-5.99531602128952e+000dB,3.32777282297163e+000°)
1.65196179822900e+005	(-5.99489661178618e+000dB,3.33357074738920e+000°)
1.65576996346951e+005	(-5.99447535112594e+000dB,3.33938451580821e+000°)
1.65958690743754e+005	(-5.99405223063340e+000dB,3.34521414648380e+000°)
1.66341265037015e+005	(-5.99362724159583e+000dB,3.35105965766944e+000°)
1.66724721255104e+005	(-5.99320037526373e+000dB,3.35692106761929e+000°)
1.67109061431069e+005	(-5.99277162284953e+000dB,3.36279839458285e+000°)
1.67494287602642e+005	(-5.99234097552863e+000dB,3.36869165680814e+000°)
1.67880401812254e+005	(-5.99190842443800e+000dB,3.37460087253813e+000°)
1.68267406107045e+005	(-5.99147396067773e+000dB,3.38052606001719e+000°)
1.68655302538872e+005	(-5.99103757530878e+000dB,3.38646723748008e+000°)
1.69044093164324e+005	(-5.99059925935447e+000dB,3.39242442316068e+000°)
1.69433780044731e+005	(-5.99015900379961e+000dB,3.39839763528593e+000°)
1.69824365246172e+005	(-5.98971679959001e+000dB,3.40438689207694e+000°)
1.70215850839493e+005	(-5.98927263763351e+000dB,3.41039221175205e+000°)
1.70608238900310e+005	(-5.98882650879818e+000dB,3.41641361251749e+000°)
1.71001531509027e+005	(-5.98837840391358e+000dB,3.42245111257806e+000°)
1.71395730750840e+005	(-5.98792831376997e+000dB,3.42850473012826e+000°)
1.71790838715757e+005	(-5.98747622911778e+000dB,3.43457448335327e+000°)
1.72186857498599e+005	(-5.98702214066806e+000dB,3.44066039043111e+000°)
1.72583789199018e+005	(-5.98656603909234e+000dB,3.44676246953247e+000°)
1.72981635921508e+005	(-5.98610791502160e+000dB,3.45288073881360e+000°)
1.73380399775412e+005	(-5.98564775904743e+000dB,3.45901521642509e+000°)
1.73780082874935e+005	(-5.98518556172034e+000dB,3.46516592050313e+000°)
1.74180687339159e+005	(-5.98472131355082e+000dB,3.47133286917488e+000°)
1.74582215292048e+005	(-5.98425500500882e+000dB,3.47751608055491e+000°)
1.74984668862463e+005	(-5.98378662652310e+000dB,3.48371557274521e+000°)
1.75388050184174e+005	(-5.98331616848128e+000dB,3.48993136383265e+000°)
1.75792361395867e+005	(-5.98284362123063e+000dB,3.49616347189523e+000°)
1.76197604641161e+005	(-5.98236897507604e+000dB,3.50241191499212e+000°)
1.76603782068614e+005	(-5.98189222028157e+000dB,3.50867671117014e+000°)
1.77010895831740e+005	(-5.98141334706905e+000dB,3.51495787845933e+000°)
1.77418948089014e+005	(-5.98093234561894e+000dB,3.52125543487521e+000°)
1.77827941003890e+005	(-5.98044920606896e+000dB,3.52756939841533e+000°)
1.78237876744807e+005	(-5.97996391851509e+000dB,3.53389978706118e+000°)
1.78648757485203e+005	(-5.97947647301082e+000dB,3.54024661877627e+000°)
1.79060585403527e+005	(-5.97898685956668e+000dB,3.54660991150511e+000°)
1.79473362683250e+005	(-5.97849506815048e+000dB,3.55298968317323e+000°)
1.79887091512876e+005	(-5.97800108868713e+000dB,3.55938595168686e+000°)
1.80301774085954e+005	(-5.97750491105864e+000dB,3.56579873493422e+000°)
1.80717412601090e+005	(-5.97700652510293e+000dB,3.57222805077790e+000°)
1.81134009261958e+005	(-5.97650592061494e+000dB,3.57867391706288e+000°)
1.81551566277311e+005	(-5.97600308734560e+000dB,3.58513635161069e+000°)
1.81970085860996e+005	(-5.97549801500199e+000dB,3.59161537222010e+000°)
1.82389570231961e+005	(-5.97499069324730e+000dB,3.59811099666859e+000°)
1.82810021614272e+005	(-5.97448111169973e+000dB,3.60462324270493e+000°)
1.83231442237119e+005	(-5.97396925993370e+000dB,3.61115212805736e+000°)
1.83653834334832e+005	(-5.97345512747837e+000dB,3.61769767042665e+000°)
1.84077200146893e+005	(-5.97293870381864e+000dB,3.62425988748977e+000°)
1.84501541917945e+005	(-5.97241997839368e+000dB,3.63083879689357e+000°)
1.84926861897805e+005	(-5.97189894059782e+000dB,3.63743441626135e+000°)
1.85353162341478e+005	(-5.97137557977968e+000dB,3.64404676318519e+000°)
1.85780445509167e+005	(-5.97084988524237e+000dB,3.65067585523057e+000°)
1.86208713666284e+005	(-5.97032184624320e+000dB,3.65732170993226e+000°)
1.86637969083464e+005	(-5.96979145199323e+000dB,3.66398434479600e+000°)
1.87068214036577e+005	(-5.96925869165723e+000dB,3.67066377729526e+000°)
1.87499450806739e+005	(-5.96872355435409e+000dB,3.67736002487465e+000°)
1.87931681680324e+005	(-5.96818602915513e+000dB,3.68407310494303e+000°)
1.88364908948977e+005	(-5.96764610508578e+000dB,3.69080303487920e+000°)
1.88799134909627e+005	(-5.96710377112378e+000dB,3.69754983202669e+000°)
