Freq.	V(outint)
1.00000000000000e+001	(1.00931239658475e+001dB,-1.22747454228077e+000°)
1.02329299228075e+001	(1.00930301798383e+001dB,-1.25605706180412e+000°)
1.04712854805090e+001	(1.00929319755436e+001dB,-1.28530470776848e+000°)
1.07151930523761e+001	(1.00928291457790e+001dB,-1.31523292682937e+000°)
1.09647819614319e+001	(1.00927214716174e+001dB,-1.34585752201667e+000°)
1.12201845430196e+001	(1.00926087267890e+001dB,-1.37719466112036e+000°)
1.14815362149688e+001	(1.00924906705764e+001dB,-1.40926088454099e+000°)
1.17489755493953e+001	(1.00923670547829e+001dB,-1.44207311402539e+000°)
1.20226443461741e+001	(1.00922376165146e+001dB,-1.47564866119146e+000°)
1.23026877081238e+001	(1.00921020825098e+001dB,-1.51000523607791e+000°)
1.25892541179417e+001	(1.00919601649705e+001dB,-1.54516095643600e+000°)
1.28824955169313e+001	(1.00918115649936e+001dB,-1.58113435627714e+000°)
1.31825673855641e+001	(1.00916559665633e+001dB,-1.61794439624579e+000°)
1.34896288259165e+001	(1.00914930406665e+001dB,-1.65561047201273e+000°)
1.38038426460288e+001	(1.00913224429726e+001dB,-1.69415242456418e+000°)
1.41253754462275e+001	(1.00911438121718e+001dB,-1.73359055019328e+000°)
1.44543977074593e+001	(1.00909567713450e+001dB,-1.77394561024979e+000°)
1.47910838816821e+001	(1.00907609239985e+001dB,-1.81523884145708e+000°)
1.51356124843621e+001	(1.00905558562946e+001dB,-1.85749196688910e+000°)
1.54881661891248e+001	(1.00903411344197e+001dB,-1.90072720630990e+000°)
1.58489319246111e+001	(1.00901163037254e+001dB,-1.94496728658020e+000°)
1.62181009735893e+001	(1.00898808898145e+001dB,-1.99023545422014e+000°)
1.65958690743756e+001	(1.00896343949130e+001dB,-2.03655548485274e+000°)
1.69824365246174e+001	(1.00893762980942e+001dB,-2.08395169651121e+000°)
1.73780082874937e+001	(1.00891060545834e+001dB,-2.13244896013021e+000°)
1.77827941003892e+001	(1.00888230921171e+001dB,-2.18207271207105e+000°)
1.81970085860998e+001	(1.00885268142978e+001dB,-2.23284896609149e+000°)
1.86208713666287e+001	(1.00882165946813e+001dB,-2.28480432619124e+000°)
1.90546071796325e+001	(1.00878917781763e+001dB,-2.33796599854402e+000°)
1.94984459975804e+001	(1.00875516806083e+001dB,-2.39236180438414e+000°)
1.99526231496888e+001	(1.00871955829700e+001dB,-2.44802019380770e+000°)
2.04173794466953e+001	(1.00868227337756e+001dB,-2.50497025758847e+000°)
2.08929613085404e+001	(1.00864323469163e+001dB,-2.56324174259359e+000°)
2.13796208950223e+001	(1.00860236001852e+001dB,-2.62286506365683e+000°)
2.18776162394955e+001	(1.00855956304053e+001dB,-2.68387131804027e+000°)
2.23872113856834e+001	(1.00851475358954e+001dB,-2.74629229973339e+000°)
2.29086765276777e+001	(1.00846783734699e+001dB,-2.81016051341104e+000°)
2.34422881531992e+001	(1.00841871548777e+001dB,-2.87550918867395e+000°)
2.39883291901949e+001	(1.00836728447512e+001dB,-2.94237229594770e+000°)
2.45470891568503e+001	(1.00831343616106e+001dB,-3.01078455888572e+000°)
2.51188643150958e+001	(1.00825705712405e+001dB,-3.08078147246380e+000°)
2.57039578276886e+001	(1.00819802894339e+001dB,-3.15239931498330e+000°)
2.63026799189538e+001	(1.00813622745811e+001dB,-3.22567516555723e+000°)
2.69153480392691e+001	(1.00807152279189e+001dB,-3.30064691903618e+000°)
2.75422870333816e+001	(1.00800377892783e+001dB,-3.37735330059783e+000°)
2.81838293126445e+001	(1.00793285375436e+001dB,-3.45583388362106e+000°)
2.88403150312660e+001	(1.00785859840465e+001dB,-3.53612910330887e+000°)
2.95120922666638e+001	(1.00778085713101e+001dB,-3.61828027357951e+000°)
3.01995172040201e+001	(1.00769946693561e+001dB,-3.70232960332659e+000°)
3.09029543251359e+001	(1.00761425727410e+001dB,-3.78832021191379e+000°)
3.16227766016838e+001	(1.00752504972342e+001dB,-3.87629614582446e+000°)
3.23593656929628e+001	(1.00743165761253e+001dB,-3.96630239484845e+000°)
3.31131121482591e+001	(1.00733388553555e+001dB,-4.05838490662701e+000°)
3.38844156139202e+001	(1.00723152919825e+001dB,-4.15259060590937e+000°)
3.46736850452531e+001	(1.00712437480915e+001dB,-4.24896740709250e+000°)
3.54813389233575e+001	(1.00701219871076e+001dB,-4.34756423291899e+000°)
3.63078054770101e+001	(1.00689476698560e+001dB,-4.44843102822108e+000°)
3.71535229097172e+001	(1.00677183492051e+001dB,-4.55161877817298e+000°)
3.80189396320561e+001	(1.00664314647559e+001dB,-4.65717952018770e+000°)
3.89045144994280e+001	(1.00650843399562e+001dB,-4.76516636275633e+000°)
3.98107170553497e+001	(1.00636741748200e+001dB,-4.87563349831409e+000°)
4.07380277804112e+001	(1.00621980421236e+001dB,-4.98863621799001e+000°)
4.16869383470335e+001	(1.00606528778520e+001dB,-5.10423092717096e+000°)
4.26579518801592e+001	(1.00590354818975e+001dB,-5.22247515798489e+000°)
4.36515832240165e+001	(1.00573425056829e+001dB,-5.34342758225039e+000°)
4.46683592150962e+001	(1.00555704488210e+001dB,-5.46714802581997e+000°)
4.57088189614874e+001	(1.00537156523400e+001dB,-5.59369747966712e+000°)
4.67735141287197e+001	(1.00517742905939e+001dB,-5.72313811202190e+000°)
4.78630092322638e+001	(1.00497423649623e+001dB,-5.85553327657149e+000°)
4.89778819368445e+001	(1.00476156959803e+001dB,-5.99094752661783e+000°)
5.01187233627271e+001	(1.00453899150628e+001dB,-6.12944661837902e+000°)
5.12861383991364e+001	(1.00430604593074e+001dB,-6.27109752292551e+000°)
5.24807460249772e+001	(1.00406225585772e+001dB,-6.41596843035734e+000°)
5.37031796370252e+001	(1.00380712284179e+001dB,-6.56412875699192e+000°)
5.49540873857624e+001	(1.00354012630658e+001dB,-6.71564914621662e+000°)
5.62341325190348e+001	(1.00326072244010e+001dB,-6.87060147434533e+000°)
5.75439937337156e+001	(1.00296834321515e+001dB,-7.02905884637569e+000°)
5.88843655355588e+001	(1.00266239542270e+001dB,-7.19109560055043e+000°)
6.02559586074357e+001	(1.00234225958034e+001dB,-7.35678730010836e+000°)
6.16595001861481e+001	(1.00200728890676e+001dB,-7.52621073071918e+000°)
6.30957344480192e+001	(1.00165680825879e+001dB,-7.69944389249116e+000°)
6.45654229034654e+001	(1.00129011289834e+001dB,-7.87656598680403e+000°)
6.60693448007595e+001	(1.00090646723865e+001dB,-8.05765741027004e+000°)
6.76082975391980e+001	(1.00050510382108e+001dB,-8.24279973141653e+000°)
6.91830970918935e+001	(1.00008522191230e+001dB,-8.43207567630956e+000°)
7.07945784384136e+001	(9.99645986307762e+000dB,-8.62556910573042e+000°)
7.24435960074988e+001	(9.99186525718034e+000dB,-8.82336498935425e+000°)
7.41310241300916e+001	(9.98705931905677e+000dB,-9.02554937529697e+000°)
7.58577575029182e+001	(9.98203257733159e+000dB,-9.23220935826431e+000°)
7.76247116628690e+001	(9.97677516169311e+000dB,-9.44343304131918e+000°)
7.94328234724279e+001	(9.97127678390504e+000dB,-9.65930949285245e+000°)
8.12830516164097e+001	(9.96552672702401e+000dB,-9.87992870005364e+000°)
8.31763771102669e+001	(9.95951382675760e+000dB,-1.01053815153232e+001°)
8.51138038202374e+001	(9.95322645733041e+000dB,-1.03357596015925e+001°)
8.70963589956078e+001	(9.94665251506395e+000dB,-1.05711553632763e+001°)
8.91250938133743e+001	(9.93977940098050e+000dB,-1.08116618804888e+001°)
9.12010839355907e+001	(9.93259400636967e+000dB,-1.10573728336859e+001°)
9.33254300796988e+001	(9.92508269450408e+000dB,-1.13083824144180e+001°)
9.54992586021433e+001	(9.91723128528730e+000dB,-1.15647852415810e+001°)
9.77237220955808e+001	(9.90902503490477e+000dB,-1.18266762585807e+001°)
9.99999999999997e+001	(9.90044862305364e+000dB,-1.20941506316382e+001°)
1.02329299228075e+002	(9.89148613354319e+000dB,-1.23673036307868e+001°)
1.04712854805090e+002	(9.88212103694989e+000dB,-1.26462305100887e+001°)
1.07151930523760e+002	(9.87233617319740e+000dB,-1.29310263775681e+001°)
1.09647819614318e+002	(9.86211373719532e+000dB,-1.32217860462572e+001°)
1.12201845430196e+002	(9.85143525967710e+000dB,-1.35186038903385e+001°)
1.14815362149688e+002	(9.84028159084946e+000dB,-1.38215736836472e+001°)
1.17489755493953e+002	(9.82863288707783e+000dB,-1.41307884194265e+001°)
1.20226443461741e+002	(9.81646859260028e+000dB,-1.44463401364310e+001°)
1.23026877081238e+002	(9.80376742401729e+000dB,-1.47683197238537e+001°)
1.25892541179416e+002	(9.79050736120644e+000dB,-1.50968167098751e+001°)
1.28824955169313e+002	(9.77666562799446e+000dB,-1.54319190531938e+001°)
1.31825673855640e+002	(9.76221868239710e+000dB,-1.57737129046991e+001°)
1.34896288259165e+002	(9.74714220675548e+000dB,-1.61222823759083e+001°)
1.38038426460288e+002	(9.73141109355779e+000dB,-1.64777092811957e+001°)
1.41253754462275e+002	(9.71499944197000e+000dB,-1.68400728723375e+001°)
1.44543977074592e+002	(9.69788054656068e+000dB,-1.72094495603248e+001°)
1.47910838816820e+002	(9.68002689360724e+000dB,-1.75859126291292e+001°)
1.51356124843620e+002	(9.66141015739458e+000dB,-1.79695319323071e+001°)
1.54881661891248e+002	(9.64200119892043e+000dB,-1.83603735764686e+001°)
1.58489319246111e+002	(9.62177006637716e+000dB,-1.87584996021402e+001°)
1.62181009735892e+002	(9.60068599800967e+000dB,-1.91639676438482e+001°)
1.65958690743755e+002	(9.57871742983224e+000dB,-1.95768305875976e+001°)
1.69824365246174e+002	(9.55583200411117e+000dB,-1.99971362036613e+001°)
1.73780082874937e+002	(9.53199657781695e+000dB,-2.04249267961131e+001°)
1.77827941003892e+002	(9.50717724292212e+000dB,-2.08602388269531e+001°)
1.81970085860998e+002	(9.48133934107597e+000dB,-2.13031025248844e+001°)
1.86208713666286e+002	(9.45444749007652e+000dB,-2.17535415082681e+001°)
1.90546071796324e+002	(9.42646560621574e+000dB,-2.22115724026517e+001°)
1.94984459975804e+002	(9.39735693564402e+000dB,-2.26772044293020e+001°)
1.99526231496887e+002	(9.36708409125837e+000dB,-2.31504390208236e+001°)
2.04173794466952e+002	(9.33560908910863e+000dB,-2.36312694336452e+001°)
2.08929613085403e+002	(9.30289339358032e+000dB,-2.41196803501948e+001°)
2.13796208950222e+002	(9.26889796415798e+000dB,-2.46156474983044e+001°)
2.18776162394954e+002	(9.23358331124491e+000dB,-2.51191372632473e+001°)
2.23872113856833e+002	(9.19690955206325e+000dB,-2.56301063376739e+001°)
2.29086765276776e+002	(9.15883647367463e+000dB,-2.61485013503673e+001°)
2.34422881531991e+002	(9.11932360243858e+000dB,-2.66742585377924e+001°)
2.39883291901948e+002	(9.07833027485103e+000dB,-2.72073034198717e+001°)
2.45470891568502e+002	(9.03581571782206e+000dB,-2.77475504974400e+001°)
2.51188643150957e+002	(8.99173912837744e+000dB,-2.82949029859028e+001°)
2.57039578276885e+002	(8.94605976421675e+000dB,-2.88492525535359e+001°)
2.63026799189537e+002	(8.89873703283686e+000dB,-2.94104791257132e+001°)
2.69153480392690e+002	(8.84973058834703e+000dB,-2.99784506872309e+001°)
2.75422870333816e+002	(8.79900043124714e+000dB,-3.05530231422312e+001°)
2.81838293126444e+002	(8.74650701251318e+000dB,-3.11340402134164e+001°)
2.88403150312659e+002	(8.69221133809002e+000dB,-3.17213333766651e+001°)
2.95120922666637e+002	(8.63607508259813e+000dB,-3.23147218496607e+001°)
3.01995172040200e+002	(8.57806069487486e+000dB,-3.29140126180479e+001°)
3.09029543251358e+002	(8.51813151564167e+000dB,-3.35190005357276e+001°)
3.16227766016837e+002	(8.45625189214440e+000dB,-3.41294684345962e+001°)
3.23593656929627e+002	(8.39238728786453e+000dB,-3.47451873480431e+001°)
3.31131121482590e+002	(8.32650440287928e+000dB,-3.53659167271247e+001°)
3.38844156139201e+002	(8.25857128390887e+000dB,-3.59914047671012e+001°)
3.46736850452530e+002	(8.18855743674312e+000dB,-3.66213887564820e+001°)
3.54813389233574e+002	(8.11643393628999e+000dB,-3.72555954972481e+001°)
3.63078054770100e+002	(8.04217353188964e+000dB,-3.78937417727376e+001°)
3.71535229097171e+002	(7.96575074789768e+000dB,-3.85355348861516e+001°)
3.80189396320559e+002	(7.88714198522886e+000dB,-3.91806732332447e+001°)
3.89045144994279e+002	(7.80632560813109e+000dB,-3.98288469430601e+001°)
3.98107170553495e+002	(7.72328203127693e+000dB,-4.04797385597330e+001°)
4.07380277804111e+002	(7.63799380039073e+000dB,-4.11330237585594e+001°)
4.16869383470333e+002	(7.55044565974343e+000dB,-4.17883721312990e+001°)
4.26579518801591e+002	(7.46062461608435e+000dB,-4.24454479820366e+001°)
4.36515832240164e+002	(7.36851999288069e+000dB,-4.31039111791448e+001°)
4.46683592150961e+002	(7.27412347382934e+000dB,-4.37634180084363e+001°)
4.57088189614873e+002	(7.17742913823514e+000dB,-4.44236220802763e+001°)
4.67735141287196e+002	(7.07843348616850e+000dB,-4.50841752223393e+001°)
4.78630092322636e+002	(6.97713545235158e+000dB,-4.57447284106614e+001°)
4.89778819368444e+002	(6.87353641354429e+000dB,-4.64049326998524e+001°)
5.01187233627270e+002	(6.76764017770939e+000dB,-4.70644401293335e+001°)
5.12861383991362e+002	(6.65945297215071e+000dB,-4.77229046573879e+001°)
5.24807460249770e+002	(6.54898341629311e+000dB,-4.83799830638706e+001°)
5.37031796370250e+002	(6.43624248378604e+000dB,-4.90353358420663e+001°)
5.49540873857622e+002	(6.32124345934849e+000dB,-4.96886280586276e+001°)
5.62341325190346e+002	(6.20400188160439e+000dB,-5.03395301863479e+001°)
5.75439937337154e+002	(6.08453548147020e+000dB,-5.09877189231025e+001°)
5.88843655355586e+002	(5.96286410898126e+000dB,-5.16328779395595e+001°)
6.02559586074355e+002	(5.83900965408608e+000dB,-5.22746986092103e+001°)
6.16595001861479e+002	(5.71299596114578e+000dB,-5.29128806815787e+001°)
6.30957344480190e+002	(5.58484873617316e+000dB,-5.35471329134400e+001°)
6.45654229034652e+002	(5.45459544800088e+000dB,-5.41771736389632e+001°)
6.60693448007592e+002	(5.32226522892353e+000dB,-5.48027313006434e+001°)
6.76082975391978e+002	(5.18788876356285e+000dB,-5.54235449026336e+001°)
6.91830970918933e+002	(5.05149818395679e+000dB,-5.60393644340825e+001°)
7.07945784384134e+002	(4.91312695149243e+000dB,-5.66499512098356e+001°)
7.24435960074986e+002	(4.77280975225066e+000dB,-5.72550781779148e+001°)
7.41310241300914e+002	(4.63058237258041e+000dB,-5.78545301471026e+001°)
7.58577575029180e+002	(4.48648159160659e+000dB,-5.84481039906898e+001°)
7.76247116628688e+002	(4.34054506358614e+000dB,-5.90356087542129e+001°)
7.94328234724277e+002	(4.19281120714764e+000dB,-5.96168657504465e+001°)
8.12830516164095e+002	(4.04331909058396e+000dB,-6.01917085761273e+001°)
8.31763771102666e+002	(3.89210832536149e+000dB,-6.07599830916274e+001°)
8.51138038202372e+002	(3.73921896111488e+000dB,-6.13215473635285e+001°)
8.70963589956076e+002	(3.58469137960118e+000dB,-6.18762715539804e+001°)
8.91250938133741e+002	(3.42856619686834e+000dB,-6.24240377499742e+001°)
9.12010839355905e+002	(3.27088416722310e+000dB,-6.29647398173720e+001°)
9.33254300796986e+002	(3.11168609402135e+000dB,-6.34982831402923e+001°)
9.54992586021431e+002	(2.95101273910768e+000dB,-6.40245843925245e+001°)
9.77237220955805e+002	(2.78890474657013e+000dB,-6.45435712705328e+001°)
9.99999999999994e+002	(2.62540255864560e+000dB,-6.50551821601267e+001°)
1.02329299228075e+003	(2.46054634908373e+000dB,-6.55593658383031e+001°)
1.04712854805089e+003	(2.29437595276960e+000dB,-6.60560811290800e+001°)
1.07151930523760e+003	(2.12693080535053e+000dB,-6.65452965405191e+001°)
1.09647819614318e+003	(1.95824988370196e+000dB,-6.70269898948613e+001°)
1.12201845430196e+003	(1.78837165488462e+000dB,-6.75011479631022e+001°)
1.14815362149688e+003	(1.61733402723742e+000dB,-6.79677660673032e+001°)
1.17489755493952e+003	(1.44517430957724e+000dB,-6.84268476932014e+001°)
1.20226443461741e+003	(1.27192916900364e+000dB,-6.88784041025051e+001°)
1.23026877081237e+003	(1.09763459985874e+000dB,-6.93224539287441e+001°)
1.25892541179416e+003	(9.22325894347929e-001dB,-6.97590228016108e+001°)
1.28824955169313e+003	(7.46037613963626e-001dB,-7.01881429439730e+001°)
1.31825673855640e+003	(5.68803567679489e-001dB,-7.06098527875095e+001°)
1.34896288259165e+003	(3.90656797476270e-001dB,-7.10241966072997e+001°)
1.38038426460288e+003	(2.11629560194462e-001dB,-7.14312241361686e+001°)
1.41253754462275e+003	(3.17533154606940e-002dB,-7.18309902052672e+001°)
1.44543977074592e+003	(-1.48941279757524e-001dB,-7.22235543946028e+001°)
1.47910838816820e+003	(-3.30424379266808e-001dB,-7.26089806825735e+001°)
1.51356124843620e+003	(-5.12666949439047e-001dB,-7.29873371179361e+001°)
1.54881661891247e+003	(-6.95640770700844e-001dB,-7.33586954927364e+001°)
1.58489319246110e+003	(-8.79318434428833e-001dB,-7.37231310331484e+001°)
1.62181009735892e+003	(-1.06367334057034e+000dB,-7.40807220981022e+001°)
1.65958690743755e+003	(-1.24867969231111e+000dB,-7.44315498951479e+001°)
1.69824365246173e+003	(-1.43431248592835e+000dB,-7.47756982022879e+001°)
1.73780082874936e+003	(-1.62054750559085e+000dB,-7.51132531060799e+001°)
1.77827941003891e+003	(-1.80736131077854e+000dB,-7.54443027548673e+001°)
1.81970085860997e+003	(-1.99473122521848e+000dB,-7.57689371134129e+001°)
1.86208713666286e+003	(-2.18263532641876e+000dB,-7.60872477412339e+001°)
1.90546071796323e+003	(-2.37105242735240e+000dB,-7.63993275787264e+001°)
1.94984459975803e+003	(-2.55996206793874e+000dB,-7.67052707395007e+001°)
1.99526231496887e+003	(-2.74934449663816e+000dB,-7.70051723227986e+001°)
2.04173794466952e+003	(-2.93918065484526e+000dB,-7.72991282360732e+001°)
2.08929613085403e+003	(-3.12945216380983e+000dB,-7.75872350157513e+001°)
2.13796208950222e+003	(-3.32014130426728e+000dB,-7.78695896779753e+001°)
2.18776162394954e+003	(-3.51123100324112e+000dB,-7.81462895649006e+001°)
2.23872113856832e+003	(-3.70270481344627e+000dB,-7.84174322105028e+001°)
2.29086765276776e+003	(-3.89454690067323e+000dB,-7.86831152004237e+001°)
2.34422881531991e+003	(-4.08674202307452e+000dB,-7.89434360628646e+001°)
2.39883291901947e+003	(-4.27927551598395e+000dB,-7.91984921527326e+001°)
2.45470891568501e+003	(-4.47213327457763e+000dB,-7.94483805440681e+001°)
2.51188643150956e+003	(-4.66530173499300e+000dB,-7.96931979364145e+001°)
2.57039578276885e+003	(-4.85876786092548e+000dB,-7.99330405727134e+001°)
2.63026799189536e+003	(-5.05251912326030e+000dB,-8.01680041508674e+001°)
2.69153480392690e+003	(-5.24654348621646e+000dB,-8.03981837518144e+001°)
2.75422870333815e+003	(-5.44082939114510e+000dB,-8.06236737706110e+001°)
2.81838293126443e+003	(-5.63536573682417e+000dB,-8.08445678623872e+001°)
2.88403150312659e+003	(-5.83014187131111e+000dB,-8.10609588734189e+001°)
2.95120922666636e+003	(-6.02514756668691e+000dB,-8.12729388034361e+001°)
3.01995172040199e+003	(-6.22037301206774e+000dB,-8.14805987545958e+001°)
3.09029543251357e+003	(-6.41580879567121e+000dB,-8.16840288929066e+001°)
3.16227766016836e+003	(-6.61144589187749e+000dB,-8.18833184090113e+001°)
3.23593656929626e+003	(-6.80727564284295e+000dB,-8.20785554942972e+001°)
3.31131121482589e+003	(-7.00328975153043e+000dB,-8.22698273079465e+001°)
3.38844156139200e+003	(-7.19948026321794e+000dB,-8.24572199551157e+001°)
3.46736850452529e+003	(-7.39583955430610e+000dB,-8.26408184676630e+001°)
3.54813389233573e+003	(-7.59236032145266e+000dB,-8.28207067865795e+001°)
3.63078054770099e+003	(-7.78903556672102e+000dB,-8.29969677519217e+001°)
3.71535229097170e+003	(-7.98585858675419e+000dB,-8.31696830855174e+001°)
3.80189396320558e+003	(-8.18282296212888e+000dB,-8.33389333919107e+001°)
3.89045144994278e+003	(-8.37992254493884e+000dB,-8.35047981458692e+001°)
3.98107170553494e+003	(-8.57715145115222e+000dB,-8.36673556928443e+001°)
4.07380277804110e+003	(-8.77450404494027e+000dB,-8.38266832473053e+001°)
4.16869383470332e+003	(-8.97197493370024e+000dB,-8.39828568957482e+001°)
4.26579518801589e+003	(-9.16955895550820e+000dB,-8.41359515987980e+001°)
4.36515832240162e+003	(-9.36725117164035e+000dB,-8.42860411926093e+001°)
4.46683592150960e+003	(-9.56504685666015e+000dB,-8.44331983991764e+001°)
4.57088189614871e+003	(-9.76294148981989e+000dB,-8.45774948352843e+001°)
4.67735141287194e+003	(-9.96093074600514e+000dB,-8.47190010163089e+001°)
4.78630092322634e+003	(-1.01590104899012e+001dB,-8.48577863723011e+001°)
4.89778819368442e+003	(-1.03571767662864e+001dB,-8.49939192567189e+001°)
5.01187233627268e+003	(-1.05554257929921e+001dB,-8.51274669576206e+001°)
5.12861383991361e+003	(-1.07537539530565e+001dB,-8.52584957161317e+001°)
5.24807460249768e+003	(-1.09521577913999e+001dB,-8.53870707323513e+001°)
5.37031796370248e+003	(-1.11506340040824e+001dB,-8.55132561895174e+001°)
5.49540873857620e+003	(-1.13491794344585e+001dB,-8.56371152641967e+001°)
5.62341325190344e+003	(-1.15477910637255e+001dB,-8.57587101460639e+001°)
