Freq.	V(n004)/I(R1)
1.00000000000000e+001	(3.34429042018216e+001dB,-1.79279701079193e+002°)
1.00230523807790e+001	(3.34429073680342e+001dB,-1.79278040794022e+002°)
1.00461579027840e+001	(3.34429105490966e+001dB,-1.79276376682693e+002°)
1.00693166885180e+001	(3.34429137449415e+001dB,-1.79274708736407e+002°)
1.00925288607668e+001	(3.34429169555010e+001dB,-1.79273036946342e+002°)
1.01157945425990e+001	(3.34429201807073e+001dB,-1.79271361303657e+002°)
1.01391138573668e+001	(3.34429234209452e+001dB,-1.79269681799454e+002°)
1.01624869287070e+001	(3.34429266765994e+001dB,-1.79267998424813e+002°)
1.01859138805412e+001	(3.34429299466944e+001dB,-1.79266311170908e+002°)
1.02093948370768e+001	(3.34429332320675e+001dB,-1.79264620028740e+002°)
1.02329299228075e+001	(3.34429365321958e+001dB,-1.79262924989406e+002°)
1.02565192625141e+001	(3.34429398479160e+001dB,-1.79261226043864e+002°)
1.02801629812647e+001	(3.34429431791577e+001dB,-1.79259523183132e+002°)
1.03038612044162e+001	(3.34429465253973e+001dB,-1.79257816398244e+002°)
1.03276140576140e+001	(3.34429498874703e+001dB,-1.79256105680096e+002°)
1.03514216667934e+001	(3.34429532648523e+001dB,-1.79254391019682e+002°)
1.03752841581801e+001	(3.34429566579249e+001dB,-1.79252672407898e+002°)
1.03992016582906e+001	(3.34429600661632e+001dB,-1.79250949835694e+002°)
1.04231742939330e+001	(3.34429634904014e+001dB,-1.79249223293885e+002°)
1.04472021922080e+001	(3.34429669305670e+001dB,-1.79247492773342e+002°)
1.04712854805090e+001	(3.34429703865871e+001dB,-1.79245758264914e+002°)
1.04954242865232e+001	(3.34429738588419e+001dB,-1.79244019759392e+002°)
1.05196187382322e+001	(3.34429773463512e+001dB,-1.79242277247663e+002°)
1.05438689639126e+001	(3.34429808508542e+001dB,-1.79240530720356e+002°)
1.05681750921366e+001	(3.34429843709169e+001dB,-1.79238780168355e+002°)
1.05925372517729e+001	(3.34429879073713e+001dB,-1.79237025582327e+002°)
1.06169555719872e+001	(3.34429914605958e+001dB,-1.79235266952955e+002°)
1.06414301822431e+001	(3.34429950296087e+001dB,-1.79233504271021e+002°)
1.06659612123026e+001	(3.34429986152407e+001dB,-1.79231737527126e+002°)
1.06905487922266e+001	(3.34430022169629e+001dB,-1.79229966711970e+002°)
1.07151930523761e+001	(3.34430058365118e+001dB,-1.79228191816032e+002°)
1.07398941234124e+001	(3.34430094719978e+001dB,-1.79226412830088e+002°)
1.07646521362983e+001	(3.34430131242505e+001dB,-1.79224629744654e+002°)
1.07894672222983e+001	(3.34430167931926e+001dB,-1.79222842550303e+002°)
1.08143395129794e+001	(3.34430204791995e+001dB,-1.79221051237547e+002°)
1.08392691402120e+001	(3.34430241826464e+001dB,-1.79219255796876e+002°)
1.08642562361706e+001	(3.34430279030018e+001dB,-1.79217456218840e+002°)
1.08893009333343e+001	(3.34430316401868e+001dB,-1.79215652493927e+002°)
1.09144033644875e+001	(3.34430353945756e+001dB,-1.79213844612559e+002°)
1.09395636627209e+001	(3.34430391665419e+001dB,-1.79212032565141e+002°)
1.09647819614318e+001	(3.34430429560058e+001dB,-1.79210216342093e+002°)
1.09900583943252e+001	(3.34430467628871e+001dB,-1.79208395933816e+002°)
1.10153930954141e+001	(3.34430505871051e+001dB,-1.79206571330687e+002°)
1.10407861990207e+001	(3.34430544294855e+001dB,-1.79204742522980e+002°)
1.10662378397766e+001	(3.34430582890404e+001dB,-1.79202909501110e+002°)
1.10917481526240e+001	(3.34430621665945e+001dB,-1.79201072255306e+002°)
1.11173172728159e+001	(3.34430660620657e+001dB,-1.79199230775857e+002°)
1.11429453359173e+001	(3.34430699758249e+001dB,-1.79197385052989e+002°)
1.11686324778056e+001	(3.34430739073358e+001dB,-1.79195535076988e+002°)
1.11943788346715e+001	(3.34430778569686e+001dB,-1.79193680838035e+002°)
1.12201845430196e+001	(3.34430818250928e+001dB,-1.79191822326288e+002°)
1.12460497396692e+001	(3.34430858111712e+001dB,-1.79189959531967e+002°)
1.12719745617551e+001	(3.34430898160259e+001dB,-1.79188092445141e+002°)
1.12979591467279e+001	(3.34430938386656e+001dB,-1.79186221056029e+002°)
1.13240036323555e+001	(3.34430978803649e+001dB,-1.79184345354613e+002°)
1.13501081567231e+001	(3.34431019410382e+001dB,-1.79182465330981e+002°)
1.13762728582343e+001	(3.34431060201463e+001dB,-1.79180580975239e+002°)
1.14024978756117e+001	(3.34431101180561e+001dB,-1.79178692277387e+002°)
1.14287833478977e+001	(3.34431142346808e+001dB,-1.79176799227444e+002°)
1.14551294144553e+001	(3.34431183703866e+001dB,-1.79174901815364e+002°)
1.14815362149688e+001	(3.34431225255392e+001dB,-1.79173000031076e+002°)
1.15080038894443e+001	(3.34431266991440e+001dB,-1.79171093864618e+002°)
1.15345325782109e+001	(3.34431308929258e+001dB,-1.79169183305743e+002°)
1.15611224219210e+001	(3.34431351054360e+001dB,-1.79167268344487e+002°)
1.15877735615512e+001	(3.34431393374918e+001dB,-1.79165348970643e+002°)
1.16144861384034e+001	(3.34431435894571e+001dB,-1.79163425174026e+002°)
1.16412602941049e+001	(3.34431478603353e+001dB,-1.79161496944559e+002°)
1.16680961706096e+001	(3.34431521513957e+001dB,-1.79159564271922e+002°)
1.16949939101987e+001	(3.34431564625475e+001dB,-1.79157627145902e+002°)
1.17219536554813e+001	(3.34431607927929e+001dB,-1.79155685556354e+002°)
1.17489755493953e+001	(3.34431651438533e+001dB,-1.79153739492841e+002°)
1.17760597352080e+001	(3.34431695142769e+001dB,-1.79151788945216e+002°)
1.18032063565173e+001	(3.34431739048775e+001dB,-1.79149833903083e+002°)
1.18304155572516e+001	(3.34431783164689e+001dB,-1.79147874356025e+002°)
1.18576874816716e+001	(3.34431827475978e+001dB,-1.79145910293823e+002°)
1.18850222743701e+001	(3.34431871999834e+001dB,-1.79143941705922e+002°)
1.19124200802737e+001	(3.34431916721719e+001dB,-1.79141968582056e+002°)
1.19398810446427e+001	(3.34431961654281e+001dB,-1.79139990911667e+002°)
1.19674053130724e+001	(3.34432006796572e+001dB,-1.79138008684307e+002°)
1.19949930314937e+001	(3.34432052143102e+001dB,-1.79136021889548e+002°)
1.20226443461741e+001	(3.34432097697445e+001dB,-1.79134030516852e+002°)
1.20503594037179e+001	(3.34432143467701e+001dB,-1.79132034555607e+002°)
1.20781383510678e+001	(3.34432189443837e+001dB,-1.79130033995361e+002°)
1.21059813355048e+001	(3.34432235633944e+001dB,-1.79128028825455e+002°)
1.21338885046497e+001	(3.34432282032513e+001dB,-1.79126019035342e+002°)
1.21618600064636e+001	(3.34432328652158e+001dB,-1.79124004614271e+002°)
1.21898959892486e+001	(3.34432375482829e+001dB,-1.79121985551690e+002°)
1.22179966016487e+001	(3.34432422537132e+001dB,-1.79119961836799e+002°)
1.22461619926504e+001	(3.34432469800473e+001dB,-1.79117933459046e+002°)
1.22743923115840e+001	(3.34432517285450e+001dB,-1.79115900407579e+002°)
1.23026877081238e+001	(3.34432564986525e+001dB,-1.79113862671706e+002°)
1.23310483322890e+001	(3.34432612911753e+001dB,-1.79111820240572e+002°)
1.23594743344450e+001	(3.34432661055589e+001dB,-1.79109773103437e+002°)
1.23879658653036e+001	(3.34432709421546e+001dB,-1.79107721249441e+002°)
1.24165230759240e+001	(3.34432758008600e+001dB,-1.79105664667748e+002°)
1.24451461177138e+001	(3.34432806824789e+001dB,-1.79103603347404e+002°)
1.24738351424294e+001	(3.34432855864546e+001dB,-1.79101537277568e+002°)
1.25025903021771e+001	(3.34432905131366e+001dB,-1.79099466447283e+002°)
1.25314117494141e+001	(3.34432954619675e+001dB,-1.79097390845660e+002°)
1.25602996369487e+001	(3.34433004342022e+001dB,-1.79095310461596e+002°)
1.25892541179416e+001	(3.34433054292823e+001dB,-1.79093225284153e+002°)
1.26182753459066e+001	(3.34433104475554e+001dB,-1.79091135302271e+002°)
1.26473634747114e+001	(3.34433154889153e+001dB,-1.79089040504914e+002°)
1.26765186585784e+001	(3.34433205528021e+001dB,-1.79086940881069e+002°)
1.27057410520853e+001	(3.34433256409216e+001dB,-1.79084836419458e+002°)
1.27350308101665e+001	(3.34433307527128e+001dB,-1.79082727109016e+002°)
1.27643880881134e+001	(3.34433358876145e+001dB,-1.79080612938653e+002°)
1.27938130415752e+001	(3.34433410459711e+001dB,-1.79078493897159e+002°)
1.28233058265601e+001	(3.34433462285801e+001dB,-1.79076369973248e+002°)
1.28528665994361e+001	(3.34433514348786e+001dB,-1.79074241155755e+002°)
1.28824955169313e+001	(3.34433566652097e+001dB,-1.79072107433392e+002°)
1.29121927361353e+001	(3.34433619199158e+001dB,-1.79069968794844e+002°)
1.29419584144998e+001	(3.34433671984328e+001dB,-1.79067825228869e+002°)
1.29717927098395e+001	(3.34433725020085e+001dB,-1.79065676724004e+002°)
1.30016957803328e+001	(3.34433778296243e+001dB,-1.79063523269003e+002°)
1.30316677845229e+001	(3.34433831820740e+001dB,-1.79061364852400e+002°)
1.30617088813183e+001	(3.34433885587911e+001dB,-1.79059201462850e+002°)
1.30918192299940e+001	(3.34433939601151e+001dB,-1.79057033088882e+002°)
1.31219989901920e+001	(3.34433993868383e+001dB,-1.79054859718952e+002°)
1.31522483219223e+001	(3.34434048383926e+001dB,-1.79052681341635e+002°)
1.31825673855640e+001	(3.34434103151159e+001dB,-1.79050497945383e+002°)
1.32129563418657e+001	(3.34434158177988e+001dB,-1.79048309518571e+002°)
1.32434153519466e+001	(3.34434213449653e+001dB,-1.79046116049796e+002°)
1.32739445772973e+001	(3.34434268978581e+001dB,-1.79043917527332e+002°)
1.33045441797808e+001	(3.34434324763597e+001dB,-1.79041713939573e+002°)
1.33352143216332e+001	(3.34434380812588e+001dB,-1.79039505274789e+002°)
1.33659551654643e+001	(3.34434437115301e+001dB,-1.79037291521420e+002°)
1.33967668742593e+001	(3.34434493675080e+001dB,-1.79035072667735e+002°)
1.34276496113785e+001	(3.34434550499792e+001dB,-1.79032848701920e+002°)
1.34586035405594e+001	(3.34434607583702e+001dB,-1.79030619612288e+002°)
1.34896288259164e+001	(3.34434664930137e+001dB,-1.79028385387025e+002°)
1.35207256319427e+001	(3.34434722546948e+001dB,-1.79026146014238e+002°)
1.35518941235103e+001	(3.34434780423852e+001dB,-1.79023901482210e+002°)
1.35831344658714e+001	(3.34434838573221e+001dB,-1.79021651778943e+002°)
1.36144468246594e+001	(3.34434896984761e+001dB,-1.79019396892666e+002°)
1.36458313658891e+001	(3.34434955670834e+001dB,-1.79017136811328e+002°)
1.36772882559584e+001	(3.34435014625667e+001dB,-1.79014871523052e+002°)
1.37088176616484e+001	(3.34435073852544e+001dB,-1.79012601015834e+002°)
1.37404197501251e+001	(3.34435133354747e+001dB,-1.79010325277641e+002°)
1.37720946889394e+001	(3.34435193131016e+001dB,-1.79008044296464e+002°)
1.38038426460287e+001	(3.34435253180088e+001dB,-1.79005758060269e+002°)
1.38356637897177e+001	(3.34435313505224e+001dB,-1.79003466556939e+002°)
1.38675582887188e+001	(3.34435374114215e+001dB,-1.79001169774281e+002°)
1.38995263121334e+001	(3.34435434996714e+001dB,-1.78998867700279e+002°)
1.39315680294529e+001	(3.34435496165029e+001dB,-1.78996560322632e+002°)
1.39636836105593e+001	(3.34435557617869e+001dB,-1.78994247629166e+002°)
1.39958732257261e+001	(3.34435619344869e+001dB,-1.78991929607784e+002°)
1.40281370456195e+001	(3.34435681367385e+001dB,-1.78989606245994e+002°)
1.40604752412990e+001	(3.34435743665976e+001dB,-1.78987277531749e+002°)
1.40928879842186e+001	(3.34435806261988e+001dB,-1.78984943452501e+002°)
1.41253754462274e+001	(3.34435869140499e+001dB,-1.78982603996094e+002°)
1.41579377995707e+001	(3.34435932309245e+001dB,-1.78980259150082e+002°)
1.41905752168908e+001	(3.34435995771423e+001dB,-1.78977908902043e+002°)
1.42232878712281e+001	(3.34436059530222e+001dB,-1.78975553239524e+002°)
1.42560759360218e+001	(3.34436123575231e+001dB,-1.78973192150207e+002°)
1.42889395851109e+001	(3.34436187918693e+001dB,-1.78970825621478e+002°)
1.43218789927353e+001	(3.34436252563779e+001dB,-1.78968453640800e+002°)
1.43548943335364e+001	(3.34436317500058e+001dB,-1.78966076195769e+002°)
1.43879857825583e+001	(3.34436382739755e+001dB,-1.78963693273685e+002°)
1.44211535152486e+001	(3.34436448276957e+001dB,-1.78961304862032e+002°)
1.44543977074592e+001	(3.34436514123877e+001dB,-1.78958910948053e+002°)
1.44877185354475e+001	(3.34436580270057e+001dB,-1.78956511519229e+002°)
1.45211161758773e+001	(3.34436646718632e+001dB,-1.78954106562853e+002°)
1.45545908058195e+001	(3.34436713477262e+001dB,-1.78951696066131e+002°)
1.45881426027534e+001	(3.34436780544536e+001dB,-1.78949280016352e+002°)
1.46217717445671e+001	(3.34436847919035e+001dB,-1.78946858400775e+002°)
1.46554784095590e+001	(3.34436915603868e+001dB,-1.78944431206575e+002°)
1.46892627764385e+001	(3.34436983606670e+001dB,-1.78941998420843e+002°)
1.47231250243271e+001	(3.34437051916937e+001dB,-1.78939560030860e+002°)
1.47570653327588e+001	(3.34437120546824e+001dB,-1.78937116023603e+002°)
1.47910838816819e+001	(3.34437189490347e+001dB,-1.78934666386241e+002°)
1.48251808514594e+001	(3.34437258750581e+001dB,-1.78932211105803e+002°)
1.48593564228699e+001	(3.34437328335128e+001dB,-1.78929750169230e+002°)
1.48936107771090e+001	(3.34437398237983e+001dB,-1.78927283563604e+002°)
1.49279440957898e+001	(3.34437468466735e+001dB,-1.78924811275808e+002°)
1.49623565609442e+001	(3.34437539010834e+001dB,-1.78922333292921e+002°)
1.49968483550236e+001	(3.34437609886920e+001dB,-1.78919849601652e+002°)
1.50314196609001e+001	(3.34437681093493e+001dB,-1.78917360188910e+002°)
1.50660706618673e+001	(3.34437752619985e+001dB,-1.78914865041682e+002°)
1.51008015416413e+001	(3.34437824483013e+001dB,-1.78912364146589e+002°)
1.51356124843619e+001	(3.34437896671994e+001dB,-1.78909857490562e+002°)
1.51705036745932e+001	(3.34437969203532e+001dB,-1.78907345060159e+002°)
1.52054752973248e+001	(3.34438042057965e+001dB,-1.78904826842365e+002°)
1.52405275379728e+001	(3.34438115260946e+001dB,-1.78902302823564e+002°)
1.52756605823806e+001	(3.34438188792801e+001dB,-1.78899772990680e+002°)
1.53108746168202e+001	(3.34438262665572e+001dB,-1.78897237330208e+002°)
1.53461698279928e+001	(3.34438336882231e+001dB,-1.78894695828725e+002°)
1.53815464030302e+001	(3.34438411436677e+001dB,-1.78892148472894e+002°)
1.54170045294954e+001	(3.34438486336399e+001dB,-1.78889595249175e+002°)
1.54525443953840e+001	(3.34438561579815e+001dB,-1.78887036144111e+002°)
1.54881661891247e+001	(3.34438637178932e+001dB,-1.78884471144042e+002°)
1.55238700995807e+001	(3.34438713123088e+001dB,-1.78881900235566e+002°)
1.55596563160506e+001	(3.34438789415211e+001dB,-1.78879323405078e+002°)
1.55955250282694e+001	(3.34438866058222e+001dB,-1.78876740638940e+002°)
1.56314764264094e+001	(3.34438943055033e+001dB,-1.78874151923484e+002°)
1.56675107010813e+001	(3.34439020408550e+001dB,-1.78871557245010e+002°)
1.57036280433354e+001	(3.34439098121672e+001dB,-1.78868956589788e+002°)
1.57398286446620e+001	(3.34439176188223e+001dB,-1.78866349944175e+002°)
1.57761126969933e+001	(3.34439254620153e+001dB,-1.78863737294257e+002°)
1.58124803927037e+001	(3.34439333411271e+001dB,-1.78861118626331e+002°)
1.58489319246110e+001	(3.34439412564447e+001dB,-1.78858493926539e+002°)
1.58854674859776e+001	(3.34439492082539e+001dB,-1.78855863180995e+002°)
1.59220872705115e+001	(3.34439571972933e+001dB,-1.78853226375719e+002°)
1.59587914723672e+001	(3.34439652224876e+001dB,-1.78850583496941e+002°)
1.59955802861465e+001	(3.34439732854804e+001dB,-1.78847934530498e+002°)
1.60324539069002e+001	(3.34439813851948e+001dB,-1.78845279462556e+002°)
1.60694125301286e+001	(3.34439895219129e+001dB,-1.78842618279069e+002°)
1.61064563517825e+001	(3.34439976968226e+001dB,-1.78839950965839e+002°)
1.61435855682647e+001	(3.34440059092981e+001dB,-1.78837277508877e+002°)
1.61808003764305e+001	(3.34440141596190e+001dB,-1.78834597894039e+002°)
1.62181009735891e+001	(3.34440224480644e+001dB,-1.78831912107153e+002°)
1.62554875575047e+001	(3.34440307749124e+001dB,-1.78829220134011e+002°)
1.62929603263970e+001	(3.34440391395340e+001dB,-1.78826521960498e+002°)
1.63305194789432e+001	(3.34440475431122e+001dB,-1.78823817572220e+002°)
1.63681652142779e+001	(3.34440559854695e+001dB,-1.78821106954934e+002°)
1.64058977319952e+001	(3.34440644673342e+001dB,-1.78818390094243e+002°)
1.64437172321491e+001	(3.34440729876206e+001dB,-1.78815666975963e+002°)
1.64816239152549e+001	(3.34440815475085e+001dB,-1.78812937585570e+002°)
1.65196179822900e+001	(3.34440901468172e+001dB,-1.78810201908692e+002°)
1.65576996346951e+001	(3.34440987853650e+001dB,-1.78807459930923e+002°)
1.65958690743754e+001	(3.34441074643293e+001dB,-1.78804711637641e+002°)
1.66341265037015e+001	(3.34441161830736e+001dB,-1.78801957014437e+002°)
1.66724721255104e+001	(3.34441249423202e+001dB,-1.78799196046683e+002°)
1.67109061431069e+001	(3.34441337418842e+001dB,-1.78796428719843e+002°)
1.67494287602642e+001	(3.34441425820330e+001dB,-1.78793655019286e+002°)
1.67880401812254e+001	(3.34441514630333e+001dB,-1.78790874930346e+002°)
1.68267406107045e+001	(3.34441603846975e+001dB,-1.78788088438388e+002°)
1.68655302538872e+001	(3.34441693477437e+001dB,-1.78785295528618e+002°)
1.69044093164324e+001	(3.34441783524360e+001dB,-1.78782496186270e+002°)
1.69433780044731e+001	(3.34441873976777e+001dB,-1.78779690396736e+002°)
1.69824365246172e+001	(3.34441964855441e+001dB,-1.78776878144930e+002°)
1.70215850839493e+001	(3.34442056149368e+001dB,-1.78774059416177e+002°)
1.70608238900310e+001	(3.34442147870229e+001dB,-1.78771234195449e+002°)
1.71001531509027e+001	(3.34442240007022e+001dB,-1.78768402468006e+002°)
1.71395730750841e+001	(3.34442332575933e+001dB,-1.78765564218687e+002°)
1.71790838715757e+001	(3.34442425565941e+001dB,-1.78762719432684e+002°)
1.72186857498599e+001	(3.34442518988682e+001dB,-1.78759868094833e+002°)
1.72583789199018e+001	(3.34442612842184e+001dB,-1.78757010190129e+002°)
1.72981635921508e+001	(3.34442707124465e+001dB,-1.78754145703534e+002°)
1.73380399775412e+001	(3.34442801847132e+001dB,-1.78751274619779e+002°)
1.73780082874935e+001	(3.34442897003655e+001dB,-1.78748396923823e+002°)
1.74180687339159e+001	(3.34442992601089e+001dB,-1.78745512600394e+002°)
1.74582215292048e+001	(3.34443088637417e+001dB,-1.78742621634316e+002°)
1.74984668862464e+001	(3.34443185115144e+001dB,-1.78739724010314e+002°)
1.75388050184174e+001	(3.34443282041299e+001dB,-1.78736819713011e+002°)
1.75792361395867e+001	(3.34443379413836e+001dB,-1.78733908727129e+002°)
1.76197604641161e+001	(3.34443477239765e+001dB,-1.78730991037221e+002°)
1.76603782068614e+001	(3.34443575512490e+001dB,-1.78728066628005e+002°)
1.77010895831740e+001	(3.34443674239002e+001dB,-1.78725135483966e+002°)
1.77418948089014e+001	(3.34443773421749e+001dB,-1.78722197589618e+002°)
1.77827941003890e+001	(3.34443873058639e+001dB,-1.78719252929509e+002°)
1.78237876744807e+001	(3.34443973161166e+001dB,-1.78716301487951e+002°)
1.78648757485203e+001	(3.34444073718153e+001dB,-1.78713343249554e+002°)
1.79060585403527e+001	(3.34444174745609e+001dB,-1.78710378198490e+002°)
1.79473362683250e+001	(3.34444276236869e+001dB,-1.78707406319235e+002°)
1.79887091512877e+001	(3.34444378198856e+001dB,-1.78704427596024e+002°)
1.80301774085955e+001	(3.34444480624888e+001dB,-1.78701442013260e+002°)
1.80717412601090e+001	(3.34444583530932e+001dB,-1.78698449554973e+002°)
1.81134009261958e+001	(3.34444686910286e+001dB,-1.78695450205494e+002°)
1.81551566277311e+001	(3.34444790760768e+001dB,-1.78692443949054e+002°)
1.81970085860996e+001	(3.34444895093785e+001dB,-1.78689430769642e+002°)
1.82389570231961e+001	(3.34444999907136e+001dB,-1.78686410651413e+002°)
1.82810021614272e+001	(3.34445105207674e+001dB,-1.78683383578354e+002°)
1.83231442237119e+001	(3.34445210993178e+001dB,-1.78680349534549e+002°)
1.83653834334832e+001	(3.34445317265950e+001dB,-1.78677308503980e+002°)
1.84077200146893e+001	(3.34445424028280e+001dB,-1.78674260470590e+002°)
1.84501541917945e+001	(3.34445531277916e+001dB,-1.78671205418359e+002°)
1.84926861897805e+001	(3.34445639030726e+001dB,-1.78668143330949e+002°)
1.85353162341479e+001	(3.34445747275372e+001dB,-1.78665074192404e+002°)
1.85780445509167e+001	(3.34445856023168e+001dB,-1.78661997986384e+002°)
1.86208713666284e+001	(3.34445965267289e+001dB,-1.78658914696790e+002°)
1.86637969083464e+001	(3.34446075019027e+001dB,-1.78655824307208e+002°)
1.87068214036578e+001	(3.34446185280601e+001dB,-1.78652726801327e+002°)
1.87499450806739e+001	(3.34446296045153e+001dB,-1.78649622162937e+002°)
1.87931681680324e+001	(3.34446407323944e+001dB,-1.78646510375514e+002°)
1.88364908948977e+001	(3.34446519114628e+001dB,-1.78643391422705e+002°)
1.88799134909627e+001	(3.34446631419380e+001dB,-1.78640265288052e+002°)
