Freq.	V(n003)
1.00000000000000e+001	(-5.20425703919631e+001dB,8.98549949368660e+001°)
1.00230523807790e+001	(-5.20225695154564e+001dB,8.98546688846448e+001°)
1.00461579027840e+001	(-5.20025686349036e+001dB,8.98543420617524e+001°)
1.00693166885180e+001	(-5.19825677502862e+001dB,8.98540144664551e+001°)
1.00925288607668e+001	(-5.19625668615853e+001dB,8.98536860970149e+001°)
1.01157945425990e+001	(-5.19425659687821e+001dB,8.98533569516900e+001°)
1.01391138573668e+001	(-5.19225650718576e+001dB,8.98530270287342e+001°)
1.01624869287070e+001	(-5.19025641707930e+001dB,8.98526963263973e+001°)
1.01859138805412e+001	(-5.18825632655689e+001dB,8.98523648429249e+001°)
1.02093948370768e+001	(-5.18625623561663e+001dB,8.98520325765586e+001°)
1.02329299228075e+001	(-5.18425614425658e+001dB,8.98516995255357e+001°)
1.02565192625141e+001	(-5.18225605247481e+001dB,8.98513656880894e+001°)
1.02801629812647e+001	(-5.18025596026938e+001dB,8.98510310624486e+001°)
1.03038612044162e+001	(-5.17825586763831e+001dB,8.98506956468382e+001°)
1.03276140576140e+001	(-5.17625577457966e+001dB,8.98503594394787e+001°)
1.03514216667934e+001	(-5.17425568109145e+001dB,8.98500224385866e+001°)
1.03752841581801e+001	(-5.17225558717168e+001dB,8.98496846423742e+001°)
1.03992016582906e+001	(-5.17025549281839e+001dB,8.98493460490492e+001°)
1.04231742939330e+001	(-5.16825539802955e+001dB,8.98490066568155e+001°)
1.04472021922080e+001	(-5.16625530280316e+001dB,8.98486664638726e+001°)
1.04712854805090e+001	(-5.16425520713721e+001dB,8.98483254684157e+001°)
1.04954242865232e+001	(-5.16225511102965e+001dB,8.98479836686357e+001°)
1.05196187382322e+001	(-5.16025501447846e+001dB,8.98476410627195e+001°)
1.05438689639126e+001	(-5.15825491748159e+001dB,8.98472976488493e+001°)
1.05681750921366e+001	(-5.15625482003697e+001dB,8.98469534252034e+001°)
1.05925372517729e+001	(-5.15425472214255e+001dB,8.98466083899556e+001°)
1.06169555719872e+001	(-5.15225462379625e+001dB,8.98462625412754e+001°)
1.06414301822431e+001	(-5.15025452499597e+001dB,8.98459158773279e+001°)
1.06659612123026e+001	(-5.14825442573963e+001dB,8.98455683962741e+001°)
1.06905487922266e+001	(-5.14625432602512e+001dB,8.98452200962705e+001°)
1.07151930523761e+001	(-5.14425422585032e+001dB,8.98448709754692e+001°)
1.07398941234124e+001	(-5.14225412521312e+001dB,8.98445210320182e+001°)
1.07646521362983e+001	(-5.14025402411137e+001dB,8.98441702640607e+001°)
1.07894672222983e+001	(-5.13825392254293e+001dB,8.98438186697359e+001°)
1.08143395129794e+001	(-5.13625382050565e+001dB,8.98434662471785e+001°)
1.08392691402120e+001	(-5.13425371799737e+001dB,8.98431129945188e+001°)
1.08642562361706e+001	(-5.13225361501590e+001dB,8.98427589098826e+001°)
1.08893009333343e+001	(-5.13025351155907e+001dB,8.98424039913914e+001°)
1.09144033644875e+001	(-5.12825340762468e+001dB,8.98420482371621e+001°)
1.09395636627209e+001	(-5.12625330321052e+001dB,8.98416916453074e+001°)
1.09647819614318e+001	(-5.12425319831439e+001dB,8.98413342139355e+001°)
1.09900583943252e+001	(-5.12225309293406e+001dB,8.98409759411499e+001°)
1.10153930954141e+001	(-5.12025298706729e+001dB,8.98406168250499e+001°)
1.10407861990207e+001	(-5.11825288071184e+001dB,8.98402568637301e+001°)
1.10662378397766e+001	(-5.11625277386544e+001dB,8.98398960552809e+001°)
1.10917481526240e+001	(-5.11425266652585e+001dB,8.98395343977880e+001°)
1.11173172728159e+001	(-5.11225255869077e+001dB,8.98391718893326e+001°)
1.11429453359173e+001	(-5.11025245035793e+001dB,8.98388085279914e+001°)
1.11686324778056e+001	(-5.10825234152502e+001dB,8.98384443118365e+001°)
1.11943788346715e+001	(-5.10625223218973e+001dB,8.98380792389355e+001°)
1.12201845430196e+001	(-5.10425212234975e+001dB,8.98377133073517e+001°)
1.12460497396692e+001	(-5.10225201200275e+001dB,8.98373465151434e+001°)
1.12719745617551e+001	(-5.10025190114639e+001dB,8.98369788603647e+001°)
1.12979591467279e+001	(-5.09825178977832e+001dB,8.98366103410648e+001°)
1.13240036323555e+001	(-5.09625167789617e+001dB,8.98362409552885e+001°)
1.13501081567231e+001	(-5.09425156549757e+001dB,8.98358707010761e+001°)
1.13762728582343e+001	(-5.09225145258013e+001dB,8.98354995764630e+001°)
1.14024978756117e+001	(-5.09025133914147e+001dB,8.98351275794801e+001°)
1.14287833478977e+001	(-5.08825122517918e+001dB,8.98347547081539e+001°)
1.14551294144553e+001	(-5.08625111069084e+001dB,8.98343809605058e+001°)
1.14815362149688e+001	(-5.08425099567401e+001dB,8.98340063345530e+001°)
1.15080038894443e+001	(-5.08225088012627e+001dB,8.98336308283076e+001°)
1.15345325782109e+001	(-5.08025076404517e+001dB,8.98332544397774e+001°)
1.15611224219210e+001	(-5.07825064742823e+001dB,8.98328771669653e+001°)
1.15877735615512e+001	(-5.07625053027299e+001dB,8.98324990078696e+001°)
1.16144861384034e+001	(-5.07425041257695e+001dB,8.98321199604838e+001°)
1.16412602941049e+001	(-5.07225029433764e+001dB,8.98317400227968e+001°)
1.16680961706096e+001	(-5.07025017555253e+001dB,8.98313591927926e+001°)
1.16949939101987e+001	(-5.06825005621911e+001dB,8.98309774684506e+001°)
1.17219536554813e+001	(-5.06624993633485e+001dB,8.98305948477454e+001°)
1.17489755493953e+001	(-5.06424981589720e+001dB,8.98302113286468e+001°)
1.17760597352080e+001	(-5.06224969490361e+001dB,8.98298269091200e+001°)
1.18032063565173e+001	(-5.06024957335152e+001dB,8.98294415871251e+001°)
1.18304155572516e+001	(-5.05824945123835e+001dB,8.98290553606177e+001°)
1.18576874816716e+001	(-5.05624932856150e+001dB,8.98286682275485e+001°)
1.18850222743701e+001	(-5.05424920531837e+001dB,8.98282801858633e+001°)
1.19124200802737e+001	(-5.05224908150635e+001dB,8.98278912335031e+001°)
1.19398810446427e+001	(-5.05024895712282e+001dB,8.98275013684042e+001°)
1.19674053130724e+001	(-5.04824883216514e+001dB,8.98271105884979e+001°)
1.19949930314937e+001	(-5.04624870663065e+001dB,8.98267188917106e+001°)
1.20226443461741e+001	(-5.04424858051670e+001dB,8.98263262759640e+001°)
1.20503594037179e+001	(-5.04224845382061e+001dB,8.98259327391749e+001°)
1.20781383510678e+001	(-5.04024832653968e+001dB,8.98255382792549e+001°)
1.21059813355048e+001	(-5.03824819867123e+001dB,8.98251428941111e+001°)
1.21338885046497e+001	(-5.03624807021255e+001dB,8.98247465816455e+001°)
1.21618600064636e+001	(-5.03424794116089e+001dB,8.98243493397552e+001°)
1.21898959892486e+001	(-5.03224781151354e+001dB,8.98239511663322e+001°)
1.22179966016487e+001	(-5.03024768126773e+001dB,8.98235520592638e+001°)
1.22461619926504e+001	(-5.02824755042072e+001dB,8.98231520164322e+001°)
1.22743923115840e+001	(-5.02624741896971e+001dB,8.98227510357147e+001°)
1.23026877081238e+001	(-5.02424728691193e+001dB,8.98223491149835e+001°)
1.23310483322890e+001	(-5.02224715424457e+001dB,8.98219462521059e+001°)
1.23594743344450e+001	(-5.02024702096482e+001dB,8.98215424449442e+001°)
1.23879658653036e+001	(-5.01824688706986e+001dB,8.98211376913556e+001°)
1.24165230759240e+001	(-5.01624675255683e+001dB,8.98207319891923e+001°)
1.24451461177138e+001	(-5.01424661742290e+001dB,8.98203253363015e+001°)
1.24738351424294e+001	(-5.01224648166519e+001dB,8.98199177305253e+001°)
1.25025903021771e+001	(-5.01024634528082e+001dB,8.98195091697008e+001°)
1.25314117494141e+001	(-5.00824620826691e+001dB,8.98190996516600e+001°)
1.25602996369487e+001	(-5.00624607062054e+001dB,8.98186891742297e+001°)
1.25892541179416e+001	(-5.00424593233880e+001dB,8.98182777352317e+001°)
1.26182753459066e+001	(-5.00224579341876e+001dB,8.98178653324828e+001°)
1.26473634747114e+001	(-5.00024565385745e+001dB,8.98174519637944e+001°)
1.26765186585784e+001	(-4.99824551365194e+001dB,8.98170376269731e+001°)
1.27057410520853e+001	(-4.99624537279924e+001dB,8.98166223198200e+001°)
1.27350308101665e+001	(-4.99424523129637e+001dB,8.98162060401313e+001°)
1.27643880881134e+001	(-4.99224508914032e+001dB,8.98157887856979e+001°)
1.27938130415752e+001	(-4.99024494632809e+001dB,8.98153705543057e+001°)
1.28233058265601e+001	(-4.98824480285663e+001dB,8.98149513437351e+001°)
1.28528665994361e+001	(-4.98624465872291e+001dB,8.98145311517616e+001°)
1.28824955169313e+001	(-4.98424451392388e+001dB,8.98141099761553e+001°)
1.29121927361353e+001	(-4.98224436845645e+001dB,8.98136878146810e+001°)
1.29419584144998e+001	(-4.98024422231755e+001dB,8.98132646650986e+001°)
1.29717927098395e+001	(-4.97824407550408e+001dB,8.98128405251625e+001°)
1.30016957803328e+001	(-4.97624392801291e+001dB,8.98124153926217e+001°)
1.30316677845229e+001	(-4.97424377984093e+001dB,8.98119892652201e+001°)
1.30617088813183e+001	(-4.97224363098500e+001dB,8.98115621406965e+001°)
1.30918192299940e+001	(-4.97024348144194e+001dB,8.98111340167839e+001°)
1.31219989901920e+001	(-4.96824333120860e+001dB,8.98107048912106e+001°)
1.31522483219223e+001	(-4.96624318028178e+001dB,8.98102747616990e+001°)
1.31825673855640e+001	(-4.96424302865829e+001dB,8.98098436259665e+001°)
1.32129563418657e+001	(-4.96224287633491e+001dB,8.98094114817251e+001°)
1.32434153519466e+001	(-4.96024272330840e+001dB,8.98089783266814e+001°)
1.32739445772973e+001	(-4.95824256957553e+001dB,8.98085441585366e+001°)
1.33045441797808e+001	(-4.95624241513303e+001dB,8.98081089749866e+001°)
1.33352143216332e+001	(-4.95424225997763e+001dB,8.98076727737217e+001°)
1.33659551654643e+001	(-4.95224210410603e+001dB,8.98072355524271e+001°)
1.33967668742593e+001	(-4.95024194751493e+001dB,8.98067973087824e+001°)
1.34276496113785e+001	(-4.94824179020101e+001dB,8.98063580404616e+001°)
1.34586035405594e+001	(-4.94624163216093e+001dB,8.98059177451336e+001°)
1.34896288259164e+001	(-4.94424147339135e+001dB,8.98054764204616e+001°)
1.35207256319427e+001	(-4.94224131388888e+001dB,8.98050340641033e+001°)
1.35518941235103e+001	(-4.94024115365016e+001dB,8.98045906737112e+001°)
1.35831344658714e+001	(-4.93824099267177e+001dB,8.98041462469319e+001°)
1.36144468246594e+001	(-4.93624083095032e+001dB,8.98037007814069e+001°)
1.36458313658891e+001	(-4.93424066848236e+001dB,8.98032542747718e+001°)
1.36772882559584e+001	(-4.93224050526445e+001dB,8.98028067246569e+001°)
1.37088176616484e+001	(-4.93024034129313e+001dB,8.98023581286868e+001°)
1.37404197501251e+001	(-4.92824017656492e+001dB,8.98019084844808e+001°)
1.37720946889394e+001	(-4.92624001107633e+001dB,8.98014577896523e+001°)
1.38038426460287e+001	(-4.92423984482385e+001dB,8.98010060418093e+001°)
1.38356637897177e+001	(-4.92223967780395e+001dB,8.98005532385541e+001°)
1.38675582887188e+001	(-4.92023951001309e+001dB,8.98000993774836e+001°)
1.38995263121334e+001	(-4.91823934144771e+001dB,8.97996444561887e+001°)
1.39315680294529e+001	(-4.91623917210423e+001dB,8.97991884722551e+001°)
1.39636836105593e+001	(-4.91423900197907e+001dB,8.97987314232625e+001°)
1.39958732257261e+001	(-4.91223883106861e+001dB,8.97982733067851e+001°)
1.40281370456195e+001	(-4.91023865936924e+001dB,8.97978141203914e+001°)
1.40604752412990e+001	(-4.90823848687730e+001dB,8.97973538616441e+001°)
1.40928879842186e+001	(-4.90623831358915e+001dB,8.97968925281004e+001°)
1.41253754462274e+001	(-4.90423813950109e+001dB,8.97964301173117e+001°)
1.41579377995707e+001	(-4.90223796460946e+001dB,8.97959666268235e+001°)
1.41905752168908e+001	(-4.90023778891052e+001dB,8.97955020541758e+001°)
1.42232878712281e+001	(-4.89823761240056e+001dB,8.97950363969028e+001°)
1.42560759360218e+001	(-4.89623743507584e+001dB,8.97945696525327e+001°)
1.42889395851109e+001	(-4.89423725693258e+001dB,8.97941018185883e+001°)
1.43218789927353e+001	(-4.89223707796702e+001dB,8.97936328925862e+001°)
1.43548943335364e+001	(-4.89023689817536e+001dB,8.97931628720375e+001°)
1.43879857825583e+001	(-4.88823671755379e+001dB,8.97926917544474e+001°)
1.44211535152486e+001	(-4.88623653609846e+001dB,8.97922195373151e+001°)
1.44543977074592e+001	(-4.88423635380555e+001dB,8.97917462181342e+001°)
1.44877185354475e+001	(-4.88223617067117e+001dB,8.97912717943922e+001°)
1.45211161758773e+001	(-4.88023598669144e+001dB,8.97907962635710e+001°)
1.45545908058195e+001	(-4.87823580186247e+001dB,8.97903196231463e+001°)
1.45881426027534e+001	(-4.87623561618033e+001dB,8.97898418705881e+001°)
1.46217717445671e+001	(-4.87423542964108e+001dB,8.97893630033604e+001°)
1.46554784095590e+001	(-4.87223524224078e+001dB,8.97888830189214e+001°)
1.46892627764385e+001	(-4.87023505397543e+001dB,8.97884019147231e+001°)
1.47231250243271e+001	(-4.86823486484106e+001dB,8.97879196882118e+001°)
1.47570653327588e+001	(-4.86623467483364e+001dB,8.97874363368278e+001°)
1.47910838816819e+001	(-4.86423448394915e+001dB,8.97869518580052e+001°)
1.48251808514594e+001	(-4.86223429218354e+001dB,8.97864662491723e+001°)
1.48593564228699e+001	(-4.86023409953274e+001dB,8.97859795077513e+001°)
1.48936107771090e+001	(-4.85823390599267e+001dB,8.97854916311584e+001°)
1.49279440957898e+001	(-4.85623371155922e+001dB,8.97850026168038e+001°)
1.49623565609442e+001	(-4.85423351622827e+001dB,8.97845124620916e+001°)
1.49968483550236e+001	(-4.85223331999567e+001dB,8.97840211644198e+001°)
1.50314196609001e+001	(-4.85023312285727e+001dB,8.97835287211804e+001°)
1.50660706618673e+001	(-4.84823292480888e+001dB,8.97830351297593e+001°)
1.51008015416413e+001	(-4.84623272584629e+001dB,8.97825403875361e+001°)
1.51356124843619e+001	(-4.84423252596530e+001dB,8.97820444918846e+001°)
1.51705036745932e+001	(-4.84223232516166e+001dB,8.97815474401722e+001°)
1.52054752973248e+001	(-4.84023212343111e+001dB,8.97810492297603e+001°)
1.52405275379728e+001	(-4.83823192076938e+001dB,8.97805498580040e+001°)
1.52756605823806e+001	(-4.83623171717216e+001dB,8.97800493222522e+001°)
1.53108746168202e+001	(-4.83423151263514e+001dB,8.97795476198479e+001°)
1.53461698279928e+001	(-4.83223130715397e+001dB,8.97790447481276e+001°)
1.53815464030302e+001	(-4.83023110072431e+001dB,8.97785407044217e+001°)
1.54170045294954e+001	(-4.82823089334177e+001dB,8.97780354860542e+001°)
1.54525443953840e+001	(-4.82623068500195e+001dB,8.97775290903431e+001°)
1.54881661891247e+001	(-4.82423047570044e+001dB,8.97770215145999e+001°)
1.55238700995807e+001	(-4.82223026543279e+001dB,8.97765127561300e+001°)
1.55596563160506e+001	(-4.82023005419455e+001dB,8.97760028122325e+001°)
1.55955250282694e+001	(-4.81822984198123e+001dB,8.97754916801999e+001°)
1.56314764264094e+001	(-4.81622962878834e+001dB,8.97749793573188e+001°)
1.56675107010813e+001	(-4.81422941461135e+001dB,8.97744658408692e+001°)
1.57036280433354e+001	(-4.81222919944572e+001dB,8.97739511281247e+001°)
1.57398286446620e+001	(-4.81022898328688e+001dB,8.97734352163528e+001°)
1.57761126969933e+001	(-4.80822876613026e+001dB,8.97729181028143e+001°)
1.58124803927037e+001	(-4.80622854797124e+001dB,8.97723997847639e+001°)
1.58489319246110e+001	(-4.80422832880520e+001dB,8.97718802594496e+001°)
1.58854674859776e+001	(-4.80222810862749e+001dB,8.97713595241132e+001°)
1.59220872705115e+001	(-4.80022788743344e+001dB,8.97708375759900e+001°)
1.59587914723672e+001	(-4.79822766521836e+001dB,8.97703144123087e+001°)
1.59955802861465e+001	(-4.79622744197753e+001dB,8.97697900302918e+001°)
1.60324539069002e+001	(-4.79422721770623e+001dB,8.97692644271550e+001°)
1.60694125301286e+001	(-4.79222699239968e+001dB,8.97687376001077e+001°)
1.61064563517825e+001	(-4.79022676605312e+001dB,8.97682095463528e+001°)
1.61435855682647e+001	(-4.78822653866175e+001dB,8.97676802630866e+001°)
1.61808003764305e+001	(-4.78622631022073e+001dB,8.97671497474989e+001°)
1.62181009735891e+001	(-4.78422608072523e+001dB,8.97666179967727e+001°)
1.62554875575047e+001	(-4.78222585017038e+001dB,8.97660850080848e+001°)
1.62929603263970e+001	(-4.78022561855129e+001dB,8.97655507786053e+001°)
1.63305194789432e+001	(-4.77822538586304e+001dB,8.97650153054974e+001°)
1.63681652142779e+001	(-4.77622515210070e+001dB,8.97644785859181e+001°)
1.64058977319952e+001	(-4.77422491725931e+001dB,8.97639406170175e+001°)
1.64437172321491e+001	(-4.77222468133389e+001dB,8.97634013959390e+001°)
1.64816239152549e+001	(-4.77022444431944e+001dB,8.97628609198196e+001°)
1.65196179822900e+001	(-4.76822420621093e+001dB,8.97623191857894e+001°)
1.65576996346951e+001	(-4.76622396700330e+001dB,8.97617761909719e+001°)
1.65958690743754e+001	(-4.76422372669149e+001dB,8.97612319324838e+001°)
1.66341265037015e+001	(-4.76222348527040e+001dB,8.97606864074351e+001°)
1.66724721255104e+001	(-4.76022324273491e+001dB,8.97601396129291e+001°)
1.67109061431069e+001	(-4.75822299907987e+001dB,8.97595915460623e+001°)
1.67494287602642e+001	(-4.75622275430012e+001dB,8.97590422039245e+001°)
1.67880401812254e+001	(-4.75422250839046e+001dB,8.97584915835986e+001°)
1.68267406107045e+001	(-4.75222226134567e+001dB,8.97579396821606e+001°)
1.68655302538872e+001	(-4.75022201316053e+001dB,8.97573864966800e+001°)
1.69044093164324e+001	(-4.74822176382975e+001dB,8.97568320242192e+001°)
1.69433780044731e+001	(-4.74622151334807e+001dB,8.97562762618338e+001°)
1.69824365246172e+001	(-4.74422126171015e+001dB,8.97557192065726e+001°)
1.70215850839493e+001	(-4.74222100891067e+001dB,8.97551608554774e+001°)
1.70608238900310e+001	(-4.74022075494427e+001dB,8.97546012055831e+001°)
1.71001531509027e+001	(-4.73822049980555e+001dB,8.97540402539178e+001°)
1.71395730750841e+001	(-4.73622024348910e+001dB,8.97534779975027e+001°)
1.71790838715757e+001	(-4.73421998598949e+001dB,8.97529144333517e+001°)
1.72186857498599e+001	(-4.73221972730126e+001dB,8.97523495584722e+001°)
1.72583789199018e+001	(-4.73021946741892e+001dB,8.97517833698644e+001°)
1.72981635921508e+001	(-4.72821920633696e+001dB,8.97512158645213e+001°)
1.73380399775412e+001	(-4.72621894404983e+001dB,8.97506470394293e+001°)
1.73780082874935e+001	(-4.72421868055198e+001dB,8.97500768915674e+001°)
1.74180687339159e+001	(-4.72221841583782e+001dB,8.97495054179078e+001°)
1.74582215292048e+001	(-4.72021814990173e+001dB,8.97489326154155e+001°)
1.74984668862464e+001	(-4.71821788273808e+001dB,8.97483584810485e+001°)
1.75388050184174e+001	(-4.71621761434119e+001dB,8.97477830117576e+001°)
1.75792361395867e+001	(-4.71421734470537e+001dB,8.97472062044866e+001°)
1.76197604641161e+001	(-4.71221707382490e+001dB,8.97466280561721e+001°)
1.76603782068614e+001	(-4.71021680169404e+001dB,8.97460485637435e+001°)
1.77010895831740e+001	(-4.70821652830702e+001dB,8.97454677241233e+001°)
1.77418948089014e+001	(-4.70621625365804e+001dB,8.97448855342265e+001°)
1.77827941003890e+001	(-4.70421597774126e+001dB,8.97443019909610e+001°)
1.78237876744807e+001	(-4.70221570055085e+001dB,8.97437170912277e+001°)
1.78648757485203e+001	(-4.70021542208091e+001dB,8.97431308319199e+001°)
1.79060585403527e+001	(-4.69821514232555e+001dB,8.97425432099239e+001°)
1.79473362683250e+001	(-4.69621486127883e+001dB,8.97419542221188e+001°)
1.79887091512877e+001	(-4.69421457893479e+001dB,8.97413638653761e+001°)
1.80301774085955e+001	(-4.69221429528743e+001dB,8.97407721365604e+001°)
1.80717412601090e+001	(-4.69021401033075e+001dB,8.97401790325287e+001°)
1.81134009261958e+001	(-4.68821372405870e+001dB,8.97395845501308e+001°)
1.81551566277311e+001	(-4.68621343646520e+001dB,8.97389886862092e+001°)
1.81970085860996e+001	(-4.68421314754416e+001dB,8.97383914375988e+001°)
1.82389570231961e+001	(-4.68221285728945e+001dB,8.97377928011273e+001°)
1.82810021614272e+001	(-4.68021256569492e+001dB,8.97371927736151e+001°)
1.83231442237119e+001	(-4.67821227275437e+001dB,8.97365913518749e+001°)
1.83653834334832e+001	(-4.67621197846159e+001dB,8.97359885327123e+001°)
1.84077200146893e+001	(-4.67421168281034e+001dB,8.97353843129251e+001°)
1.84501541917945e+001	(-4.67221138579435e+001dB,8.97347786893040e+001°)
1.84926861897805e+001	(-4.67021108740733e+001dB,8.97341716586318e+001°)
1.85353162341479e+001	(-4.66821078764293e+001dB,8.97335632176843e+001°)
1.85780445509167e+001	(-4.66621048649481e+001dB,8.97329533632292e+001°)
1.86208713666284e+001	(-4.66421018395657e+001dB,8.97323420920272e+001°)
1.86637969083464e+001	(-4.66220988002181e+001dB,8.97317294008311e+001°)
1.87068214036578e+001	(-4.66020957468406e+001dB,8.97311152863864e+001°)
1.87499450806739e+001	(-4.65820926793686e+001dB,8.97304997454306e+001°)
1.87931681680324e+001	(-4.65620895977369e+001dB,8.97298827746940e+001°)
1.88364908948977e+001	(-4.65420865018803e+001dB,8.97292643708992e+001°)
1.88799134909627e+001	(-4.65220833917330e+001dB,8.97286445307609e+001°)
