#Digilent WaveForms Network Analyzer - Bode
#Device Name: Discovery2
#Serial Number: SN:210321AA23CA
#Date Time: 2019-10-31 13:00:47.632
#Start: 100 Hz
#Stop: 1e+06 Hz
#Steps: 501
#Wavegen: Wavegen1
#Amplification: 1 X
#Settle: 10 ms
#MinPeriods: 16 
#Channel: Channel 1
#Range: 5.5478 V
#Offset: -0.00029488 V
#Relative: no
#Channel: Channel 2
#Range: 5.4859 V
#Offset: -5.08746e-06 V
#Relative: yes

aY CHE la concha de tu madre alan vos y tu sallen key forro
Frequency (Hz),Channel 1 Magnitude (dB),Channel 2 Magnitude (dB),Channel 2 Phase (*)
100,0.00654507819175725,-0.02917572638467123,-7.728630610707057
101.8591388054117,0.006333303067200624,-0.02939750998176536,-7.874225823196205
103.7528415818013,0.006594010000581659,-0.03001156957963467,-8.024167376339705
105.6817509213658,0.006735357503822597,-0.03075401310945413,-8.172633941852695
107.6465213629835,0.006453817019522605,-0.0308873922941099,-8.32494052498518
109.6478196143185,0.006594620230183056,-0.03154541179090092,-8.480316464244595
111.6863247780561,0.006418209852489224,-0.03192408808901649,-8.639153785777907
113.7627285823431,0.006832608427769471,-0.03237295256804706,-8.797953819287343
115.8777356155126,0.006576959990295903,-0.03299396102750779,-8.961896842094092
118.032063565173,0.006225539924736341,-0.03346470738665873,-9.127013498236778
120.2264434617413,0.006459437564926639,-0.03419347783329951,-9.297254371836431
122.4616199265049,0.006497375018016555,-0.03447466583707796,-9.469835303279154
124.7383514242943,0.006439620527841187,-0.03503272641580826,-9.645514899438473
127.0574105208542,0.006117170800744435,-0.03532464182663982,-9.823458610101767
129.4195841449986,0.006428697676433778,-0.03617787825508285,-10.00692572143248
131.8256738556407,0.006582274614823819,-0.03703737175390341,-10.19240869957781
134.2764961137864,0.006568774368507163,-0.0373757518201845,-10.38063010528373
136.7728825595849,0.006519279822180354,-0.03784319510415315,-10.57357784452141
139.3156802945304,0.00656089433059768,-0.03858432195768633,-10.77057550585572
141.9057521689093,0.006532253739311313,-0.03932514139111598,-10.96909738907526
144.5439770745928,0.00657300842860196,-0.04035088362133465,-11.17153049841368
147.2312502432719,0.006626626953611858,-0.04113958541223154,-11.38287387399141
149.9684835502374,0.006660830021490782,-0.04140326723432512,-11.5925417783229
152.7566058238073,0.006387472154080979,-0.04205972233756997,-11.80833216393285
155.5965631605075,0.006776998859989464,-0.04323430790429955,-12.02583163365165
158.4893192461114,0.006598435162416416,-0.04407649559386161,-12.24806789358848
161.4358556826487,0.006333706620515035,-0.04488229454570624,-12.4752405689083
164.4371723214932,0.006812210566253836,-0.04607915355828079,-12.7090538506247
167.4942876026438,0.006641977613929428,-0.04708099360070171,-12.94310976123984
170.6082389003124,0.006942162571144243,-0.04785819413227155,-13.1829132677483
173.7800828749376,0.006307382016044219,-0.04885809180533146,-13.42920971858135
177.0108958317422,0.006492505732846373,-0.04977289580777367,-13.67756557128597
180.301774085957,0.006381864111342715,-0.0510113033743733,-13.93200723063521
183.6538343348347,0.006528302428367127,-0.05228952715327841,-14.1885577154367
187.0682140365801,0.006324282558634761,-0.05295607470187102,-14.45315323563509
190.5460717963248,0.006385852417534496,-0.05423818453870972,-14.71928443833946
194.0885877592777,0.00654143911751123,-0.05538723300058016,-14.99439666687852
197.696964011186,0.006538924733354635,-0.05678840338436085,-15.27229846211496
201.3724249862388,0.006208020791802758,-0.05781281997895854,-15.55497048207949
205.1162178825565,0.006715520939570337,-0.05923060450871949,-15.84221318437486
208.9296130854039,0.006421330725082264,-0.06065758405719487,-16.13764401133773
212.8139045982711,0.006357573674225897,-0.0620321930689377,-16.43548694071689
216.7704104819694,0.006480977496816526,-0.0634707654504264,-16.73964709555078
220.8004733018899,0.006477180205856463,-0.06536108265055497,-17.05180351461888
224.905460583578,0.00645546588424359,-0.06664174484586388,-17.36729499692353
229.0867652767772,0.006475566987505232,-0.06843582254288676,-17.68901474697327
233.3458062281002,0.006521076969433544,-0.07004618765244548,-18.01780923865539
237.6840286624876,0.006370494220453229,-0.07206376205586632,-18.35093100547624
242.1029046736178,0.006369561931259839,-0.07341870039974044,-18.69467866390355
246.6039337234339,0.00637036335013628,-0.07542853335247937,-19.03936822249977
251.1886431509579,0.006438556514720136,-0.07763818442520043,-19.39251415432135
255.8585886905645,0.006330222399827616,-0.07955998870519497,-19.75201484241668
260.6153549998895,0.006233817762323185,-0.08130781019976754,-20.11864053896426
265.4605561975539,0.006449142812735243,-0.0836550204029704,-20.49010451825573
270.3958364108843,0.006167715514160056,-0.08579731705698873,-20.87184750446474
275.4228703338166,0.006386391690420693,-0.08816397677925245,-21.25979763401627
280.5433637951713,0.006349740719570444,-0.09075150217019679,-21.65261728975094
285.7590543374947,0.006609454879805773,-0.09339367547410292,-22.05379664466203
291.0717118066605,0.006273948219746858,-0.09540285201552559,-22.4636901926617
296.4831389524343,0.006467413342612863,-0.0980237829128966,-22.88017932807716
301.9951720402016,0.006440313538852155,-0.1011805415647788,-23.30363137676162
307.6096814740708,0.006145526484361332,-0.1038212090407031,-23.7358987779103
313.3285724315585,0.006536762599732225,-0.1068522240640419,-24.17568322738109
319.1537855100761,0.006306375413315289,-0.1094736031966395,-24.6244849833931
325.0872973854343,0.006410836414010215,-0.1130109342483281,-25.08038419003283
331.1311214825911,0.006008137136217099,-0.1157157996111442,-25.54559624637659
337.2873086588689,0.00615743191734431,-0.1194339402169216,-26.0203628511067
343.5579478998746,0.006318063336035028,-0.1227110922231368,-26.50160859959228
349.9451670283573,0.005982497590221221,-0.126296292078574,-26.99419048658586
356.4511334262443,0.006359668481830063,-0.1300396069249689,-27.49244148981543
363.0780547701014,0.006158235745736678,-0.1338640768776584,-28.00385318588923
369.8281797802662,0.006621165948944396,-0.1379012746820393,-28.52402500778858
376.7037989839089,0.006440789174194829,-0.1422777325309598,-29.05273139020139
383.7072454922788,0.006624877680519412,-0.1464500426336132,-29.59154055253828
390.8408957924021,0.006416383140582455,-0.1508306862552941,-30.13884545142066
398.1071705534973,0.006393314646812545,-0.1554656202565989,-30.6976909671104
405.508535448384,0.006228025660539387,-0.1600642771039976,-31.26908072978667
413.0475019901614,0.006163670200258219,-0.1647605885232392,-31.84761305050188
420.7266283844442,0.006374806716301416,-0.1701727461437375,-32.4401592787922
428.5485203974397,0.006123904826847633,-0.1756038255390816,-33.0391995079253
436.5158322401661,0.006350864931445344,-0.1809063791886658,-33.65307447130026
444.6312674691088,0.006544720641224726,-0.1864980417764384,-34.27730189625045
452.8975799036209,0.006079891014592231,-0.1923642994024107,-34.91349873444076
461.3175745603796,0.006003942584689299,-0.1983355834807538,-35.56092715997796
469.8941086052156,0.006614737110606904,-0.2050742088170944,-36.22074079544109
478.6300923226385,0.006806727546792096,-0.2113424539866465,-36.89054819043716
487.528490103386,0.006137446809973345,-0.2176878947603653,-37.57436316023314
496.5923214503358,0.006084121354348496,-0.2247036034939362,-38.27082410892346
505.8246620031138,0.005853661815811147,-0.2322364105033483,-38.98117369638173
515.2286445817562,0.006383483044639333,-0.2394711694793043,-39.70426113637438
524.8074602497722,0.005983577800547167,-0.2472220905915653,-40.44190343643305
534.5643593969713,0.006211114773181557,-0.2554562676357728,-41.19107857165938
544.5026528424208,0.006816042843640962,-0.2639071273499637,-41.95632183151483
554.6257129579104,0.006523837680721956,-0.2724598609621143,-42.73216633283861
564.9369748123022,0.00705228422823282,-0.2815622341472479,-43.52519465269202
575.4399373371566,0.006415671377997078,-0.2906139582033158,-44.33229648767548
586.1381645140284,0.006276068722052982,-0.3000814698635353,-45.1547021778765
597.0352865838366,0.006225873565143175,-0.3103218950876847,-45.99160432380238
608.1350012787176,0.005840781294742503,-0.3204254611569085,-46.84479433875239
619.4410750767811,0.006661042668671498,-0.3313812724349647,-47.71172840361757
630.957344480193,0.00583110626244616,-0.342102222525659,-48.59806576940619
642.6877173170194,0.005968164159345593,-0.3537464817470076,-49.49829512287602
654.6361740672747,0.006297229885363438,-0.365573404626694,-50.41685669406981
666.8067692136219,0.006488952329545185,-0.3780348329567798,-51.35146471197021
679.2036326171843,0.005672253797601149,-0.3908861813002872,-52.30336919083335
691.8309709189363,0.006639472899373209,-0.4040370353449089,-53.27282233146796
704.6930689671467,0.006150412198923073,-0.4178968431672317,-54.2583698393442
717.7942912713615,0.006061678180027386,-0.4321856533767078,-55.26589863500352
731.1390834834173,0.00608530116855489,-0.4466479171703231,-56.29127355035983
744.7319739059889,0.005902502015916751,-0.4622774120872459,-57.33628228474073
758.5775750291837,0.00610452976485096,-0.4782861443883475,-58.39729416331375
772.6805850957021,0.005927584054257041,-0.4945814448412888,-59.47996674864144
787.0457896950985,0.006131633032089539,-0.511732120076228,-60.58227007638511
801.678063387679,0.005918354959478825,-0.5290892409420187,-61.70255590125652
816.5823713585922,0.006124730029511053,-0.5474278795681373,-62.84731020415767
831.7637711026708,0.005977801443352285,-0.5664347633313028,-64.01429391286052
847.2274141405964,0.005758188209155,-0.5858933852022948,-65.20352788315063
862.9785477669701,0.00591226992938384,-0.6066385164566441,-66.40903844247123
879.0225168308842,0.005914201870845783,-0.6278424218690748,-67.64045234431831
895.3647655495937,0.006219928569965774,-0.6500903300686988,-68.89572043404178
912.0108393559096,0.006739916901397811,-0.6730062942986148,-70.17150584311059
928.9663867799362,0.006377431955270506,-0.6965307066228505,-71.47321355108039
946.237161365793,0.006002555456053275,-0.7212110032303822,-72.79636282995966
963.8290236239706,0.006292697005796783,-0.7469883018758778,-74.14818650085928
981.7479430199844,0.005628773490569349,-0.7727768024785771,-75.52033267978253
1000,0.00635826177274039,-0.8008311983889542,-76.92050954891158
1018.591388054117,0.005824979643400155,-0.8294433993726674,-78.34793065073586
1037.528415818013,0.006202569676708757,-0.8592605378429627,-79.79721292499613
1056.817509213658,0.005761151844145699,-0.8897210585745717,-81.27465685678081
1076.465213629835,0.006313819650876381,-0.9216837675656464,-82.78085232847629
1096.478196143185,0.006320983602120193,-0.9550541031166102,-84.31568462855996
1116.863247780561,0.005700106088586714,-0.9889156190251718,-85.87898408000059
1137.627285823431,0.005322145639154317,-1.024033888600312,-87.46986215187212
1158.777356155126,0.005820710574157633,-1.061669128150031,-89.08981278838696
1180.32063565173,0.005574164419391627,-1.10013345885429,-90.74185910368396
1202.264434617413,0.00589629359888965,-1.140013921438706,-92.41952135822899
1224.616199265049,0.00589758927875642,-1.18173385793533,-94.13025555709578
1247.383514242943,0.0054596819615434,-1.224181472402861,-95.87431491588859
1270.574105208542,0.005027834550541982,-1.269021556664082,-97.65392017131933
1294.195841449986,0.005793427125042525,-1.315824992970136,-99.45959251680074
1318.256738556408,0.006911871581653527,-1.363931786205001,-101.2997024902222
1342.764961137864,0.004996835276613411,-1.413250377480026,-103.1745636710198
1367.728825595849,0.005079173486495595,-1.465827829876694,-105.0846682067594
1393.156802945304,0.005416402589829184,-1.520034941104252,-107.0323168236375
1419.057521689092,0.00571318648047272,-1.575660230047507,-109.0094426556311
1445.439770745928,0.006113063613739231,-1.634715586648477,-111.026958761659
1472.312502432719,0.006142265442863208,-1.695279336144865,-113.0776680295326
1499.684835502374,0.005869203904614611,-1.757428371451206,-115.1690155606115
1527.566058238073,0.004770531938518104,-1.823427972504097,-117.2971144904054
1555.965631605075,0.005497102816478266,-1.891285613850212,-119.4673843659364
1584.893192461114,0.00561365827083448,-1.961782865804568,-121.6765744761089
1614.358556826487,0.00560708469007836,-2.035826286317437,-123.9184277415916
1644.371723214932,0.005762747135476392,-2.111945860412394,-126.2038290187846
1674.942876026438,0.00504475366419457,-2.191859264809328,-128.5386139406415
1706.082389003124,0.006050905440073142,-2.274246818928144,-130.9123768799792
1737.800828749376,0.005233606978217384,-2.359889389967406,-133.3211256175238
1770.108958317422,0.006003507936492813,-2.448574948872615,-135.785672128808
1803.01774085957,0.00562804634634013,-2.54236823209091,-138.2803954098604
1836.538343348347,0.005819503971687887,-2.639271335709688,-140.8319495582589
1870.682140365802,0.005626109637489447,-2.73901861264804,-143.4260785826067
1905.460717963248,0.006149413126598273,-2.844384850949071,-146.0668289576313
1940.885877592779,0.005311839225920859,-2.953125307961528,-148.7505895876384
1976.969640111862,0.004600355183564344,-3.066541177685289,-151.4852045017561
2013.72424986239,0.005308290948921584,-3.184619334396153,-154.2651207049676
2051.162178825567,0.006087613363010874,-3.307386326955281,-157.0897555155145
2089.296130854041,0.006308268102362276,-3.436626130930756,-159.9744026268197
2128.139045982713,0.005136539840113209,-3.569869206709313,-162.900951494301
2167.704104819696,0.005728932040815623,-3.708757404956946,-165.878838285435
2208.004733018902,0.005644553558315991,-3.852922178522443,-168.9173681701276
2249.054605835783,0.006044134380457472,-4.003791495534771,-171.9968430251467
2290.867652767774,0.005854460207434778,-4.160672074337255,-175.1303585577966
2333.458062281004,0.005953924979019564,-4.324764881524357,-178.3170080866473
2376.840286624876,0.007068048811437685,-4.495925056774326,178.4464504803047
2421.029046736178,0.006192788577140007,-4.673257713957058,175.1517021993032
2466.039337234339,0.006615680949620414,-4.85867208314867,171.804720063218
2511.886431509579,0.006283601121327365,-5.052551927884071,168.4016188684702
2558.585886905645,0.006341367501322908,-5.253771932019047,164.950458518974
2606.153549998895,0.006163158190589981,-5.464160561705983,161.4397695939424
2654.605561975539,0.006765799578770628,-5.683598639003213,157.8803568370824
2703.958364108843,0.006745718237896187,-5.912231960399453,154.2697014965596
2754.228703338166,0.005995686087485109,-6.151013673200442,150.6034736211921
2805.433637951713,0.006136775718513636,-6.399235523624982,146.8827429129678
2857.590543374947,0.006359013954183137,-6.660600007722516,143.1077215698578
2910.717118066605,0.00805763456825989,-6.931855465658828,139.2908767565689
2964.831389524342,0.005960918021402464,-7.213748593225659,135.4156708724742
3019.951720402016,0.006557422247969772,-7.508330358733515,131.4927198909143
3076.096814740708,0.006676810809940183,-7.81566277056203,127.5360819382182
3133.285724315586,0.007184577647432794,-8.135857691679353,123.513272696307
3191.537855100762,0.008146975721484623,-8.468904573582988,119.4675373063682
3250.872973854344,0.008254010928924917,-8.817120033557055,115.3740263458637
3311.311214825911,0.006857255561062366,-9.179698267012338,111.2391728172394
3372.873086588689,0.006846364730744296,-9.557747685724195,107.0724848412463
3435.579478998746,0.007049046002827436,-9.950289521770019,102.8742897582406
3499.451670283573,0.007058017862442981,-10.3598496996438,98.64123624035307
3564.511334262443,0.007595160051679239,-10.78441559518765,94.39025579702188
3630.780547701014,0.006910298953295172,-11.22646124368699,90.10893755298417
3698.281797802663,0.007736432603552193,-11.68564990500801,85.83072349712444
3767.037989839089,0.008492461654692198,-12.16054151923106,81.52882197372833
3837.072454922788,0.007826390271425968,-12.65227347704013,77.22595359909596
3908.408957924021,0.00831546603768157,-13.16406488057857,72.89612631924115
3981.071705534973,0.008354133847393677,-13.69083545405482,68.60757964074404
4055.085354483839,0.008518138335739403,-14.23743577037958,64.29829224216144
4130.475019901615,0.008557377019906956,-14.80103298088938,60.00919443310995
4207.266283844442,0.008656353529101345,-15.38051792922595,55.76225320471853
4285.485203974393,0.008733633464302611,-15.9803427676432,51.50412914504668
4365.158322401657,0.009195836763916762,-16.59112706047279,47.28804263831989
4446.312674691083,0.008647374076724369,-17.2231725965433,43.08503526406929
4528.975799036205,0.008224000540649951,-17.87067373536112,38.94294167557548
4613.175745603791,0.00973504216441508,-18.53433367275405,34.83887259643907
4698.941086052151,0.009274279652680691,-19.21362277114589,30.79114908675086
4786.30092322638,0.009117949590916328,-19.91171603430369,26.76346868679404
4875.28490103386,0.00695053555978768,-20.61565556603499,22.78942160671011
4965.923214503357,0.009907273826359288,-21.34258484970561,18.85921467873619
5058.246620031137,0.01142503326075105,-22.07769128371155,15.02569124498488
5152.286445817562,0.009054648191082142,-22.82788207964574,11.20778172761806
5248.074602497722,0.008590758236570213,-23.59015423893519,7.488693839311907
5345.643593969713,0.0110560499394917,-24.36394786043099,3.766359253153171
5445.02652842421,0.01033074722329895,-25.15118076333261,0.1709032420768182
5546.257129579105,0.008281432020756801,-25.944427576976,-3.42006999057304
5649.369748123022,0.01195565759049935,-26.73867253193999,-6.921517247096716
5754.399373371567,0.01102380439921595,-27.56230007856793,-10.28559671075156
5861.381645140284,0.01119124225165759,-28.39423660423527,-13.63292658139522
5970.352865838367,0.01269070981172379,-29.2094843804464,-16.98814467487557
6081.350012787176,0.003783839721725945,-30.04030810212502,-20.25598165203183
6194.410750767812,0.01340756989020026,-30.90009818511659,-23.29392593504217
6309.57344480193,0.01355465300509414,-31.73323494419559,-26.5176269032996
6426.877173170194,0.01177587906786259,-32.59634176417085,-29.59753545944228
6546.361740672747,0.01378808511217574,-33.48196081099329,-32.4651792902109
6668.067692136219,0.008608432731381767,-34.36734351769157,-35.43333956554086
6792.036326171843,0.01325340813376863,-35.26760616348316,-38.16554813004916
6918.309709189362,0.006423090789759628,-36.1108413445868,-41.16435745403099
7046.930689671467,0.01490585259624543,-37.0029592967217,-43.86683219005909
7177.942912713615,0.00321474831800915,-37.89176736739528,-46.48292680753106
7311.390834834172,0.01513105256266234,-38.74978777568936,-49.30990446831464
7447.319739059889,0.002896026095998646,-39.65704975970565,-51.81654923733083
7585.775750291836,0.0156464566423281,-40.52355422478205,-54.5143885024623
7726.805850957022,0.004886517237291635,-41.44970381109992,-57.05925656555753
7870.457896950985,0.01561350930731261,-42.35574944911508,-59.19555095688452
8016.780633876789,0.009536085130075603,-43.17070278015326,-61.41729843135089
8165.823713585922,0.01569418492862282,-44.1176608208083,-64.5373184865843
8317.637711026709,0.01429219218657669,-45.09000505603947,-66.43694378611599
8472.274141405964,0.01541123952653682,-45.95425740363282,-68.63439258120337
8629.785477669702,0.01679535154295234,-46.83574138597755,-71.54185097584309
8790.225168308843,0.009490729818178235,-47.82988760650736,-73.17082039878483
8953.647655495937,0.01754255480195159,-48.66831016855485,-75.44235337966704
9120.108393559096,0.009667735788545493,-49.49291565099635,-79.18112807037227
9289.663867799363,0.01725568324471285,-50.4670659351877,-79.15283211535767
9462.37161365793,0.01817392465421037,-51.4206137620925,-82.30112047527646
9638.290236239705,0.01158477095918971,-52.31096585462228,-84.41301314716404
9817.479430199843,0.01932239306331773,-53.23113916886022,-87.76929258916252
10000,0.01542757862177117,-54.0600489380754,-87.70569551953444
10185.91388054117,0.01977198907265678,-54.90099204904649,-89.01567831475668
