#Digilent WaveForms Network Analyzer - Bode
#Device Name: Discovery2
#Serial Number: SN:210321A35FCC
#Date Time: 2019-11-01 15:49:58.187
#Start: 1000 Hz
#Stop: 99140.6 Hz
#Steps: 997
#Wavegen: Wavegen1
#Amplification: 1 X
#Settle: 10 ms
#MinPeriods: 16 
#Channel: Channel 1
#Range: 59.5625 V
#Offset: 0.000112961 V
#Relative: no
#Channel: Channel 2
#Range: 60.1219 V
#Offset: -0.0024229 V
#Relative: yes

Frequency (Hz),Channel 1 Magnitude (dB),Channel 2 Magnitude (dB),Channel 2 Phase (*)
1000,0.01025199258844351,0.8657654117280358,172.8594476210071
1004.611742099608,0.01042737946851158,0.8660229722840667,172.8186342514572
1009.24475236441,0.01142131505377442,0.8644016579233171,172.793085778719
1013.899128877698,0.01075557878017379,0.8658039545759449,172.7557745269932
1018.574970175099,0.01076585989696219,0.8647337501514811,172.725270161159
1023.272375246663,0.01140721696754533,0.8641985680828436,172.6952429461834
1027.991443538954,0.0105558467771357,0.8654099008209157,172.664445796317
1032.732274957159,0.01148316238701029,0.8649336677159559,172.6285029061956
1037.494969867204,0.01157969355518395,0.8652096843641922,172.5911666560633
1042.279629097872,0.01149201751252404,0.8648715319786986,172.5563008204753
1047.086353942948,0.0112443282692167,0.8663426691701721,172.5173106964497
1051.915246163351,0.0111309586348981,0.865622260636173,172.4806862271396
1056.766407989303,0.01140459317756456,0.865319686784459,172.4507015487245
1061.639942122479,0.01117606750261096,0.8665067601177161,172.4203675702824
1066.535951738191,0.01240266507958635,0.864331080823489,172.381521237547
1071.454540487568,0.01109173456636472,0.8673441651366144,172.3527215456682
1076.395812499751,0.01193013597369694,0.8658402226395998,172.3090525802392
1081.359872384098,0.01175947550014092,0.8668369985396662,172.2744703751944
1086.346825232399,0.0125241708569153,0.8657734035895197,172.2478862082254
1091.356776621099,0.01237448609357896,0.8658556783188852,172.2014160494473
1096.389832613535,0.01289584770565439,0.865661342977544,172.1702175392812
1101.446099762181,0.01242574653159464,0.8655404749160099,172.1341860663241
1106.525685110904,0.01234844483400532,0.8665347227791026,172.0974257529696
1111.628696197228,0.01313590830327905,0.8651590960151727,172.0591901653301
1116.755241054613,0.01240978772372653,0.8664391074198979,172.030111694336
1121.905428214743,0.01256068909035838,0.8669926245856696,171.9869353085916
1127.07936670982,0.01335605346371947,0.8658551030726729,171.9521557357924
1132.277166074876,0.01404863834581841,0.8649222298714775,171.9174198132154
1137.498936350088,0.01358444250822693,0.8654922399763343,171.874679867074
1142.744788083114,0.01385174617814178,0.8653275586892534,171.8351935900336
1148.014832331424,0.01400294437986452,0.8658451251962838,171.8024505014689
1153.309180664662,0.01360121706390572,0.8663720103010513,171.7609028459296
1158.627945166998,0.01437134111014312,0.8651775150817244,171.7286749789212
1163.971238439508,0.01357992671301208,0.8665022129333909,171.6889127613435
1169.339173602552,0.01391276694124101,0.8666448901506107,171.642294314624
1174.731864298177,0.01481150235064225,0.8652456835317114,171.6124859245347
1180.149424692511,0.01432117087655524,0.8664812910716484,171.574929525581
1185.591969478195,0.0150612537029451,0.8658643521697615,171.5310318838849
1191.059613876795,0.01504649815880359,0.86584452321288,171.4892589559426
1196.552473641254,0.01428238299964076,0.8668649945384674,171.4565136896761
1202.070665058335,0.01462376496646358,0.8667346332923326,171.41616434737
1207.614304951089,0.01492045793097537,0.8666456556865085,171.376637983532
1213.183510681322,0.01591588212931454,0.8658100904275551,171.3326754257315
1218.778400152082,0.01547964430330682,0.8672424802695683,171.2960567349753
1224.399091810156,0.01447694969559657,0.8674062741883247,171.2645529698897
1230.045704648578,0.01554472177136484,0.8662137273452872,171.2075275515423
1235.718358209149,0.01594079948145338,0.8666033090526254,171.1754334411496
1241.417172584961,0.01721506458904554,0.8648749393999156,171.1333942164257
1247.142268422948,0.01652296686673449,0.8659306078833389,171.0953455594831
1252.893766926435,0.01632284579327192,0.8667923711345036,171.0585521749663
1258.671789857706,0.01696837401323458,0.8653370411133133,171.0122040516102
1264.476459540582,0.0174890880572329,0.86539787024772,170.9708242448434
1270.30789886301,0.01702264831217373,0.866181561851841,170.9289197091154
1276.166231279661,0.01702353797774386,0.8668500474095175,170.8884363878956
1282.051580814552,0.01724026447323024,0.8664579733868293,170.8497688795612
1287.964072063663,0.01690585685006982,0.8667856975181631,170.8047685334812
1293.903830197582,0.01735329797559995,0.8670738203857233,170.7602246617886
1299.870980964149,0.01770983685715618,0.8667510117258136,170.7226189142467
1305.865650691121,0.01772042860199918,0.8661296672998765,170.6658406285008
1311.887966288846,0.01732161563079446,0.8671818365601031,170.6304499752732
1317.938055252949,0.01861133419073681,0.8655247212794663,170.5877350970136
1324.016045667035,0.01767025894192448,0.8676365411690711,170.5435174179933
1330.122066205395,0.01776999147045729,0.8678997693183426,170.506311615754
1336.256246135732,0.01897258029612191,0.8666481575526164,170.4605585752377
1342.418715321901,0.01978328408231977,0.8661664336926331,170.4068175477375
1348.609604226653,0.01894232219836225,0.86669924775272,170.3684248984425
1354.829043914401,0.01976622555015236,0.866304380086676,170.318931459453
1361.077166053994,0.01860184216594479,0.867570027944342,170.2887525282052
1367.3541029215,0.01935984471473077,0.8671702318205704,170.2386296381245
1373.659987403015,0.0197189527315966,0.8677113480293085,170.1885893217379
1379.994952997469,0.01958812782348645,0.8675278479592559,170.1474013729386
1386.359133819454,0.02108158236867782,0.8655072466665334,170.1007868267342
1392.752664602066,0.02046824752953037,0.8672107800764299,170.054015430355
1399.175680699753,0.02044475324845232,0.8674067763236437,170.0030245366428
1405.628318091184,0.02069421899537562,0.8672124897106291,169.9559040569558
1412.110713382127,0.02092017424467863,0.8674508327717332,169.9080145172234
1418.62300380834,0.0209303084083139,0.8674571073846797,169.8703500688841
1425.165327238476,0.0212303416582265,0.8675816724901702,169.8325773443744
1431.737822177003,0.02123432446641689,0.8669990188853843,169.7728261183778
1438.340627767138,0.02109327962035242,0.8677624819836605,169.7383837962793
1444.973883793789,0.02176484550220195,0.8669342842280252,169.6751287695132
1451.637730686516,0.02189354018254818,0.8670616053440667,169.6321953430518
1458.332309522502,0.02199828869392843,0.8677696637265432,169.5847178581779
1465.057762029546,0.02256828709213413,0.8673941743058922,169.5297216644107
1471.814230589056,0.02194361976800898,0.8692107627066694,169.4852103398811
1478.601858239066,0.02287232594498183,0.8674653957414963,169.4377856795882
1485.420788677266,0.02341386563007834,0.8664088670624924,169.3906044901656
1492.271166264043,0.02331332781005443,0.8668186965915288,169.3446402480019
1499.153136025534,0.02364285230088113,0.8676623068589479,169.2898847768209
1506.066843656702,0.02374459936707148,0.8673684727999351,169.2420769463122
1513.012435524418,0.02352603241116008,0.8687180145678307,169.1833568759722
1519.990058670557,0.0244214391794678,0.8677328371897273,169.144472137167
1526.999860815115,0.02367965203266954,0.8675790429154645,169.0948264599994
1534.041990359331,0.02440094294448475,0.8678227515326258,169.0484802774678
1541.116596388839,0.0245813382328417,0.8683563586579766,168.9982214320095
1548.223828676809,0.02502401541873705,0.8682130202757388,168.9460414817493
1555.363837687136,0.02602788459163799,0.8671782627332223,168.8839642338645
1562.536774577606,0.02500935889335554,0.8686543859057805,168.8507598883768
1569.742791203112,0.02604535545599603,0.8674723139261173,168.7930935590437
1576.982040118859,0.02559827432235092,0.8680661705807706,168.7344074024962
1584.254674583602,0.02604254710249899,0.8689957744933445,168.6853314893787
1591.56084856288,0.02643088587745273,0.8688853143590349,168.6294521112854
1598.900716732287,0.02706363135863187,0.8669809645916813,168.5801667954912
1606.274434480734,0.02673443734342651,0.8691691643230083,168.5227375614285
1613.682157913754,0.0273749072746338,0.8687860383105355,168.4874940125025
1621.124043856791,0.02759517231068557,0.8678256330620128,168.4181835618583
1628.600249858534,0.02764194557159314,0.8679461011659639,168.3679799424812
1636.110934194238,0.02818046637495786,0.8682725206447507,168.3214131762922
1643.656255869092,0.0278275222800369,0.8689499261566608,168.2629049853346
1651.236374621567,0.02863180305090652,0.8685357921700729,168.2110979209239
1658.851450926814,0.02840324149081897,0.8685457052191224,168.1612761314614
1666.50164600005,0.02839531341013165,0.8693339497172657,168.1044849940406
1674.187121799974,0.02841638990315865,0.8695566356269206,168.0447091297161
1681.908041032202,0.0293727449004412,0.8694348097430722,167.9880473430657
1689.664567152699,0.02929196607869771,0.8691766864575073,167.9303055987035
1697.456864371254,0.03008385591253548,0.8687085798283155,167.8776452034137
1705.285097654944,0.03051797217054766,0.8686644797402263,167.818216133133
1713.149432731635,0.03031271967446271,0.8698259363004506,167.7627832442414
1721.050036093482,0.03052895059057903,0.8697285303897083,167.7111654463535
1728.987075000467,0.03118798025451806,0.8686496782060672,167.6622616696383
1736.960717483925,0.03079304394431968,0.869446311753189,167.6012755145649
1744.971132350113,0.03095563235235493,0.8696185036907167,167.5345441956997
1753.018489183772,0.0314311110113879,0.8696424995821477,167.4816762334913
1761.102958351733,0.03258747005766399,0.8683060129841053,167.4293928199446
1769.224711006508,0.03209387433963511,0.8696081744887765,167.3612436496127
1777.383919089924,0.03251739248686897,0.8694205234442497,167.3027302825125
1785.580755336758,0.0329944100006081,0.8692411937314355,167.2439823084052
1793.815393278396,0.03226960249141213,0.8702202069141109,167.1951991382958
1802.088007246502,0.03348912092937233,0.8691412777710523,167.1375188585812
1810.398772376721,0.03336300245917468,0.8702394423386661,167.0732027938165
1818.747864612369,0.03430758049823628,0.8695842487567111,167.0098754619676
1827.135460708176,0.03365424114264758,0.8699905782968851,166.9578449718615
1835.56173823401,0.03454583480457099,0.8698390540462021,166.8949705466032
1844.026875578654,0.03394498900912909,0.8708252530777592,166.8312491002598
1852.531051953569,0.03551416330586313,0.8686456745930093,166.7733667734056
1861.074447396694,0.03563206403898725,0.8693816871585914,166.7103873228421
1869.65724277626,0.0354130867363027,0.871046333539688,166.6502279895617
1878.279619794609,0.03552180966326249,0.8703722382107004,166.5820822225435
1886.941760992052,0.0360444049446125,0.8709787586250367,166.5277370355414
1895.643849750727,0.03733267897637577,0.869750152114857,166.4709745182448
1904.386070298487,0.03647506749864782,0.8708988602263865,166.3972813832629
1913.16860771279,0.03722832498464847,0.8705512218161336,166.3341822799908
1921.991647924629,0.03802642617647952,0.869691063427564,166.2720141475113
1930.855377722458,0.03827471699996429,0.8703055211485737,166.2114425123034
1939.759984756156,0.03809009558082509,0.8715262256251993,166.1448018602497
1948.70565754099,0.03864281620860426,0.871436742688148,166.0792636838348
1957.692585461618,0.03934532490454064,0.8701599017508811,166.0228363383277
1966.720958776082,0.03957458443637453,0.8707996827827112,165.9552612053841
1975.790968619852,0.03971947044363959,0.8700662628231161,165.8949139573518
1984.902807009862,0.03947889730581527,0.872115798863071,165.8185218049592
1994.05666684858,0.03979149823587776,0.8717921412575208,165.7607975347252
2003.252741928091,0.04055150175853098,0.8708059665828544,165.6970055497574
2012.491226934196,0.04141850590695177,0.8712221297993556,165.6257036032925
2021.772317450541,0.04130555077654442,0.8712188843521103,165.5646472129313
2031.09620996275,0.04220866414125563,0.8704466943933681,165.4951481454466
2040.463101862589,0.04140063481449481,0.8714491380759176,165.4275887664171
2049.873191452147,0.04246051780667577,0.8718540927749084,165.3594549547159
2059.326677948025,0.04245344530669575,0.8716786501007181,165.2959456221137
2068.823761485564,0.04295766346938532,0.8717707231353184,165.2290384528227
2078.364643123078,0.04450998474779536,0.8704612578806206,165.1599991177071
2087.949524846105,0.04326751572599546,0.8729973614615323,165.0868749885021
2097.578609571697,0.04480803984399556,0.8710485298516456,165.0206484860901
2107.252101152696,0.0437545542188591,0.8730599748810595,164.952624996614
2116.97020438207,0.04481393623782143,0.8722805572433412,164.8777782148359
2126.733124997234,0.04504775504846411,0.8712920536007169,164.8160485001822
2136.541069684416,0.04505589998359256,0.8722443636407423,164.7495999909721
2146.394246083022,0.04521036542958463,0.8723111681115325,164.6705755200393
2156.29286279004,0.04631985836557312,0.8720003360440644,164.6063763588729
2166.237129364453,0.04681736757670635,0.8722021402162549,164.5242462802202
2176.227256331679,0.04665010959460825,0.872784895292959,164.456591365063
2186.263455188017,0.04737784220958462,0.8726238992588295,164.3870410630721
2196.345938405145,0.04793779050292031,0.8723118292914236,164.3145363563076
2206.47491943459,0.04822503979418609,0.8723905962414593,164.2393294249575
2216.650612712278,0.04844580339844781,0.8727329103172953,164.1662969591729
2226.873233663045,0.04872761672529907,0.8726547831170934,164.0937663014599
2237.14299870522,0.04914815118570977,0.8730812118079202,164.0260270641153
2247.460125255193,0.04969255843203882,0.8722363391936027,163.9451502049245
2257.824831732024,0.04997377328318842,0.8733504358600264,163.8710978771443
2268.237337562062,0.05067944012526012,0.8729809312773253,163.8035602666797
2278.6978631836,0.05092451302034534,0.8734097330076247,163.7266005436971
2289.206630051532,0.05090833669986318,0.8733635890521713,163.6543127376865
2299.763860642043,0.0512429574296083,0.8740814033261314,163.576593516116
2310.369778457324,0.05200903048489088,0.8734072703917268,163.5056548458112
2321.024608030298,0.0530878760686337,0.8736800430416183,163.4261658889534
2331.72857492938,0.05241882462311689,0.8741094848061948,163.348901388806
2342.481905763239,0.05350844993578392,0.8740104742509668,163.2673529013039
2353.28482818562,0.05272611318389852,0.8749166478232897,163.1829262440735
2364.137570900132,0.05369127288975631,0.8750434539294121,163.1201747263314
2375.040363665118,0.05454691048549877,0.8748603417978341,163.0329188516986
2385.993437298502,0.0541748019070663,0.8743435813172542,162.9574657210905
2396.99702368268,0.05583285544705139,0.8740476351911628,162.8837388690914
2408.051355769433,0.05630390613811503,0.8739924130067036,162.8015445415701
2419.156667584855,0.05592217727401189,0.8756844295220934,162.7212774383965
2430.313194234303,0.05679416665742635,0.8742355235041066,162.6314379270197
2441.521171907388,0.05629299440392196,0.8749936161576605,162.5607102611143
2452.780837882957,0.05707015489951223,0.8749240042865913,162.4881811579494
2464.092430534135,0.0574263721645113,0.8756530933616471,162.396859959641
2475.456189333355,0.05786234643918844,0.8752893209859003,162.3151415498075
2486.87235485744,0.05889114151125748,0.8758307812868737,162.2364780325883
2498.341168792689,0.05978034889778328,0.8756972143581379,162.157004139937
2509.862873939994,0.05907153385183038,0.8764971186063076,162.0682311214109
2521.437714219987,0.06084933790180805,0.8749104062053945,161.9914184146857
2533.065934678195,0.06096894064432306,0.875506350544798,161.911533301892
2544.747781490235,0.0612981618624807,0.8756373281353549,161.8245369014118
2556.483501967018,0.06125707074623572,0.8765329084931578,161.7395609061277
2568.273344559994,0.06149515287687572,0.8766966742952343,161.6556057106197
2580.117558866402,0.06227306876001939,0.8761821726648529,161.5713137520112
2592.016395634565,0.06249346514172532,0.8770719267907995,161.4873759199789
2603.970106769187,0.06342387098116095,0.8761629775472444,161.3992254168829
2615.978945336698,0.06400122529255289,0.876137506583594,161.3252969496003
2628.043165570596,0.06423819726854228,0.8772486379445467,161.2323648720469
2640.163022876845,0.06396566979105291,0.8775598951232677,161.1362020467649
2652.338773839275,0.06501431743961594,0.8769781897667663,161.0533848173664
2664.570676225014,0.06598003984546,0.8774787964273311,160.9728177520169
2676.858988989943,0.06553506949397747,0.8780676402421262,160.8779233589544
2689.203972284183,0.06576819224899341,0.8782405056982795,160.7929105126155
2701.605887457599,0.06693100322283127,0.8784217585564129,160.7047960058776
2714.064997065337,0.06690004452909276,0.8775973496452022,160.6152927861191
2726.581564873376,0.06744194341368315,0.8782383774677354,160.5323565925987
2739.15585586412,0.06802097759401295,0.8787995876144007,160.435485281694
2751.788136241997,0.06862370107182007,0.8789428907820021,160.3423400644185
2764.478673439107,0.06954551291522149,0.8785356876850383,160.2550660081505
2777.227736120874,0.07107153634390891,0.878207435468197,160.1628181095845
2790.035594191741,0.07110729715039207,0.8784312275265238,160.0706119515986
2802.902518800884,0.07005556085159907,0.8801742211035103,159.9768572697706
2815.828782347935,0.07204480990908699,0.8793524143722331,159.8859079753282
2828.814658488778,0.07228181523487717,0.8795580757259257,159.7928913103609
2841.860422141319,0.07294262265023288,0.8793200234544085,159.6929766859544
2854.966349491319,0.0734094469571607,0.8801353089420892,159.6023358143797
2868.132717998234,0.0734149104736365,0.880346986009964,159.5088371538961
2881.359806401091,0.07315378267388883,0.8804825623997204,159.4173317403917
2894.647894724389,0.07449333524644877,0.8804245755778506,159.3222090419126
2907.997264284032,0.0749215523053311,0.8803440152988917,159.2257479808894
2921.408197693276,0.07490731271024512,0.8811359322279173,159.1342455885792
2934.88097886872,0.07543429859616524,0.8815328195397759,159.0281713789682
2948.415893036308,0.07690329680037161,0.8809460832112271,158.9334589059618
2962.013226737378,0.07686540532463466,0.8810435806458381,158.847572998969
2975.673267834718,0.07754126448021924,0.881115919925908,158.7417035271415
2989.396305518672,0.07900702474561438,0.8811162260726536,158.6483255869641
3003.182630313246,0.07945943515828126,0.8807414185315234,158.5472429849868
3017.032534082275,0.07866461015384013,0.8829541191933279,158.4506202448266
3030.946310035589,0.07930760641231126,0.8825273267571241,158.3457623390408
3044.924252735233,0.08032381043437414,0.8819934369000071,158.2445290917065
3058.96665810169,0.07991839050657883,0.8825120834797584,158.1514378526533
3073.073823420157,0.08145618133436922,0.8814960937894325,158.0451752293652
3087.246047346827,0.08156537872837649,0.8829058305436635,157.9459649601102
3101.483629915224,0.08129904596371766,0.8835162965100919,157.8408122918987
3115.786872542551,0.08206500797158546,0.8835834053887552,157.7338801223643
3130.156078036061,0.08366795858104313,0.8838218846491805,157.6332511755937
3144.591550599487,0.08497977010994419,0.8829205814707595,157.5272667889528
3159.093595839458,0.08442589986107278,0.883456613328289,157.4308039446049
3173.662520771995,0.08487028500732323,0.8838139453163139,157.3256161821108
3188.298633828987,0.08612763517372166,0.8840084424706891,157.2201767357995
3203.002244864741,0.08574963790951093,0.884480548147673,157.1132923324283
3217.773665162523,0.08670283750269112,0.8846315878179281,157.0089368660528
3232.613207441165,0.0871107174116004,0.8857944591546186,156.90440127355
3247.52118586167,0.08811254114473004,0.8850120526335112,156.7992744927899
3262.497916033878,0.08740194435909085,0.8856730480378959,156.689084686863
3277.543715023136,0.08830682165461975,0.8863029594415768,156.5791680172435
3292.658901357016,0.08896268899086736,0.8866422907389981,156.4737549082673
3307.843795032053,0.09019238983235277,0.8855854805629029,156.3649905649007
