Freq.	V(n002)
1.00000000000000e+002	(-1.17839230486781e+002dB,1.79596298872272e+002°)
1.00023028502082e+002	(-1.17835230487102e+002dB,1.79596205906644e+002°)
1.00046062307284e+002	(-1.17831230487423e+002dB,1.79596112919609e+002°)
1.00069101416826e+002	(-1.17827230487744e+002dB,1.79596019911160e+002°)
1.00092145831930e+002	(-1.17823230488065e+002dB,1.79595926881294e+002°)
1.00115195553817e+002	(-1.17819230488387e+002dB,1.79595833830004e+002°)
1.00138250583710e+002	(-1.17815230488709e+002dB,1.79595740757287e+002°)
1.00161310922831e+002	(-1.17811230489030e+002dB,1.79595647663137e+002°)
1.00184376572403e+002	(-1.17807230489352e+002dB,1.79595554547549e+002°)
1.00207447533648e+002	(-1.17803230489674e+002dB,1.79595461410518e+002°)
1.00230523807790e+002	(-1.17799230489997e+002dB,1.79595368252040e+002°)
1.00253605396052e+002	(-1.17795230490319e+002dB,1.79595275072110e+002°)
1.00276692299659e+002	(-1.17791230490642e+002dB,1.79595181870722e+002°)
1.00299784519833e+002	(-1.17787230490964e+002dB,1.79595088647872e+002°)
1.00322882057800e+002	(-1.17783230491287e+002dB,1.79594995403554e+002°)
1.00345984914784e+002	(-1.17779230491610e+002dB,1.79594902137764e+002°)
1.00369093092010e+002	(-1.17775230491933e+002dB,1.79594808850497e+002°)
1.00392206590702e+002	(-1.17771230492256e+002dB,1.79594715541747e+002°)
1.00415325412088e+002	(-1.17767230492580e+002dB,1.79594622211511e+002°)
1.00438449557391e+002	(-1.17763230492903e+002dB,1.79594528859782e+002°)
1.00461579027839e+002	(-1.17759230493227e+002dB,1.79594435486556e+002°)
1.00484713824658e+002	(-1.17755230493551e+002dB,1.79594342091829e+002°)
1.00507853949074e+002	(-1.17751230493875e+002dB,1.79594248675594e+002°)
1.00530999402313e+002	(-1.17747230494199e+002dB,1.79594155237848e+002°)
1.00554150185604e+002	(-1.17743230494523e+002dB,1.79594061778585e+002°)
1.00577306300174e+002	(-1.17739230494848e+002dB,1.79593968297800e+002°)
1.00600467747249e+002	(-1.17735230495172e+002dB,1.79593874795488e+002°)
1.00623634528060e+002	(-1.17731230495497e+002dB,1.79593781271644e+002°)
1.00646806643832e+002	(-1.17727230495822e+002dB,1.79593687726264e+002°)
1.00669984095796e+002	(-1.17723230496147e+002dB,1.79593594159343e+002°)
1.00693166885180e+002	(-1.17719230496472e+002dB,1.79593500570874e+002°)
1.00716355013213e+002	(-1.17715230496798e+002dB,1.79593406960855e+002°)
1.00739548481125e+002	(-1.17711230497123e+002dB,1.79593313329278e+002°)
1.00762747290145e+002	(-1.17707230497449e+002dB,1.79593219676141e+002°)
1.00785951441503e+002	(-1.17703230497775e+002dB,1.79593126001436e+002°)
1.00809160936429e+002	(-1.17699230498101e+002dB,1.79593032305161e+002°)
1.00832375776155e+002	(-1.17695230498427e+002dB,1.79592938587309e+002°)
1.00855595961910e+002	(-1.17691230498753e+002dB,1.79592844847876e+002°)
1.00878821494927e+002	(-1.17687230499079e+002dB,1.79592751086856e+002°)
1.00902052376435e+002	(-1.17683230499406e+002dB,1.79592657304245e+002°)
1.00925288607668e+002	(-1.17679230499732e+002dB,1.79592563500038e+002°)
1.00948530189857e+002	(-1.17675230500059e+002dB,1.79592469674230e+002°)
1.00971777124234e+002	(-1.17671230500386e+002dB,1.79592375826816e+002°)
1.00995029412032e+002	(-1.17667230500713e+002dB,1.79592281957790e+002°)
1.01018287054483e+002	(-1.17663230501041e+002dB,1.79592188067148e+002°)
1.01041550052821e+002	(-1.17659230501368e+002dB,1.79592094154886e+002°)
1.01064818408279e+002	(-1.17655230501696e+002dB,1.79592000220997e+002°)
1.01088092122091e+002	(-1.17651230502024e+002dB,1.79591906265477e+002°)
1.01111371195490e+002	(-1.17647230502351e+002dB,1.79591812288321e+002°)
1.01134655629712e+002	(-1.17643230502680e+002dB,1.79591718289523e+002°)
1.01157945425989e+002	(-1.17639230503008e+002dB,1.79591624269080e+002°)
1.01181240585558e+002	(-1.17635230503336e+002dB,1.79591530226986e+002°)
1.01204541109654e+002	(-1.17631230503664e+002dB,1.79591436163236e+002°)
1.01227846999511e+002	(-1.17627230503993e+002dB,1.79591342077825e+002°)
1.01251158256365e+002	(-1.17623230504322e+002dB,1.79591247970748e+002°)
1.01274474881453e+002	(-1.17619230504651e+002dB,1.79591153842000e+002°)
1.01297796876010e+002	(-1.17615230504980e+002dB,1.79591059691576e+002°)
1.01321124241273e+002	(-1.17611230505309e+002dB,1.79590965519471e+002°)
1.01344456978479e+002	(-1.17607230505639e+002dB,1.79590871325680e+002°)
1.01367795088864e+002	(-1.17603230505968e+002dB,1.79590777110199e+002°)
1.01391138573667e+002	(-1.17599230506298e+002dB,1.79590682873021e+002°)
1.01414487434125e+002	(-1.17595230506628e+002dB,1.79590588614142e+002°)
1.01437841671476e+002	(-1.17591230506958e+002dB,1.79590494333558e+002°)
1.01461201286958e+002	(-1.17587230507288e+002dB,1.79590400031263e+002°)
1.01484566281809e+002	(-1.17583230507618e+002dB,1.79590305707251e+002°)
1.01507936657269e+002	(-1.17579230507949e+002dB,1.79590211361519e+002°)
1.01531312414576e+002	(-1.17575230508279e+002dB,1.79590116994061e+002°)
1.01554693554969e+002	(-1.17571230508610e+002dB,1.79590022604872e+002°)
1.01578080079690e+002	(-1.17567230508941e+002dB,1.79589928193947e+002°)
1.01601471989976e+002	(-1.17563230509272e+002dB,1.79589833761282e+002°)
1.01624869287069e+002	(-1.17559230509603e+002dB,1.79589739306870e+002°)
1.01648271972209e+002	(-1.17555230509934e+002dB,1.79589644830707e+002°)
1.01671680046637e+002	(-1.17551230510266e+002dB,1.79589550332789e+002°)
1.01695093511594e+002	(-1.17547230510598e+002dB,1.79589455813109e+002°)
1.01718512368321e+002	(-1.17543230510929e+002dB,1.79589361271663e+002°)
1.01741936618060e+002	(-1.17539230511261e+002dB,1.79589266708447e+002°)
1.01765366262053e+002	(-1.17535230511594e+002dB,1.79589172123454e+002°)
1.01788801301542e+002	(-1.17531230511926e+002dB,1.79589077516681e+002°)
1.01812241737769e+002	(-1.17527230512258e+002dB,1.79588982888122e+002°)
1.01835687571978e+002	(-1.17523230512591e+002dB,1.79588888237771e+002°)
1.01859138805411e+002	(-1.17519230512924e+002dB,1.79588793565624e+002°)
1.01882595439312e+002	(-1.17515230513256e+002dB,1.79588698871677e+002°)
1.01906057474924e+002	(-1.17511230513589e+002dB,1.79588604155923e+002°)
1.01929524913492e+002	(-1.17507230513923e+002dB,1.79588509418358e+002°)
1.01952997756260e+002	(-1.17503230514256e+002dB,1.79588414658977e+002°)
1.01976476004471e+002	(-1.17499230514589e+002dB,1.79588319877775e+002°)
1.01999959659371e+002	(-1.17495230514923e+002dB,1.79588225074747e+002°)
1.02023448722206e+002	(-1.17491230515257e+002dB,1.79588130249887e+002°)
1.02046943194219e+002	(-1.17487230515591e+002dB,1.79588035403191e+002°)
1.02070443076658e+002	(-1.17483230515925e+002dB,1.79587940534654e+002°)
1.02093948370767e+002	(-1.17479230516259e+002dB,1.79587845644271e+002°)
1.02117459077794e+002	(-1.17475230516594e+002dB,1.79587750732036e+002°)
1.02140975198984e+002	(-1.17471230516928e+002dB,1.79587655797945e+002°)
1.02164496735585e+002	(-1.17467230517263e+002dB,1.79587560841993e+002°)
1.02188023688843e+002	(-1.17463230517598e+002dB,1.79587465864174e+002°)
1.02211556060006e+002	(-1.17459230517933e+002dB,1.79587370864484e+002°)
1.02235093850322e+002	(-1.17455230518268e+002dB,1.79587275842917e+002°)
1.02258637061039e+002	(-1.17451230518603e+002dB,1.79587180799469e+002°)
1.02282185693404e+002	(-1.17447230518939e+002dB,1.79587085734134e+002°)
1.02305739748666e+002	(-1.17443230519274e+002dB,1.79586990646908e+002°)
1.02329299228075e+002	(-1.17439230519610e+002dB,1.79586895537784e+002°)
1.02352864132878e+002	(-1.17435230519946e+002dB,1.79586800406760e+002°)
1.02376434464327e+002	(-1.17431230520282e+002dB,1.79586705253828e+002°)
1.02400010223669e+002	(-1.17427230520618e+002dB,1.79586610078985e+002°)
1.02423591412156e+002	(-1.17423230520955e+002dB,1.79586514882225e+002°)
1.02447178031037e+002	(-1.17419230521291e+002dB,1.79586419663543e+002°)
1.02470770081564e+002	(-1.17415230521628e+002dB,1.79586324422934e+002°)
1.02494367564986e+002	(-1.17411230521965e+002dB,1.79586229160393e+002°)
1.02517970482555e+002	(-1.17407230522302e+002dB,1.79586133875915e+002°)
1.02541578835522e+002	(-1.17403230522639e+002dB,1.79586038569495e+002°)
1.02565192625140e+002	(-1.17399230522977e+002dB,1.79585943241128e+002°)
1.02588811852659e+002	(-1.17395230523314e+002dB,1.79585847890808e+002°)
1.02612436519333e+002	(-1.17391230523652e+002dB,1.79585752518532e+002°)
1.02636066626414e+002	(-1.17387230523990e+002dB,1.79585657124293e+002°)
1.02659702175154e+002	(-1.17383230524327e+002dB,1.79585561708087e+002°)
1.02683343166808e+002	(-1.17379230524666e+002dB,1.79585466269908e+002°)
1.02706989602627e+002	(-1.17375230525004e+002dB,1.79585370809752e+002°)
1.02730641483867e+002	(-1.17371230525342e+002dB,1.79585275327614e+002°)
1.02754298811780e+002	(-1.17367230525681e+002dB,1.79585179823487e+002°)
1.02777961587622e+002	(-1.17363230526020e+002dB,1.79585084297369e+002°)
1.02801629812646e+002	(-1.17359230526358e+002dB,1.79584988749252e+002°)
1.02825303488109e+002	(-1.17355230526697e+002dB,1.79584893179133e+002°)
1.02848982615264e+002	(-1.17351230527037e+002dB,1.79584797587006e+002°)
1.02872667195367e+002	(-1.17347230527376e+002dB,1.79584701972866e+002°)
1.02896357229674e+002	(-1.17343230527715e+002dB,1.79584606336708e+002°)
1.02920052719442e+002	(-1.17339230528055e+002dB,1.79584510678527e+002°)
1.02943753665926e+002	(-1.17335230528395e+002dB,1.79584414998317e+002°)
1.02967460070382e+002	(-1.17331230528735e+002dB,1.79584319296075e+002°)
1.02991171934069e+002	(-1.17327230529075e+002dB,1.79584223571794e+002°)
1.03014889258242e+002	(-1.17323230529415e+002dB,1.79584127825470e+002°)
1.03038612044161e+002	(-1.17319230529756e+002dB,1.79584032057098e+002°)
1.03062340293081e+002	(-1.17315230530096e+002dB,1.79583936266672e+002°)
1.03086074006261e+002	(-1.17311230530437e+002dB,1.79583840454187e+002°)
1.03109813184961e+002	(-1.17307230530778e+002dB,1.79583744619639e+002°)
1.03133557830437e+002	(-1.17303230531119e+002dB,1.79583648763022e+002°)
1.03157307943950e+002	(-1.17299230531460e+002dB,1.79583552884332e+002°)
1.03181063526758e+002	(-1.17295230531802e+002dB,1.79583456983562e+002°)
1.03204824580121e+002	(-1.17291230532143e+002dB,1.79583361060709e+002°)
1.03228591105299e+002	(-1.17287230532485e+002dB,1.79583265115766e+002°)
1.03252363103551e+002	(-1.17283230532827e+002dB,1.79583169148729e+002°)
1.03276140576139e+002	(-1.17279230533169e+002dB,1.79583073159593e+002°)
1.03299923524322e+002	(-1.17275230533511e+002dB,1.79582977148353e+002°)
1.03323711949362e+002	(-1.17271230533853e+002dB,1.79582881115003e+002°)
1.03347505852520e+002	(-1.17267230534196e+002dB,1.79582785059538e+002°)
1.03371305235057e+002	(-1.17263230534538e+002dB,1.79582688981955e+002°)
1.03395110098236e+002	(-1.17259230534881e+002dB,1.79582592882246e+002°)
1.03418920443318e+002	(-1.17255230535224e+002dB,1.79582496760407e+002°)
1.03442736271566e+002	(-1.17251230535567e+002dB,1.79582400616434e+002°)
1.03466557584242e+002	(-1.17247230535910e+002dB,1.79582304450321e+002°)
1.03490384382610e+002	(-1.17243230536254e+002dB,1.79582208262063e+002°)
1.03514216667933e+002	(-1.17239230536597e+002dB,1.79582112051654e+002°)
1.03538054441474e+002	(-1.17235230536941e+002dB,1.79582015819090e+002°)
1.03561897704497e+002	(-1.17231230537285e+002dB,1.79581919564366e+002°)
1.03585746458267e+002	(-1.17227230537629e+002dB,1.79581823287476e+002°)
1.03609600704047e+002	(-1.17223230537973e+002dB,1.79581726988416e+002°)
1.03633460443103e+002	(-1.17219230538317e+002dB,1.79581630667180e+002°)
1.03657325676699e+002	(-1.17215230538662e+002dB,1.79581534323763e+002°)
1.03681196406101e+002	(-1.17211230539007e+002dB,1.79581437958160e+002°)
1.03705072632575e+002	(-1.17207230539351e+002dB,1.79581341570367e+002°)
1.03728954357386e+002	(-1.17203230539696e+002dB,1.79581245160377e+002°)
1.03752841581800e+002	(-1.17199230540042e+002dB,1.79581148728186e+002°)
1.03776734307084e+002	(-1.17195230540387e+002dB,1.79581052273788e+002°)
1.03800632534505e+002	(-1.17191230540732e+002dB,1.79580955797179e+002°)
1.03824536265330e+002	(-1.17187230541078e+002dB,1.79580859298354e+002°)
1.03848445500826e+002	(-1.17183230541424e+002dB,1.79580762777307e+002°)
1.03872360242261e+002	(-1.17179230541770e+002dB,1.79580666234032e+002°)
1.03896280490902e+002	(-1.17175230542116e+002dB,1.79580569668527e+002°)
1.03920206248019e+002	(-1.17171230542462e+002dB,1.79580473080784e+002°)
1.03944137514879e+002	(-1.17167230542808e+002dB,1.79580376470798e+002°)
1.03968074292751e+002	(-1.17163230543155e+002dB,1.79580279838566e+002°)
1.03992016582905e+002	(-1.17159230543502e+002dB,1.79580183184081e+002°)
1.04015964386609e+002	(-1.17155230543849e+002dB,1.79580086507339e+002°)
1.04039917705134e+002	(-1.17151230544196e+002dB,1.79579989808334e+002°)
1.04063876539749e+002	(-1.17147230544543e+002dB,1.79579893087061e+002°)
1.04087840891725e+002	(-1.17143230544890e+002dB,1.79579796343515e+002°)
1.04111810762332e+002	(-1.17139230545238e+002dB,1.79579699577691e+002°)
1.04135786152842e+002	(-1.17135230545585e+002dB,1.79579602789584e+002°)
1.04159767064525e+002	(-1.17131230545933e+002dB,1.79579505979189e+002°)
1.04183753498652e+002	(-1.17127230546281e+002dB,1.79579409146500e+002°)
1.04207745456496e+002	(-1.17123230546629e+002dB,1.79579312291512e+002°)
1.04231742939329e+002	(-1.17119230546978e+002dB,1.79579215414221e+002°)
1.04255745948422e+002	(-1.17115230547326e+002dB,1.79579118514622e+002°)
1.04279754485049e+002	(-1.17111230547675e+002dB,1.79579021592708e+002°)
1.04303768550482e+002	(-1.17107230548024e+002dB,1.79578924648475e+002°)
1.04327788145995e+002	(-1.17103230548373e+002dB,1.79578827681917e+002°)
1.04351813272861e+002	(-1.17099230548722e+002dB,1.79578730693031e+002°)
1.04375843932353e+002	(-1.17095230549071e+002dB,1.79578633681809e+002°)
1.04399880125747e+002	(-1.17091230549420e+002dB,1.79578536648249e+002°)
1.04423921854316e+002	(-1.17087230549770e+002dB,1.79578439592343e+002°)
1.04447969119335e+002	(-1.17083230550120e+002dB,1.79578342514087e+002°)
1.04472021922078e+002	(-1.17079230550470e+002dB,1.79578245413476e+002°)
1.04496080263822e+002	(-1.17075230550820e+002dB,1.79578148290505e+002°)
1.04520144145842e+002	(-1.17071230551170e+002dB,1.79578051145169e+002°)
1.04544213569413e+002	(-1.17067230551520e+002dB,1.79577953977462e+002°)
1.04568288535812e+002	(-1.17063230551871e+002dB,1.79577856787379e+002°)
1.04592369046315e+002	(-1.17059230552222e+002dB,1.79577759574915e+002°)
1.04616455102199e+002	(-1.17055230552573e+002dB,1.79577662340065e+002°)
1.04640546704741e+002	(-1.17051230552924e+002dB,1.79577565082825e+002°)
1.04664643855218e+002	(-1.17047230553275e+002dB,1.79577467803187e+002°)
1.04688746554908e+002	(-1.17043230553626e+002dB,1.79577370501149e+002°)
1.04712854805088e+002	(-1.17039230553978e+002dB,1.79577273176703e+002°)
1.04736968607038e+002	(-1.17035230554329e+002dB,1.79577175829846e+002°)
1.04761087962034e+002	(-1.17031230554681e+002dB,1.79577078460572e+002°)
1.04785212871357e+002	(-1.17027230555033e+002dB,1.79576981068876e+002°)
1.04809343336286e+002	(-1.17023230555385e+002dB,1.79576883654752e+002°)
1.04833479358098e+002	(-1.17019230555738e+002dB,1.79576786218196e+002°)
1.04857620938075e+002	(-1.17015230556090e+002dB,1.79576688759203e+002°)
1.04881768077497e+002	(-1.17011230556443e+002dB,1.79576591277766e+002°)
1.04905920777643e+002	(-1.17007230556796e+002dB,1.79576493773882e+002°)
1.04930079039794e+002	(-1.17003230557149e+002dB,1.79576396247544e+002°)
1.04954242865230e+002	(-1.16999230557502e+002dB,1.79576298698748e+002°)
1.04978412255234e+002	(-1.16995230557855e+002dB,1.79576201127489e+002°)
1.05002587211087e+002	(-1.16991230558208e+002dB,1.79576103533761e+002°)
1.05026767734069e+002	(-1.16987230558562e+002dB,1.79576005917559e+002°)
1.05050953825464e+002	(-1.16983230558916e+002dB,1.79575908278879e+002°)
1.05075145486553e+002	(-1.16979230559270e+002dB,1.79575810617714e+002°)
1.05099342718620e+002	(-1.16975230559624e+002dB,1.79575712934059e+002°)
1.05123545522946e+002	(-1.16971230559978e+002dB,1.79575615227910e+002°)
1.05147753900816e+002	(-1.16967230560333e+002dB,1.79575517499262e+002°)
1.05171967853513e+002	(-1.16963230560687e+002dB,1.79575419748109e+002°)
1.05196187382320e+002	(-1.16959230561042e+002dB,1.79575321974445e+002°)
1.05220412488522e+002	(-1.16955230561397e+002dB,1.79575224178266e+002°)
1.05244643173403e+002	(-1.16951230561752e+002dB,1.79575126359567e+002°)
1.05268879438248e+002	(-1.16947230562107e+002dB,1.79575028518342e+002°)
1.05293121284342e+002	(-1.16943230562463e+002dB,1.79574930654587e+002°)
1.05317368712970e+002	(-1.16939230562818e+002dB,1.79574832768295e+002°)
1.05341621725417e+002	(-1.16935230563174e+002dB,1.79574734859463e+002°)
1.05365880322970e+002	(-1.16931230563530e+002dB,1.79574636928083e+002°)
1.05390144506914e+002	(-1.16927230563886e+002dB,1.79574538974153e+002°)
1.05414414278537e+002	(-1.16923230564242e+002dB,1.79574440997665e+002°)
1.05438689639124e+002	(-1.16919230564598e+002dB,1.79574342998616e+002°)
1.05462970589963e+002	(-1.16915230564955e+002dB,1.79574244976999e+002°)
1.05487257132342e+002	(-1.16911230565312e+002dB,1.79574146932810e+002°)
1.05511549267547e+002	(-1.16907230565669e+002dB,1.79574048866044e+002°)
1.05535846996867e+002	(-1.16903230566026e+002dB,1.79573950776695e+002°)
1.05560150321591e+002	(-1.16899230566383e+002dB,1.79573852664757e+002°)
1.05584459243006e+002	(-1.16895230566740e+002dB,1.79573754530227e+002°)
1.05608773762401e+002	(-1.16891230567098e+002dB,1.79573656373099e+002°)
1.05633093881067e+002	(-1.16887230567455e+002dB,1.79573558193366e+002°)
1.05657419600291e+002	(-1.16883230567813e+002dB,1.79573459991025e+002°)
1.05681750921364e+002	(-1.16879230568171e+002dB,1.79573361766070e+002°)
1.05706087845575e+002	(-1.16875230568529e+002dB,1.79573263518496e+002°)
1.05730430374216e+002	(-1.16871230568888e+002dB,1.79573165248298e+002°)
1.05754778508577e+002	(-1.16867230569246e+002dB,1.79573066955470e+002°)
1.05779132249948e+002	(-1.16863230569605e+002dB,1.79572968640007e+002°)
1.05803491599621e+002	(-1.16859230569964e+002dB,1.79572870301904e+002°)
1.05827856558887e+002	(-1.16855230570323e+002dB,1.79572771941156e+002°)
1.05852227129039e+002	(-1.16851230570682e+002dB,1.79572673557758e+002°)
1.05876603311368e+002	(-1.16847230571041e+002dB,1.79572575151703e+002°)
1.05900985107166e+002	(-1.16843230571401e+002dB,1.79572476722988e+002°)
1.05925372517727e+002	(-1.16839230571760e+002dB,1.79572378271607e+002°)
1.05949765544343e+002	(-1.16835230572120e+002dB,1.79572279797555e+002°)
1.05974164188308e+002	(-1.16831230572480e+002dB,1.79572181300826e+002°)
1.05998568450915e+002	(-1.16827230572840e+002dB,1.79572082781415e+002°)
1.06022978333458e+002	(-1.16823230573201e+002dB,1.79571984239317e+002°)
1.06047393837231e+002	(-1.16819230573561e+002dB,1.79571885674528e+002°)
1.06071814963529e+002	(-1.16815230573922e+002dB,1.79571787087040e+002°)
1.06096241713647e+002	(-1.16811230574283e+002dB,1.79571688476850e+002°)
1.06120674088879e+002	(-1.16807230574644e+002dB,1.79571589843952e+002°)
1.06145112090522e+002	(-1.16803230575005e+002dB,1.79571491188342e+002°)
1.06169555719870e+002	(-1.16799230575366e+002dB,1.79571392510012e+002°)
1.06194004978220e+002	(-1.16795230575727e+002dB,1.79571293808959e+002°)
1.06218459866868e+002	(-1.16791230576089e+002dB,1.79571195085178e+002°)
1.06242920387110e+002	(-1.16787230576451e+002dB,1.79571096338662e+002°)
1.06267386540244e+002	(-1.16783230576813e+002dB,1.79570997569407e+002°)
1.06291858327567e+002	(-1.16779230577175e+002dB,1.79570898777408e+002°)
1.06316335750375e+002	(-1.16775230577537e+002dB,1.79570799962659e+002°)
1.06340818809967e+002	(-1.16771230577900e+002dB,1.79570701125154e+002°)
1.06365307507641e+002	(-1.16767230578262e+002dB,1.79570602264890e+002°)
1.06389801844696e+002	(-1.16763230578625e+002dB,1.79570503381860e+002°)
1.06414301822429e+002	(-1.16759230578988e+002dB,1.79570404476060e+002°)
1.06438807442140e+002	(-1.16755230579351e+002dB,1.79570305547483e+002°)
1.06463318705129e+002	(-1.16751230579715e+002dB,1.79570206596125e+002°)
1.06487835612694e+002	(-1.16747230580078e+002dB,1.79570107621981e+002°)
1.06512358166136e+002	(-1.16743230580442e+002dB,1.79570008625045e+002°)
1.06536886366754e+002	(-1.16739230580806e+002dB,1.79569909605313e+002°)
1.06561420215849e+002	(-1.16735230581169e+002dB,1.79569810562778e+002°)
