Freq.	V(n006)
1.00000000000000e+002	(-1.03860259312391e+002dB,1.79587962159560e+002°)
1.00023028502082e+002	(-1.03856259312746e+002dB,1.79587867274112e+002°)
1.00046062307284e+002	(-1.03852259313100e+002dB,1.79587772366815e+002°)
1.00069101416826e+002	(-1.03848259313454e+002dB,1.79587677437662e+002°)
1.00092145831930e+002	(-1.03844259313809e+002dB,1.79587582486649e+002°)
1.00115195553817e+002	(-1.03840259314164e+002dB,1.79587487513770e+002°)
1.00138250583710e+002	(-1.03836259314519e+002dB,1.79587392519021e+002°)
1.00161310922831e+002	(-1.03832259314874e+002dB,1.79587297502397e+002°)
1.00184376572403e+002	(-1.03828259315230e+002dB,1.79587202463892e+002°)
1.00207447533648e+002	(-1.03824259315585e+002dB,1.79587107403502e+002°)
1.00230523807790e+002	(-1.03820259315941e+002dB,1.79587012321221e+002°)
1.00253605396052e+002	(-1.03816259316297e+002dB,1.79586917217045e+002°)
1.00276692299659e+002	(-1.03812259316653e+002dB,1.79586822090968e+002°)
1.00299784519833e+002	(-1.03808259317009e+002dB,1.79586726942986e+002°)
1.00322882057800e+002	(-1.03804259317365e+002dB,1.79586631773093e+002°)
1.00345984914784e+002	(-1.03800259317722e+002dB,1.79586536581284e+002°)
1.00369093092010e+002	(-1.03796259318078e+002dB,1.79586441367554e+002°)
1.00392206590702e+002	(-1.03792259318435e+002dB,1.79586346131899e+002°)
1.00415325412088e+002	(-1.03788259318792e+002dB,1.79586250874313e+002°)
1.00438449557391e+002	(-1.03784259319149e+002dB,1.79586155594791e+002°)
1.00461579027839e+002	(-1.03780259319506e+002dB,1.79586060293327e+002°)
1.00484713824658e+002	(-1.03776259319864e+002dB,1.79585964969918e+002°)
1.00507853949074e+002	(-1.03772259320222e+002dB,1.79585869624558e+002°)
1.00530999402313e+002	(-1.03768259320579e+002dB,1.79585774257242e+002°)
1.00554150185604e+002	(-1.03764259320937e+002dB,1.79585678867964e+002°)
1.00577306300174e+002	(-1.03760259321295e+002dB,1.79585583456721e+002°)
1.00600467747249e+002	(-1.03756259321654e+002dB,1.79585488023506e+002°)
1.00623634528060e+002	(-1.03752259322012e+002dB,1.79585392568314e+002°)
1.00646806643832e+002	(-1.03748259322371e+002dB,1.79585297091141e+002°)
1.00669984095796e+002	(-1.03744259322730e+002dB,1.79585201591982e+002°)
1.00693166885180e+002	(-1.03740259323089e+002dB,1.79585106070831e+002°)
1.00716355013213e+002	(-1.03736259323448e+002dB,1.79585010527684e+002°)
1.00739548481125e+002	(-1.03732259323807e+002dB,1.79584914962535e+002°)
1.00762747290145e+002	(-1.03728259324166e+002dB,1.79584819375379e+002°)
1.00785951441503e+002	(-1.03724259324526e+002dB,1.79584723766212e+002°)
1.00809160936429e+002	(-1.03720259324886e+002dB,1.79584628135027e+002°)
1.00832375776155e+002	(-1.03716259325246e+002dB,1.79584532481821e+002°)
1.00855595961910e+002	(-1.03712259325606e+002dB,1.79584436806587e+002°)
1.00878821494927e+002	(-1.03708259325966e+002dB,1.79584341109322e+002°)
1.00902052376435e+002	(-1.03704259326326e+002dB,1.79584245390019e+002°)
1.00925288607668e+002	(-1.03700259326687e+002dB,1.79584149648674e+002°)
1.00948530189857e+002	(-1.03696259327048e+002dB,1.79584053885282e+002°)
1.00971777124234e+002	(-1.03692259327409e+002dB,1.79583958099838e+002°)
1.00995029412032e+002	(-1.03688259327770e+002dB,1.79583862292336e+002°)
1.01018287054483e+002	(-1.03684259328131e+002dB,1.79583766462771e+002°)
1.01041550052821e+002	(-1.03680259328493e+002dB,1.79583670611139e+002°)
1.01064818408279e+002	(-1.03676259328854e+002dB,1.79583574737434e+002°)
1.01088092122091e+002	(-1.03672259329216e+002dB,1.79583478841651e+002°)
1.01111371195490e+002	(-1.03668259329578e+002dB,1.79583382923786e+002°)
1.01134655629712e+002	(-1.03664259329940e+002dB,1.79583286983832e+002°)
1.01157945425989e+002	(-1.03660259330302e+002dB,1.79583191021786e+002°)
1.01181240585558e+002	(-1.03656259330665e+002dB,1.79583095037641e+002°)
1.01204541109654e+002	(-1.03652259331027e+002dB,1.79582999031394e+002°)
1.01227846999511e+002	(-1.03648259331390e+002dB,1.79582903003037e+002°)
1.01251158256365e+002	(-1.03644259331753e+002dB,1.79582806952568e+002°)
1.01274474881453e+002	(-1.03640259332116e+002dB,1.79582710879980e+002°)
1.01297796876010e+002	(-1.03636259332479e+002dB,1.79582614785268e+002°)
1.01321124241273e+002	(-1.03632259332843e+002dB,1.79582518668428e+002°)
1.01344456978479e+002	(-1.03628259333206e+002dB,1.79582422529454e+002°)
1.01367795088864e+002	(-1.03624259333570e+002dB,1.79582326368341e+002°)
1.01391138573667e+002	(-1.03620259333934e+002dB,1.79582230185084e+002°)
1.01414487434125e+002	(-1.03616259334298e+002dB,1.79582133979678e+002°)
1.01437841671476e+002	(-1.03612259334662e+002dB,1.79582037752118e+002°)
1.01461201286958e+002	(-1.03608259335027e+002dB,1.79581941502399e+002°)
1.01484566281809e+002	(-1.03604259335391e+002dB,1.79581845230515e+002°)
1.01507936657269e+002	(-1.03600259335756e+002dB,1.79581748936462e+002°)
1.01531312414576e+002	(-1.03596259336121e+002dB,1.79581652620234e+002°)
1.01554693554969e+002	(-1.03592259336486e+002dB,1.79581556281827e+002°)
1.01578080079690e+002	(-1.03588259336851e+002dB,1.79581459921234e+002°)
1.01601471989976e+002	(-1.03584259337217e+002dB,1.79581363538452e+002°)
1.01624869287069e+002	(-1.03580259337582e+002dB,1.79581267133475e+002°)
1.01648271972209e+002	(-1.03576259337948e+002dB,1.79581170706298e+002°)
1.01671680046637e+002	(-1.03572259338314e+002dB,1.79581074256915e+002°)
1.01695093511594e+002	(-1.03568259338680e+002dB,1.79580977785322e+002°)
1.01718512368321e+002	(-1.03564259339046e+002dB,1.79580881291514e+002°)
1.01741936618060e+002	(-1.03560259339413e+002dB,1.79580784775485e+002°)
1.01765366262053e+002	(-1.03556259339779e+002dB,1.79580688237231e+002°)
1.01788801301542e+002	(-1.03552259340146e+002dB,1.79580591676745e+002°)
1.01812241737769e+002	(-1.03548259340513e+002dB,1.79580495094024e+002°)
1.01835687571978e+002	(-1.03544259340880e+002dB,1.79580398489062e+002°)
1.01859138805411e+002	(-1.03540259341247e+002dB,1.79580301861853e+002°)
1.01882595439312e+002	(-1.03536259341615e+002dB,1.79580205212393e+002°)
1.01906057474924e+002	(-1.03532259341982e+002dB,1.79580108540677e+002°)
1.01929524913492e+002	(-1.03528259342350e+002dB,1.79580011846699e+002°)
1.01952997756260e+002	(-1.03524259342718e+002dB,1.79579915130455e+002°)
1.01976476004471e+002	(-1.03520259343086e+002dB,1.79579818391939e+002°)
1.01999959659371e+002	(-1.03516259343454e+002dB,1.79579721631145e+002°)
1.02023448722206e+002	(-1.03512259343823e+002dB,1.79579624848070e+002°)
1.02046943194219e+002	(-1.03508259344191e+002dB,1.79579528042708e+002°)
1.02070443076658e+002	(-1.03504259344560e+002dB,1.79579431215053e+002°)
1.02093948370767e+002	(-1.03500259344929e+002dB,1.79579334365101e+002°)
1.02117459077794e+002	(-1.03496259345298e+002dB,1.79579237492846e+002°)
1.02140975198984e+002	(-1.03492259345668e+002dB,1.79579140598284e+002°)
1.02164496735585e+002	(-1.03488259346037e+002dB,1.79579043681409e+002°)
1.02188023688843e+002	(-1.03484259346407e+002dB,1.79578946742215e+002°)
1.02211556060006e+002	(-1.03480259346776e+002dB,1.79578849780699e+002°)
1.02235093850322e+002	(-1.03476259347146e+002dB,1.79578752796854e+002°)
1.02258637061039e+002	(-1.03472259347517e+002dB,1.79578655790676e+002°)
1.02282185693404e+002	(-1.03468259347887e+002dB,1.79578558762159e+002°)
1.02305739748666e+002	(-1.03464259348257e+002dB,1.79578461711299e+002°)
1.02329299228075e+002	(-1.03460259348628e+002dB,1.79578364638090e+002°)
1.02352864132878e+002	(-1.03456259348999e+002dB,1.79578267542527e+002°)
1.02376434464327e+002	(-1.03452259349370e+002dB,1.79578170424604e+002°)
1.02400010223669e+002	(-1.03448259349741e+002dB,1.79578073284318e+002°)
1.02423591412156e+002	(-1.03444259350112e+002dB,1.79577976121661e+002°)
1.02447178031037e+002	(-1.03440259350484e+002dB,1.79577878936631e+002°)
1.02470770081564e+002	(-1.03436259350855e+002dB,1.79577781729220e+002°)
1.02494367564986e+002	(-1.03432259351227e+002dB,1.79577684499425e+002°)
1.02517970482555e+002	(-1.03428259351599e+002dB,1.79577587247240e+002°)
1.02541578835522e+002	(-1.03424259351972e+002dB,1.79577489972659e+002°)
1.02565192625140e+002	(-1.03420259352344e+002dB,1.79577392675678e+002°)
1.02588811852659e+002	(-1.03416259352716e+002dB,1.79577295356292e+002°)
1.02612436519333e+002	(-1.03412259353089e+002dB,1.79577198014495e+002°)
1.02636066626414e+002	(-1.03408259353462e+002dB,1.79577100650282e+002°)
1.02659702175154e+002	(-1.03404259353835e+002dB,1.79577003263648e+002°)
1.02683343166808e+002	(-1.03400259354208e+002dB,1.79576905854588e+002°)
1.02706989602627e+002	(-1.03396259354582e+002dB,1.79576808423096e+002°)
1.02730641483867e+002	(-1.03392259354955e+002dB,1.79576710969168e+002°)
1.02754298811780e+002	(-1.03388259355329e+002dB,1.79576613492799e+002°)
1.02777961587622e+002	(-1.03384259355703e+002dB,1.79576515993982e+002°)
1.02801629812646e+002	(-1.03380259356077e+002dB,1.79576418472714e+002°)
1.02825303488109e+002	(-1.03376259356451e+002dB,1.79576320928988e+002°)
1.02848982615264e+002	(-1.03372259356825e+002dB,1.79576223362801e+002°)
1.02872667195367e+002	(-1.03368259357200e+002dB,1.79576125774145e+002°)
1.02896357229674e+002	(-1.03364259357575e+002dB,1.79576028163017e+002°)
1.02920052719442e+002	(-1.03360259357950e+002dB,1.79575930529411e+002°)
1.02943753665926e+002	(-1.03356259358325e+002dB,1.79575832873322e+002°)
1.02967460070382e+002	(-1.03352259358700e+002dB,1.79575735194745e+002°)
1.02991171934069e+002	(-1.03348259359075e+002dB,1.79575637493674e+002°)
1.03014889258242e+002	(-1.03344259359451e+002dB,1.79575539770105e+002°)
1.03038612044161e+002	(-1.03340259359827e+002dB,1.79575442024032e+002°)
1.03062340293081e+002	(-1.03336259360203e+002dB,1.79575344255450e+002°)
1.03086074006261e+002	(-1.03332259360579e+002dB,1.79575246464354e+002°)
1.03109813184961e+002	(-1.03328259360955e+002dB,1.79575148650739e+002°)
1.03133557830437e+002	(-1.03324259361332e+002dB,1.79575050814599e+002°)
1.03157307943950e+002	(-1.03320259361708e+002dB,1.79574952955930e+002°)
1.03181063526758e+002	(-1.03316259362085e+002dB,1.79574855074726e+002°)
1.03204824580121e+002	(-1.03312259362462e+002dB,1.79574757170981e+002°)
1.03228591105299e+002	(-1.03308259362839e+002dB,1.79574659244692e+002°)
1.03252363103551e+002	(-1.03304259363217e+002dB,1.79574561295852e+002°)
1.03276140576139e+002	(-1.03300259363594e+002dB,1.79574463324456e+002°)
1.03299923524322e+002	(-1.03296259363972e+002dB,1.79574365330500e+002°)
1.03323711949362e+002	(-1.03292259364349e+002dB,1.79574267313977e+002°)
1.03347505852520e+002	(-1.03288259364728e+002dB,1.79574169274884e+002°)
1.03371305235057e+002	(-1.03284259365106e+002dB,1.79574071213214e+002°)
1.03395110098236e+002	(-1.03280259365484e+002dB,1.79573973128962e+002°)
1.03418920443318e+002	(-1.03276259365863e+002dB,1.79573875022123e+002°)
1.03442736271566e+002	(-1.03272259366241e+002dB,1.79573776892693e+002°)
1.03466557584242e+002	(-1.03268259366620e+002dB,1.79573678740665e+002°)
1.03490384382610e+002	(-1.03264259366999e+002dB,1.79573580566035e+002°)
1.03514216667933e+002	(-1.03260259367379e+002dB,1.79573482368797e+002°)
1.03538054441474e+002	(-1.03256259367758e+002dB,1.79573384148947e+002°)
1.03561897704497e+002	(-1.03252259368138e+002dB,1.79573285906478e+002°)
1.03585746458267e+002	(-1.03248259368517e+002dB,1.79573187641387e+002°)
1.03609600704047e+002	(-1.03244259368897e+002dB,1.79573089353666e+002°)
1.03633460443103e+002	(-1.03240259369277e+002dB,1.79572991043313e+002°)
1.03657325676699e+002	(-1.03236259369658e+002dB,1.79572892710320e+002°)
1.03681196406101e+002	(-1.03232259370038e+002dB,1.79572794354683e+002°)
1.03705072632575e+002	(-1.03228259370419e+002dB,1.79572695976397e+002°)
1.03728954357386e+002	(-1.03224259370799e+002dB,1.79572597575456e+002°)
1.03752841581800e+002	(-1.03220259371180e+002dB,1.79572499151856e+002°)
1.03776734307084e+002	(-1.03216259371562e+002dB,1.79572400705591e+002°)
1.03800632534505e+002	(-1.03212259371943e+002dB,1.79572302236655e+002°)
1.03824536265330e+002	(-1.03208259372324e+002dB,1.79572203745044e+002°)
1.03848445500826e+002	(-1.03204259372706e+002dB,1.79572105230753e+002°)
1.03872360242261e+002	(-1.03200259373088e+002dB,1.79572006693775e+002°)
1.03896280490902e+002	(-1.03196259373470e+002dB,1.79571908134107e+002°)
1.03920206248019e+002	(-1.03192259373852e+002dB,1.79571809551742e+002°)
1.03944137514879e+002	(-1.03188259374235e+002dB,1.79571710946676e+002°)
1.03968074292751e+002	(-1.03184259374617e+002dB,1.79571612318904e+002°)
1.03992016582905e+002	(-1.03180259375000e+002dB,1.79571513668419e+002°)
1.04015964386609e+002	(-1.03176259375383e+002dB,1.79571414995217e+002°)
1.04039917705134e+002	(-1.03172259375766e+002dB,1.79571316299292e+002°)
1.04063876539749e+002	(-1.03168259376149e+002dB,1.79571217580640e+002°)
1.04087840891725e+002	(-1.03164259376532e+002dB,1.79571118839255e+002°)
1.04111810762332e+002	(-1.03160259376916e+002dB,1.79571020075132e+002°)
1.04135786152842e+002	(-1.03156259377300e+002dB,1.79570921288266e+002°)
1.04159767064525e+002	(-1.03152259377684e+002dB,1.79570822478651e+002°)
1.04183753498652e+002	(-1.03148259378068e+002dB,1.79570723646282e+002°)
1.04207745456496e+002	(-1.03144259378452e+002dB,1.79570624791154e+002°)
1.04231742939329e+002	(-1.03140259378837e+002dB,1.79570525913262e+002°)
1.04255745948422e+002	(-1.03136259379221e+002dB,1.79570427012600e+002°)
1.04279754485049e+002	(-1.03132259379606e+002dB,1.79570328089163e+002°)
1.04303768550482e+002	(-1.03128259379991e+002dB,1.79570229142947e+002°)
1.04327788145995e+002	(-1.03124259380376e+002dB,1.79570130173945e+002°)
1.04351813272861e+002	(-1.03120259380762e+002dB,1.79570031182152e+002°)
1.04375843932353e+002	(-1.03116259381147e+002dB,1.79569932167564e+002°)
1.04399880125747e+002	(-1.03112259381533e+002dB,1.79569833130175e+002°)
1.04423921854316e+002	(-1.03108259381919e+002dB,1.79569734069979e+002°)
1.04447969119335e+002	(-1.03104259382305e+002dB,1.79569634986972e+002°)
1.04472021922078e+002	(-1.03100259382691e+002dB,1.79569535881148e+002°)
1.04496080263822e+002	(-1.03096259383078e+002dB,1.79569436752502e+002°)
1.04520144145842e+002	(-1.03092259383464e+002dB,1.79569337601029e+002°)
1.04544213569413e+002	(-1.03088259383851e+002dB,1.79569238426723e+002°)
1.04568288535812e+002	(-1.03084259384238e+002dB,1.79569139229580e+002°)
1.04592369046315e+002	(-1.03080259384625e+002dB,1.79569040009593e+002°)
1.04616455102199e+002	(-1.03076259385012e+002dB,1.79568940766758e+002°)
1.04640546704741e+002	(-1.03072259385400e+002dB,1.79568841501070e+002°)
1.04664643855218e+002	(-1.03068259385788e+002dB,1.79568742212522e+002°)
1.04688746554908e+002	(-1.03064259386175e+002dB,1.79568642901111e+002°)
1.04712854805088e+002	(-1.03060259386564e+002dB,1.79568543566830e+002°)
1.04736968607038e+002	(-1.03056259386952e+002dB,1.79568444209674e+002°)
1.04761087962034e+002	(-1.03052259387340e+002dB,1.79568344829639e+002°)
1.04785212871357e+002	(-1.03048259387729e+002dB,1.79568245426718e+002°)
1.04809343336286e+002	(-1.03044259388117e+002dB,1.79568146000907e+002°)
1.04833479358098e+002	(-1.03040259388506e+002dB,1.79568046552201e+002°)
1.04857620938075e+002	(-1.03036259388895e+002dB,1.79567947080593e+002°)
1.04881768077497e+002	(-1.03032259389285e+002dB,1.79567847586079e+002°)
1.04905920777643e+002	(-1.03028259389674e+002dB,1.79567748068653e+002°)
1.04930079039794e+002	(-1.03024259390064e+002dB,1.79567648528311e+002°)
1.04954242865230e+002	(-1.03020259390453e+002dB,1.79567548965046e+002°)
1.04978412255234e+002	(-1.03016259390843e+002dB,1.79567449378854e+002°)
1.05002587211087e+002	(-1.03012259391234e+002dB,1.79567349769730e+002°)
1.05026767734069e+002	(-1.03008259391624e+002dB,1.79567250137667e+002°)
1.05050953825464e+002	(-1.03004259392014e+002dB,1.79567150482661e+002°)
1.05075145486553e+002	(-1.03000259392405e+002dB,1.79567050804707e+002°)
1.05099342718620e+002	(-1.02996259392796e+002dB,1.79566951103799e+002°)
1.05123545522946e+002	(-1.02992259393187e+002dB,1.79566851379932e+002°)
1.05147753900816e+002	(-1.02988259393578e+002dB,1.79566751633101e+002°)
1.05171967853513e+002	(-1.02984259393970e+002dB,1.79566651863300e+002°)
1.05196187382320e+002	(-1.02980259394361e+002dB,1.79566552070524e+002°)
1.05220412488522e+002	(-1.02976259394753e+002dB,1.79566452254768e+002°)
1.05244643173403e+002	(-1.02972259395145e+002dB,1.79566352416026e+002°)
1.05268879438248e+002	(-1.02968259395537e+002dB,1.79566252554293e+002°)
1.05293121284342e+002	(-1.02964259395929e+002dB,1.79566152669565e+002°)
1.05317368712970e+002	(-1.02960259396322e+002dB,1.79566052761835e+002°)
1.05341621725417e+002	(-1.02956259396715e+002dB,1.79565952831098e+002°)
1.05365880322970e+002	(-1.02952259397107e+002dB,1.79565852877349e+002°)
1.05390144506914e+002	(-1.02948259397500e+002dB,1.79565752900583e+002°)
1.05414414278537e+002	(-1.02944259397894e+002dB,1.79565652900795e+002°)
1.05438689639124e+002	(-1.02940259398287e+002dB,1.79565552877978e+002°)
1.05462970589963e+002	(-1.02936259398681e+002dB,1.79565452832129e+002°)
1.05487257132342e+002	(-1.02932259399074e+002dB,1.79565352763240e+002°)
1.05511549267547e+002	(-1.02928259399468e+002dB,1.79565252671308e+002°)
1.05535846996867e+002	(-1.02924259399862e+002dB,1.79565152556327e+002°)
1.05560150321591e+002	(-1.02920259400257e+002dB,1.79565052418292e+002°)
1.05584459243006e+002	(-1.02916259400651e+002dB,1.79564952257197e+002°)
1.05608773762401e+002	(-1.02912259401046e+002dB,1.79564852073036e+002°)
1.05633093881067e+002	(-1.02908259401441e+002dB,1.79564751865806e+002°)
1.05657419600291e+002	(-1.02904259401836e+002dB,1.79564651635500e+002°)
1.05681750921364e+002	(-1.02900259402231e+002dB,1.79564551382112e+002°)
1.05706087845575e+002	(-1.02896259402626e+002dB,1.79564451105639e+002°)
1.05730430374216e+002	(-1.02892259403022e+002dB,1.79564350806074e+002°)
1.05754778508577e+002	(-1.02888259403418e+002dB,1.79564250483412e+002°)
1.05779132249948e+002	(-1.02884259403813e+002dB,1.79564150137647e+002°)
1.05803491599621e+002	(-1.02880259404210e+002dB,1.79564049768776e+002°)
1.05827856558887e+002	(-1.02876259404606e+002dB,1.79563949376791e+002°)
1.05852227129039e+002	(-1.02872259405002e+002dB,1.79563848961688e+002°)
1.05876603311368e+002	(-1.02868259405399e+002dB,1.79563748523462e+002°)
1.05900985107166e+002	(-1.02864259405796e+002dB,1.79563648062106e+002°)
1.05925372517727e+002	(-1.02860259406193e+002dB,1.79563547577617e+002°)
1.05949765544343e+002	(-1.02856259406590e+002dB,1.79563447069988e+002°)
1.05974164188308e+002	(-1.02852259406987e+002dB,1.79563346539214e+002°)
1.05998568450915e+002	(-1.02848259407385e+002dB,1.79563245985290e+002°)
1.06022978333458e+002	(-1.02844259407783e+002dB,1.79563145408211e+002°)
1.06047393837231e+002	(-1.02840259408181e+002dB,1.79563044807970e+002°)
1.06071814963529e+002	(-1.02836259408579e+002dB,1.79562944184564e+002°)
1.06096241713647e+002	(-1.02832259408977e+002dB,1.79562843537986e+002°)
1.06120674088879e+002	(-1.02828259409375e+002dB,1.79562742868231e+002°)
1.06145112090522e+002	(-1.02824259409774e+002dB,1.79562642175294e+002°)
1.06169555719870e+002	(-1.02820259410173e+002dB,1.79562541459170e+002°)
1.06194004978220e+002	(-1.02816259410572e+002dB,1.79562440719853e+002°)
1.06218459866868e+002	(-1.02812259410971e+002dB,1.79562339957337e+002°)
1.06242920387110e+002	(-1.02808259411370e+002dB,1.79562239171618e+002°)
1.06267386540244e+002	(-1.02804259411770e+002dB,1.79562138362690e+002°)
1.06291858327567e+002	(-1.02800259412170e+002dB,1.79562037530548e+002°)
1.06316335750375e+002	(-1.02796259412570e+002dB,1.79561936675187e+002°)
1.06340818809967e+002	(-1.02792259412970e+002dB,1.79561835796600e+002°)
1.06365307507641e+002	(-1.02788259413370e+002dB,1.79561734894784e+002°)
1.06389801844696e+002	(-1.02784259413771e+002dB,1.79561633969731e+002°)
1.06414301822429e+002	(-1.02780259414171e+002dB,1.79561533021438e+002°)
1.06438807442140e+002	(-1.02776259414572e+002dB,1.79561432049898e+002°)
1.06463318705129e+002	(-1.02772259414973e+002dB,1.79561331055107e+002°)
1.06487835612694e+002	(-1.02768259415374e+002dB,1.79561230037059e+002°)
1.06512358166136e+002	(-1.02764259415776e+002dB,1.79561128995748e+002°)
1.06536886366754e+002	(-1.02760259416177e+002dB,1.79561027931170e+002°)
1.06561420215849e+002	(-1.02756259416579e+002dB,1.79560926843319e+002°)
