Freq.	V(vin)/I(V3)
1.00000000000000e+001	(1.24951552491528e+002dB,-8.99893060474407e+001°)
1.02329299228075e+001	(1.24751552493765e+002dB,-8.99890569532755e+001°)
1.04712854805090e+001	(1.24551552496108e+002dB,-8.99888020569606e+001°)
1.07151930523761e+001	(1.24351552498561e+002dB,-8.99885412233603e+001°)
1.09647819614319e+001	(1.24151552501130e+002dB,-8.99882743141745e+001°)
1.12201845430196e+001	(1.23951552503820e+002dB,-8.99880011878893e+001°)
1.14815362149688e+001	(1.23751552506637e+002dB,-8.99877216995966e+001°)
1.17489755493953e+001	(1.23551552509587e+002dB,-8.99874357012288e+001°)
1.20226443461741e+001	(1.23351552512675e+002dB,-8.99871430411628e+001°)
1.23026877081238e+001	(1.23151552515910e+002dB,-8.99868435641520e+001°)
1.25892541179417e+001	(1.22951552519296e+002dB,-8.99865371112970e+001°)
1.28824955169313e+001	(1.22751552522842e+002dB,-8.99862235203961e+001°)
1.31825673855641e+001	(1.22551552526556e+002dB,-8.99859026249512e+001°)
1.34896288259165e+001	(1.22351552530444e+002dB,-8.99855742548790e+001°)
1.38038426460288e+001	(1.22151552534516e+002dB,-8.99852382361226e+001°)
1.41253754462275e+001	(1.21951552538779e+002dB,-8.99848943904885e+001°)
1.44543977074593e+001	(1.21751552543243e+002dB,-8.99845425356188e+001°)
1.47910838816821e+001	(1.21551552547918e+002dB,-8.99841824850247e+001°)
1.51356124843621e+001	(1.21351552552813e+002dB,-8.99838140477999e+001°)
1.54881661891248e+001	(1.21151552557939e+002dB,-8.99834370285500e+001°)
1.58489319246111e+001	(1.20951552563307e+002dB,-8.99830512273743e+001°)
1.62181009735893e+001	(1.20751552568927e+002dB,-8.99826564397337e+001°)
1.65958690743756e+001	(1.20551552574812e+002dB,-8.99822524563083e+001°)
1.69824365246174e+001	(1.20351552580975e+002dB,-8.99818390629041e+001°)
1.73780082874937e+001	(1.20151552587428e+002dB,-8.99814160403329e+001°)
1.77827941003892e+001	(1.19951552594185e+002dB,-8.99809831642994e+001°)
1.81970085860998e+001	(1.19751552601260e+002dB,-8.99805402053028e+001°)
1.86208713666287e+001	(1.19551552608669e+002dB,-8.99800869284383e+001°)
1.90546071796325e+001	(1.19351552616428e+002dB,-8.99796230934219e+001°)
1.94984459975804e+001	(1.19151552624551e+002dB,-8.99791484542921e+001°)
1.99526231496888e+001	(1.18951552633058e+002dB,-8.99786627594193e+001°)
2.04173794466953e+001	(1.18751552641966e+002dB,-8.99781657512439e+001°)
2.08929613085404e+001	(1.18551552651293e+002dB,-8.99776571662358e+001°)
2.13796208950223e+001	(1.18351552661060e+002dB,-8.99771367347813e+001°)
2.18776162394955e+001	(1.18151552671288e+002dB,-8.99766041809362e+001°)
2.23872113856834e+001	(1.17951552681997e+002dB,-8.99760592222897e+001°)
2.29086765276777e+001	(1.17751552693211e+002dB,-8.99755015699511e+001°)
2.34422881531992e+001	(1.17551552704953e+002dB,-8.99749309281797e+001°)
2.39883291901949e+001	(1.17351552717249e+002dB,-8.99743469944911e+001°)
2.45470891568503e+001	(1.17151552730125e+002dB,-8.99737494592446e+001°)
2.51188643150958e+001	(1.16951552743607e+002dB,-8.99731380055892e+001°)
2.57039578276886e+001	(1.16751552757725e+002dB,-8.99725123093630e+001°)
2.63026799189538e+001	(1.16551552772508e+002dB,-8.99718720387955e+001°)
2.69153480392691e+001	(1.16351552787987e+002dB,-8.99712168543812e+001°)
2.75422870333816e+001	(1.16151552804197e+002dB,-8.99705464088106e+001°)
2.81838293126445e+001	(1.15951552821170e+002dB,-8.99698603465412e+001°)
2.88403150312660e+001	(1.15751552838943e+002dB,-8.99691583038203e+001°)
2.95120922666638e+001	(1.15551552857553e+002dB,-8.99684399084018e+001°)
3.01995172040201e+001	(1.15351552877041e+002dB,-8.99677047794373e+001°)
3.09029543251359e+001	(1.15151552897447e+002dB,-8.99669525271131e+001°)
3.16227766016838e+001	(1.14951552918815e+002dB,-8.99661827525716e+001°)
3.23593656929628e+001	(1.14751552941190e+002dB,-8.99653950476907e+001°)
3.31131121482591e+001	(1.14551552964620e+002dB,-8.99645889947827e+001°)
3.38844156139202e+001	(1.14351552989153e+002dB,-8.99637641665097e+001°)
3.46736850452531e+001	(1.14151553014843e+002dB,-8.99629201255133e+001°)
3.54813389233575e+001	(1.13951553041744e+002dB,-8.99620564242747e+001°)
3.63078054770101e+001	(1.13751553069912e+002dB,-8.99611726048562e+001°)
3.71535229097172e+001	(1.13551553099408e+002dB,-8.99602681986393e+001°)
3.80189396320561e+001	(1.13351553130294e+002dB,-8.99593427260853e+001°)
3.89045144994280e+001	(1.13151553162636e+002dB,-8.99583956965073e+001°)
3.98107170553497e+001	(1.12951553196502e+002dB,-8.99574266077671e+001°)
4.07380277804112e+001	(1.12751553231963e+002dB,-8.99564349460755e+001°)
4.16869383470335e+001	(1.12551553269097e+002dB,-8.99554201855885e+001°)
4.26579518801592e+001	(1.12351553307980e+002dB,-8.99543817883021e+001°)
4.36515832240165e+001	(1.12151553348696e+002dB,-8.99533192036301e+001°)
4.46683592150962e+001	(1.11951553391330e+002dB,-8.99522318681947e+001°)
4.57088189614874e+001	(1.11751553435974e+002dB,-8.99511192054572e+001°)
4.67735141287197e+001	(1.11551553482722e+002dB,-8.99499806254659e+001°)
4.78630092322638e+001	(1.11351553531673e+002dB,-8.99488155245478e+001°)
4.89778819368445e+001	(1.11151553582931e+002dB,-8.99476232849337e+001°)
5.01187233627271e+001	(1.10951553636605e+002dB,-8.99464032745044e+001°)
5.12861383991364e+001	(1.10751553692808e+002dB,-8.99451548463502e+001°)
5.24807460249772e+001	(1.10551553751660e+002dB,-8.99438773385930e+001°)
5.37031796370252e+001	(1.10351553813286e+002dB,-8.99425700738548e+001°)
5.49540873857624e+001	(1.10151553877816e+002dB,-8.99412323589980e+001°)
5.62341325190348e+001	(1.09951553945387e+002dB,-8.99398634847583e+001°)
5.75439937337156e+001	(1.09751554016143e+002dB,-8.99384627253380e+001°)
5.88843655355588e+001	(1.09551554090233e+002dB,-8.99370293380408e+001°)
6.02559586074357e+001	(1.09351554167816e+002dB,-8.99355625628687e+001°)
6.16595001861481e+001	(1.09151554249054e+002dB,-8.99340616221033e+001°)
6.30957344480192e+001	(1.08951554334121e+002dB,-8.99325257199324e+001°)
6.45654229034654e+001	(1.08751554423198e+002dB,-8.99309540420028e+001°)
6.60693448007595e+001	(1.08551554516472e+002dB,-8.99293457549883e+001°)
6.76082975391980e+001	(1.08351554614142e+002dB,-8.99277000061574e+001°)
6.91830970918935e+001	(1.08151554716415e+002dB,-8.99260159228964e+001°)
7.07945784384136e+001	(1.07951554823509e+002dB,-8.99242926123085e+001°)
7.24435960074988e+001	(1.07751554935649e+002dB,-8.99225291606551e+001°)
7.41310241300916e+001	(1.07551555053075e+002dB,-8.99207246329231e+001°)
7.58577575029182e+001	(1.07351555176034e+002dB,-8.99188780723299e+001°)
7.76247116628690e+001	(1.07151555304789e+002dB,-8.99169884998217e+001°)
7.94328234724279e+001	(1.06951555439611e+002dB,-8.99150549135021e+001°)
8.12830516164097e+001	(1.06751555580788e+002dB,-8.99130762881779e+001°)
8.31763771102669e+001	(1.06551555728617e+002dB,-8.99110515747390e+001°)
8.51138038202374e+001	(1.06351555883414e+002dB,-8.99089796996474e+001°)
8.70963589956078e+001	(1.06151556045507e+002dB,-8.99068595643893e+001°)
8.91250938133743e+001	(1.05951556215238e+002dB,-8.99046900448258e+001°)
9.12010839355907e+001	(1.05751556392969e+002dB,-8.99024699906501e+001°)
9.33254300796988e+001	(1.05551556579076e+002dB,-8.99001982247646e+001°)
9.54992586021433e+001	(1.05351556773953e+002dB,-8.98978735426375e+001°)
9.77237220955808e+001	(1.05151556978016e+002dB,-8.98954947117029e+001°)
9.99999999999997e+001	(1.04951557191695e+002dB,-8.98930604706667e+001°)
1.02329299228075e+002	(1.04751557415445e+002dB,-8.98905695288584e+001°)
1.04712854805090e+002	(1.04551557649739e+002dB,-8.98880205655503e+001°)
1.07151930523760e+002	(1.04351557895076e+002dB,-8.98854122292458e+001°)
1.09647819614318e+002	(1.04151558151975e+002dB,-8.98827431369729e+001°)
1.12201845430196e+002	(1.03951558420982e+002dB,-8.98800118735354e+001°)
1.14815362149688e+002	(1.03751558702666e+002dB,-8.98772169907813e+001°)
1.17489755493953e+002	(1.03551558997626e+002dB,-8.98743570068310e+001°)
1.20226443461741e+002	(1.03351559306487e+002dB,-8.98714304052806e+001°)
1.23026877081238e+002	(1.03151559629904e+002dB,-8.98684356343975e+001°)
1.25892541179416e+002	(1.02951559968563e+002dB,-8.98653711063118e+001°)
1.28824955169313e+002	(1.02751560323183e+002dB,-8.98622351961836e+001°)
1.31825673855640e+002	(1.02551560694515e+002dB,-8.98590262412968e+001°)
1.34896288259165e+002	(1.02351561083348e+002dB,-8.98557425402209e+001°)
1.38038426460288e+002	(1.02151561490506e+002dB,-8.98523823518901e+001°)
1.41253754462275e+002	(1.01951561916853e+002dB,-8.98489438946911e+001°)
1.44543977074592e+002	(1.01751562363293e+002dB,-8.98454253455050e+001°)
1.47910838816820e+002	(1.01551562830773e+002dB,-8.98418248387364e+001°)
1.51356124843620e+002	(1.01351563320285e+002dB,-8.98381404653625e+001°)
1.54881661891248e+002	(1.01151563832867e+002dB,-8.98343702718634e+001°)
1.58489319246111e+002	(1.00951564369607e+002dB,-8.98305122592313e+001°)
1.62181009735892e+002	(1.00751564931642e+002dB,-8.98265643818952e+001°)
1.65958690743755e+002	(1.00551565520165e+002dB,-8.98225245466308e+001°)
1.69824365246174e+002	(1.00351566136425e+002dB,-8.98183906114627e+001°)
1.73780082874937e+002	(1.00151566781728e+002dB,-8.98141603845205e+001°)
1.77827941003892e+002	(9.99515674574435e+001dB,-8.98098316228707e+001°)
1.81970085860998e+002	(9.97515681650047e+001dB,-8.98054020313418e+001°)
1.86208713666286e+002	(9.95515689059124e+001dB,-8.98008692613009e+001°)
1.90546071796324e+002	(9.93515696817381e+001dB,-8.97962309094079e+001°)
1.94984459975804e+002	(9.91515704941276e+001dB,-8.97914845163389e+001°)
1.99526231496887e+002	(9.89515713448041e+001dB,-8.97866275654890e+001°)
2.04173794466952e+002	(9.87515722355720e+001dB,-8.97816574816223e+001°)
2.08929613085403e+002	(9.85515731683207e+001dB,-8.97765716295327e+001°)
2.13796208950222e+002	(9.83515741450288e+001dB,-8.97713673126229e+001°)
2.18776162394954e+002	(9.81515751677681e+001dB,-8.97660417714837e+001°)
2.23872113856833e+002	(9.79515762387080e+001dB,-8.97605921824359e+001°)
2.29086765276776e+002	(9.77515773601201e+001dB,-8.97550156560197e+001°)
2.34422881531991e+002	(9.75515785343831e+001dB,-8.97493092354745e+001°)
2.39883291901948e+002	(9.73515797639880e+001dB,-8.97434698951744e+001°)
2.45470891568502e+002	(9.71515810515428e+001dB,-8.97374945389990e+001°)
2.51188643150957e+002	(9.69515823997788e+001dB,-8.97313799987234e+001°)
2.57039578276885e+002	(9.67515838115558e+001dB,-8.97251230323253e+001°)
2.63026799189537e+002	(9.65515852898686e+001dB,-8.97187203222577e+001°)
2.69153480392690e+002	(9.63515868378528e+001dB,-8.97121684737020e+001°)
2.75422870333816e+002	(9.61515884587921e+001dB,-8.97054640127602e+001°)
2.81838293126444e+002	(9.59515901561248e+001dB,-8.96986033846133e+001°)
2.88403150312659e+002	(9.57515919334513e+001dB,-8.96915829516493e+001°)
2.95120922666637e+002	(9.55515937945417e+001dB,-8.96843989915131e+001°)
3.01995172040200e+002	(9.53515957433438e+001dB,-8.96770476951459e+001°)
3.09029543251358e+002	(9.51515977839914e+001dB,-8.96695251647668e+001°)
3.16227766016837e+002	(9.49515999208131e+001dB,-8.96618274118008e+001°)
3.23593656929627e+002	(9.47516021583418e+001dB,-8.96539503547621e+001°)
3.31131121482590e+002	(9.45516045013237e+001dB,-8.96458898170996e+001°)
3.38844156139201e+002	(9.43516069547288e+001dB,-8.96376415249702e+001°)
3.46736850452530e+002	(9.41516095237613e+001dB,-8.96292011049808e+001°)
3.54813389233574e+002	(9.39516122138709e+001dB,-8.96205640818632e+001°)
3.63078054770100e+002	(9.37516150307640e+001dB,-8.96117258761104e+001°)
3.71535229097171e+002	(9.35516179804158e+001dB,-8.96026818015390e+001°)
3.80189396320559e+002	(9.33516210690835e+001dB,-8.95934270628067e+001°)
3.89045144994279e+002	(9.31516243033188e+001dB,-8.95839567528743e+001°)
3.98107170553495e+002	(9.29516276899826e+001dB,-8.95742658503953e+001°)
4.07380277804111e+002	(9.27516312362588e+001dB,-8.95643492170607e+001°)
4.16869383470333e+002	(9.25516349496702e+001dB,-8.95542015948722e+001°)
4.26579518801591e+002	(9.23516388380940e+001dB,-8.95438176033472e+001°)
4.36515832240164e+002	(9.21516429097788e+001dB,-8.95331917366804e+001°)
4.46683592150961e+002	(9.19516471733618e+001dB,-8.95223183608082e+001°)
4.57088189614873e+002	(9.17516516378876e+001dB,-8.95111917104320e+001°)
4.67735141287196e+002	(9.15516563128268e+001dB,-8.94998058859577e+001°)
4.78630092322636e+002	(9.13516612080967e+001dB,-8.94881548503623e+001°)
4.89778819368444e+002	(9.11516663340817e+001dB,-8.94762324260004e+001°)
5.01187233627270e+002	(9.09516717016560e+001dB,-8.94640322913245e+001°)
5.12861383991362e+002	(9.07516773222061e+001dB,-8.94515479775317e+001°)
5.24807460249770e+002	(9.05516832076554e+001dB,-8.94387728651345e+001°)
5.37031796370250e+002	(9.03516893704893e+001dB,-8.94257001804515e+001°)
5.49540873857622e+002	(9.01516958237817e+001dB,-8.94123229920101e+001°)
5.62341325190346e+002	(8.99517025812226e+001dB,-8.93986342068796e+001°)
5.75439937337154e+002	(8.97517096571477e+001dB,-8.93846265668999e+001°)
5.88843655355586e+002	(8.95517170665679e+001dB,-8.93702926448409e+001°)
6.02559586074355e+002	(8.93517248252022e+001dB,-8.93556248404551e+001°)
6.16595001861479e+002	(8.91517329495104e+001dB,-8.93406153764554e+001°)
6.30957344480190e+002	(8.89517414567280e+001dB,-8.93252562943812e+001°)
6.45654229034652e+002	(8.87517503649033e+001dB,-8.93095394503881e+001°)
6.60693448007592e+002	(8.85517596929352e+001dB,-8.92934565109178e+001°)
6.76082975391978e+002	(8.83517694606135e+001dB,-8.92769989482896e+001°)
6.91830970918933e+002	(8.81517796886611e+001dB,-8.92601580361647e+001°)
7.07945784384134e+002	(8.79517903987776e+001dB,-8.92429248449288e+001°)
7.24435960074986e+002	(8.77518016136858e+001dB,-8.92252902369514e+001°)
7.41310241300914e+002	(8.75518133571794e+001dB,-8.92072448617371e+001°)
7.58577575029180e+002	(8.73518256541741e+001dB,-8.91887791509730e+001°)
7.76247116628688e+002	(8.71518385307602e+001dB,-8.91698833134445e+001°)
7.94328234724277e+002	(8.69518520142580e+001dB,-8.91505473298470e+001°)
8.12830516164095e+002	(8.67518661332759e+001dB,-8.91307609474705e+001°)
8.31763771102666e+002	(8.65518809177710e+001dB,-8.91105136747616e+001°)
8.51138038202372e+002	(8.63518963991129e+001dB,-8.90897947757575e+001°)
8.70963589956076e+002	(8.61519126101501e+001dB,-8.90685932643886e+001°)
8.91250938133741e+002	(8.59519295852802e+001dB,-8.90468978986549e+001°)
9.12010839355905e+002	(8.57519473605223e+001dB,-8.90246971746585e+001°)
9.33254300796986e+002	(8.55519659735942e+001dB,-8.90019793205024e+001°)
9.54992586021431e+002	(8.53519854639920e+001dB,-8.89787322900458e+001°)
9.77237220955805e+002	(8.51520058730743e+001dB,-8.89549437565098e+001°)
9.99999999999994e+002	(8.49520272441498e+001dB,-8.89306011059413e+001°)
1.02329299228075e+003	(8.47520496225698e+001dB,-8.89056914305181e+001°)
1.04712854805089e+003	(8.45520730558240e+001dB,-8.88802015217018e+001°)
1.07151930523760e+003	(8.43520975936418e+001dB,-8.88541178632245e+001°)
1.09647819614318e+003	(8.41521232880978e+001dB,-8.88274266239275e+001°)
1.12201845430196e+003	(8.39521501937227e+001dB,-8.88001136504073e+001°)
1.14815362149688e+003	(8.37521783676188e+001dB,-8.87721644595154e+001°)
1.17489755493952e+003	(8.35522078695820e+001dB,-8.87435642306714e+001°)
1.20226443461741e+003	(8.33522387622284e+001dB,-8.87142977979916e+001°)
1.23026877081237e+003	(8.31522711111275e+001dB,-8.86843496422466e+001°)
1.25892541179416e+003	(8.29523049849422e+001dB,-8.86537038826211e+001°)
1.28824955169313e+003	(8.27523404555740e+001dB,-8.86223442682837e+001°)
1.31825673855640e+003	(8.25523775983165e+001dB,-8.85902541697637e+001°)
1.34896288259165e+003	(8.23524164920155e+001dB,-8.85574165701232e+001°)
1.38038426460288e+003	(8.21524572192367e+001dB,-8.85238140559208e+001°)
1.41253754462275e+003	(8.19524998664413e+001dB,-8.84894288079697e+001°)
1.44543977074592e+003	(8.17525445241701e+001dB,-8.84542425918767e+001°)
1.47910838816820e+003	(8.15525912872364e+001dB,-8.84182367483589e+001°)
1.51356124843620e+003	(8.13526402549277e+001dB,-8.83813921833363e+001°)
1.54881661891247e+003	(8.11526915312168e+001dB,-8.83436893577947e+001°)
1.58489319246110e+003	(8.09527452249840e+001dB,-8.83051082774076e+001°)
1.62181009735892e+003	(8.07528014502484e+001dB,-8.82656284819156e+001°)
1.65958690743755e+003	(8.05528603264110e+001dB,-8.82252290342609e+001°)
1.69824365246173e+003	(8.03529219785092e+001dB,-8.81838885094670e+001°)
1.73780082874936e+003	(8.01529865374833e+001dB,-8.81415849832546e+001°)
1.77827941003891e+003	(7.99530541404558e+001dB,-8.80982960203954e+001°)
1.81970085860997e+003	(7.97531249310235e+001dB,-8.80539986627910e+001°)
1.86208713666286e+003	(7.95531990595640e+001dB,-8.80086694172745e+001°)
1.90546071796323e+003	(7.93532766835566e+001dB,-8.79622842431250e+001°)
1.94984459975803e+003	(7.91533579679183e+001dB,-8.79148185392897e+001°)
1.99526231496887e+003	(7.89534430853558e+001dB,-8.78662471313102e+001°)
2.04173794466952e+003	(7.87535322167345e+001dB,-8.78165442579366e+001°)
2.08929613085403e+003	(7.85536255514647e+001dB,-8.77656835574338e+001°)
2.13796208950222e+003	(7.83537232879063e+001dB,-8.77136380535631e+001°)
2.18776162394954e+003	(7.81538256337929e+001dB,-8.76603801412374e+001°)
2.23872113856832e+003	(7.79539328066759e+001dB,-8.76058815718378e+001°)
2.29086765276776e+003	(7.77540450343901e+001dB,-8.75501134381896e+001°)
2.34422881531991e+003	(7.75541625555410e+001dB,-8.74930461591816e+001°)
2.39883291901947e+003	(7.73542856200155e+001dB,-8.74346494640269e+001°)
2.45470891568501e+003	(7.71544144895177e+001dB,-8.73748923761542e+001°)
2.51188643150956e+003	(7.69545494381289e+001dB,-8.73137431967202e+001°)
2.57039578276885e+003	(7.67546907528955e+001dB,-8.72511694877347e+001°)
2.63026799189536e+003	(7.65548387344450e+001dB,-8.71871380547904e+001°)
2.69153480392690e+003	(7.63549936976304e+001dB,-8.71216149293856e+001°)
2.75422870333815e+003	(7.61551559722067e+001dB,-8.70545653508311e+001°)
2.81838293126443e+003	(7.59553259035391e+001dB,-8.69859537477327e+001°)
2.88403150312659e+003	(7.57555038533453e+001dB,-8.69157437190380e+001°)
2.95120922666636e+003	(7.55556902004737e+001dB,-8.68438980146359e+001°)
3.01995172040199e+003	(7.53558853417186e+001dB,-8.67703785155002e+001°)
3.09029543251357e+003	(7.51560896926747e+001dB,-8.66951462133655e+001°)
3.16227766016836e+003	(7.49563036886329e+001dB,-8.66181611899239e+001°)
3.23593656929626e+003	(7.47565277855190e+001dB,-8.65393825955323e+001°)
3.31131121482589e+003	(7.45567624608775e+001dB,-8.64587686274157e+001°)
3.38844156139200e+003	(7.43570082149038e+001dB,-8.63762765073578e+001°)
3.46736850452529e+003	(7.41572655715248e+001dB,-8.62918624588656e+001°)
3.54813389233573e+003	(7.39575350795330e+001dB,-8.62054816837926e+001°)
3.63078054770099e+003	(7.37578173137748e+001dB,-8.61170883384124e+001°)
3.71535229097170e+003	(7.35581128763967e+001dB,-8.60266355089246e+001°)
3.80189396320558e+003	(7.33584223981522e+001dB,-8.59340751863844e+001°)
3.89045144994278e+003	(7.31587465397712e+001dB,-8.58393582410366e+001°)
3.98107170553494e+003	(7.29590859933975e+001dB,-8.57424343960441e+001°)
4.07380277804110e+003	(7.27594414840948e+001dB,-8.56432522005943e+001°)
4.16869383470332e+003	(7.25598137714278e+001dB,-8.55417590023694e+001°)
4.26579518801589e+003	(7.23602036511189e+001dB,-8.54379009193631e+001°)
4.36515832240162e+003	(7.21606119567874e+001dB,-8.53316228110315e+001°)
4.46683592150960e+003	(7.19610395617729e+001dB,-8.52228682487598e+001°)
4.57088189614871e+003	(7.17614873810490e+001dB,-8.51115794856282e+001°)
4.67735141287194e+003	(7.15619563732307e+001dB,-8.49976974254633e+001°)
4.78630092322634e+003	(7.13624475426807e+001dB,-8.48811615911528e+001°)
4.89778819368442e+003	(7.11629619417201e+001dB,-8.47619100922115e+001°)
5.01187233627268e+003	(7.09635006729477e+001dB,-8.46398795915767e+001°)
5.12861383991361e+003	(7.07640648916753e+001dB,-8.45150052716176e+001°)
5.24807460249768e+003	(7.05646558084829e+001dB,-8.43872207993371e+001°)
5.37031796370248e+003	(7.03652746919018e+001dB,-8.42564582907509e+001°)
5.49540873857620e+003	(7.01659228712311e+001dB,-8.41226482744208e+001°)
5.62341325190344e+003	(6.99666017394955e+001dB,-8.39857196541252e+001°)
5.75439937337152e+003	(6.97673127565507e+001dB,-8.38455996706471e+001°)
