Freq.	V(n006)
1.00000000000000e+002	(-1.02714452471280e+002dB,1.79560780202595e+002°)
1.00023028502082e+002	(-1.02710452471825e+002dB,1.79560679057704e+002°)
1.00046062307284e+002	(-1.02706452472372e+002dB,1.79560577889521e+002°)
1.00069101416826e+002	(-1.02702452472918e+002dB,1.79560476698042e+002°)
1.00092145831930e+002	(-1.02698452473465e+002dB,1.79560375483260e+002°)
1.00115195553817e+002	(-1.02694452474012e+002dB,1.79560274245170e+002°)
1.00138250583710e+002	(-1.02690452474559e+002dB,1.79560172983768e+002°)
1.00161310922831e+002	(-1.02686452475107e+002dB,1.79560071699047e+002°)
1.00184376572403e+002	(-1.02682452475654e+002dB,1.79559970391002e+002°)
1.00207447533648e+002	(-1.02678452476202e+002dB,1.79559869059628e+002°)
1.00230523807790e+002	(-1.02674452476750e+002dB,1.79559767704920e+002°)
1.00253605396052e+002	(-1.02670452477299e+002dB,1.79559666326871e+002°)
1.00276692299659e+002	(-1.02666452477848e+002dB,1.79559564925478e+002°)
1.00299784519833e+002	(-1.02662452478397e+002dB,1.79559463500734e+002°)
1.00322882057800e+002	(-1.02658452478946e+002dB,1.79559362052634e+002°)
1.00345984914784e+002	(-1.02654452479495e+002dB,1.79559260581172e+002°)
1.00369093092010e+002	(-1.02650452480045e+002dB,1.79559159086344e+002°)
1.00392206590702e+002	(-1.02646452480595e+002dB,1.79559057568143e+002°)
1.00415325412088e+002	(-1.02642452481145e+002dB,1.79558956026565e+002°)
1.00438449557391e+002	(-1.02638452481696e+002dB,1.79558854461604e+002°)
1.00461579027839e+002	(-1.02634452482247e+002dB,1.79558752873255e+002°)
1.00484713824658e+002	(-1.02630452482797e+002dB,1.79558651261512e+002°)
1.00507853949074e+002	(-1.02626452483349e+002dB,1.79558549626370e+002°)
1.00530999402313e+002	(-1.02622452483900e+002dB,1.79558447967824e+002°)
1.00554150185604e+002	(-1.02618452484452e+002dB,1.79558346285868e+002°)
1.00577306300174e+002	(-1.02614452485004e+002dB,1.79558244580496e+002°)
1.00600467747249e+002	(-1.02610452485556e+002dB,1.79558142851704e+002°)
1.00623634528060e+002	(-1.02606452486109e+002dB,1.79558041099486e+002°)
1.00646806643832e+002	(-1.02602452486662e+002dB,1.79557939323837e+002°)
1.00669984095796e+002	(-1.02598452487215e+002dB,1.79557837524750e+002°)
1.00693166885180e+002	(-1.02594452487768e+002dB,1.79557735702222e+002°)
1.00716355013213e+002	(-1.02590452488321e+002dB,1.79557633856246e+002°)
1.00739548481125e+002	(-1.02586452488875e+002dB,1.79557531986816e+002°)
1.00762747290145e+002	(-1.02582452489429e+002dB,1.79557430093929e+002°)
1.00785951441503e+002	(-1.02578452489984e+002dB,1.79557328177578e+002°)
1.00809160936429e+002	(-1.02574452490538e+002dB,1.79557226237757e+002°)
1.00832375776155e+002	(-1.02570452491093e+002dB,1.79557124274462e+002°)
1.00855595961910e+002	(-1.02566452491648e+002dB,1.79557022287687e+002°)
1.00878821494927e+002	(-1.02562452492203e+002dB,1.79556920277426e+002°)
1.00902052376435e+002	(-1.02558452492759e+002dB,1.79556818243674e+002°)
1.00925288607668e+002	(-1.02554452493315e+002dB,1.79556716186427e+002°)
1.00948530189857e+002	(-1.02550452493871e+002dB,1.79556614105677e+002°)
1.00971777124234e+002	(-1.02546452494427e+002dB,1.79556512001421e+002°)
1.00995029412032e+002	(-1.02542452494984e+002dB,1.79556409873652e+002°)
1.01018287054483e+002	(-1.02538452495540e+002dB,1.79556307722365e+002°)
1.01041550052821e+002	(-1.02534452496098e+002dB,1.79556205547555e+002°)
1.01064818408279e+002	(-1.02530452496655e+002dB,1.79556103349216e+002°)
1.01088092122091e+002	(-1.02526452497212e+002dB,1.79556001127343e+002°)
1.01111371195490e+002	(-1.02522452497770e+002dB,1.79555898881931e+002°)
1.01134655629712e+002	(-1.02518452498328e+002dB,1.79555796612973e+002°)
1.01157945425989e+002	(-1.02514452498887e+002dB,1.79555694320465e+002°)
1.01181240585558e+002	(-1.02510452499445e+002dB,1.79555592004402e+002°)
1.01204541109654e+002	(-1.02506452500004e+002dB,1.79555489664777e+002°)
1.01227846999511e+002	(-1.02502452500563e+002dB,1.79555387301585e+002°)
1.01251158256365e+002	(-1.02498452501123e+002dB,1.79555284914821e+002°)
1.01274474881453e+002	(-1.02494452501683e+002dB,1.79555182504480e+002°)
1.01297796876010e+002	(-1.02490452502242e+002dB,1.79555080070556e+002°)
1.01321124241273e+002	(-1.02486452502803e+002dB,1.79554977613043e+002°)
1.01344456978479e+002	(-1.02482452503363e+002dB,1.79554875131937e+002°)
1.01367795088864e+002	(-1.02478452503924e+002dB,1.79554772627231e+002°)
1.01391138573667e+002	(-1.02474452504485e+002dB,1.79554670098921e+002°)
1.01414487434125e+002	(-1.02470452505046e+002dB,1.79554567547000e+002°)
1.01437841671476e+002	(-1.02466452505607e+002dB,1.79554464971464e+002°)
1.01461201286958e+002	(-1.02462452506169e+002dB,1.79554362372307e+002°)
1.01484566281809e+002	(-1.02458452506731e+002dB,1.79554259749523e+002°)
1.01507936657269e+002	(-1.02454452507293e+002dB,1.79554157103108e+002°)
1.01531312414576e+002	(-1.02450452507856e+002dB,1.79554054433055e+002°)
1.01554693554969e+002	(-1.02446452508418e+002dB,1.79553951739360e+002°)
1.01578080079690e+002	(-1.02442452508981e+002dB,1.79553849022016e+002°)
1.01601471989976e+002	(-1.02438452509545e+002dB,1.79553746281019e+002°)
1.01624869287069e+002	(-1.02434452510108e+002dB,1.79553643516362e+002°)
1.01648271972209e+002	(-1.02430452510672e+002dB,1.79553540728041e+002°)
1.01671680046637e+002	(-1.02426452511236e+002dB,1.79553437916050e+002°)
1.01695093511594e+002	(-1.02422452511800e+002dB,1.79553335080384e+002°)
1.01718512368321e+002	(-1.02418452512365e+002dB,1.79553232221037e+002°)
1.01741936618060e+002	(-1.02414452512930e+002dB,1.79553129338003e+002°)
1.01765366262053e+002	(-1.02410452513495e+002dB,1.79553026431278e+002°)
1.01788801301542e+002	(-1.02406452514060e+002dB,1.79552923500855e+002°)
1.01812241737769e+002	(-1.02402452514626e+002dB,1.79552820546729e+002°)
1.01835687571978e+002	(-1.02398452515192e+002dB,1.79552717568896e+002°)
1.01859138805411e+002	(-1.02394452515758e+002dB,1.79552614567349e+002°)
1.01882595439312e+002	(-1.02390452516324e+002dB,1.79552511542082e+002°)
1.01906057474924e+002	(-1.02386452516891e+002dB,1.79552408493091e+002°)
1.01929524913492e+002	(-1.02382452517457e+002dB,1.79552305420371e+002°)
1.01952997756260e+002	(-1.02378452518025e+002dB,1.79552202323914e+002°)
1.01976476004471e+002	(-1.02374452518592e+002dB,1.79552099203717e+002°)
1.01999959659371e+002	(-1.02370452519160e+002dB,1.79551996059773e+002°)
1.02023448722206e+002	(-1.02366452519728e+002dB,1.79551892892077e+002°)
1.02046943194219e+002	(-1.02362452520296e+002dB,1.79551789700624e+002°)
1.02070443076658e+002	(-1.02358452520864e+002dB,1.79551686485409e+002°)
1.02093948370767e+002	(-1.02354452521433e+002dB,1.79551583246424e+002°)
1.02117459077794e+002	(-1.02350452522002e+002dB,1.79551479983667e+002°)
1.02140975198984e+002	(-1.02346452522571e+002dB,1.79551376697129e+002°)
1.02164496735585e+002	(-1.02342452523141e+002dB,1.79551273386808e+002°)
1.02188023688843e+002	(-1.02338452523710e+002dB,1.79551170052696e+002°)
1.02211556060006e+002	(-1.02334452524280e+002dB,1.79551066694788e+002°)
1.02235093850322e+002	(-1.02330452524851e+002dB,1.79550963313079e+002°)
1.02258637061039e+002	(-1.02326452525421e+002dB,1.79550859907564e+002°)
1.02282185693404e+002	(-1.02322452525992e+002dB,1.79550756478236e+002°)
1.02305739748666e+002	(-1.02318452526563e+002dB,1.79550653025091e+002°)
1.02329299228075e+002	(-1.02314452527134e+002dB,1.79550549548122e+002°)
1.02352864132878e+002	(-1.02310452527706e+002dB,1.79550446047326e+002°)
1.02376434464327e+002	(-1.02306452528278e+002dB,1.79550342522695e+002°)
1.02400010223669e+002	(-1.02302452528850e+002dB,1.79550238974224e+002°)
1.02423591412156e+002	(-1.02298452529422e+002dB,1.79550135401909e+002°)
1.02447178031037e+002	(-1.02294452529995e+002dB,1.79550031805743e+002°)
1.02470770081564e+002	(-1.02290452530568e+002dB,1.79549928185721e+002°)
1.02494367564986e+002	(-1.02286452531141e+002dB,1.79549824541837e+002°)
1.02517970482555e+002	(-1.02282452531714e+002dB,1.79549720874087e+002°)
1.02541578835522e+002	(-1.02278452532288e+002dB,1.79549617182464e+002°)
1.02565192625140e+002	(-1.02274452532862e+002dB,1.79549513466963e+002°)
1.02588811852659e+002	(-1.02270452533436e+002dB,1.79549409727578e+002°)
1.02612436519333e+002	(-1.02266452534011e+002dB,1.79549305964305e+002°)
1.02636066626414e+002	(-1.02262452534586e+002dB,1.79549202177137e+002°)
1.02659702175154e+002	(-1.02258452535160e+002dB,1.79549098366069e+002°)
1.02683343166808e+002	(-1.02254452535736e+002dB,1.79548994531095e+002°)
1.02706989602627e+002	(-1.02250452536311e+002dB,1.79548890672211e+002°)
1.02730641483867e+002	(-1.02246452536887e+002dB,1.79548786789410e+002°)
1.02754298811780e+002	(-1.02242452537463e+002dB,1.79548682882687e+002°)
1.02777961587622e+002	(-1.02238452538039e+002dB,1.79548578952036e+002°)
1.02801629812646e+002	(-1.02234452538616e+002dB,1.79548474997452e+002°)
1.02825303488109e+002	(-1.02230452539193e+002dB,1.79548371018930e+002°)
1.02848982615264e+002	(-1.02226452539770e+002dB,1.79548267016464e+002°)
1.02872667195367e+002	(-1.02222452540347e+002dB,1.79548162990048e+002°)
1.02896357229674e+002	(-1.02218452540925e+002dB,1.79548058939677e+002°)
1.02920052719442e+002	(-1.02214452541503e+002dB,1.79547954865346e+002°)
1.02943753665926e+002	(-1.02210452542081e+002dB,1.79547850767048e+002°)
1.02967460070382e+002	(-1.02206452542660e+002dB,1.79547746644779e+002°)
1.02991171934069e+002	(-1.02202452543238e+002dB,1.79547642498533e+002°)
1.03014889258242e+002	(-1.02198452543817e+002dB,1.79547538328304e+002°)
1.03038612044161e+002	(-1.02194452544396e+002dB,1.79547434134086e+002°)
1.03062340293081e+002	(-1.02190452544976e+002dB,1.79547329915875e+002°)
1.03086074006261e+002	(-1.02186452545556e+002dB,1.79547225673665e+002°)
1.03109813184961e+002	(-1.02182452546136e+002dB,1.79547121407450e+002°)
1.03133557830437e+002	(-1.02178452546716e+002dB,1.79547017117225e+002°)
1.03157307943950e+002	(-1.02174452547297e+002dB,1.79546912802984e+002°)
1.03181063526758e+002	(-1.02170452547877e+002dB,1.79546808464721e+002°)
1.03204824580121e+002	(-1.02166452548459e+002dB,1.79546704102432e+002°)
1.03228591105299e+002	(-1.02162452549040e+002dB,1.79546599716110e+002°)
1.03252363103551e+002	(-1.02158452549622e+002dB,1.79546495305750e+002°)
1.03276140576139e+002	(-1.02154452550203e+002dB,1.79546390871347e+002°)
1.03299923524322e+002	(-1.02150452550786e+002dB,1.79546286412895e+002°)
1.03323711949362e+002	(-1.02146452551368e+002dB,1.79546181930388e+002°)
1.03347505852520e+002	(-1.02142452551951e+002dB,1.79546077423821e+002°)
1.03371305235057e+002	(-1.02138452552534e+002dB,1.79545972893188e+002°)
1.03395110098236e+002	(-1.02134452553117e+002dB,1.79545868338484e+002°)
1.03418920443318e+002	(-1.02130452553700e+002dB,1.79545763759704e+002°)
1.03442736271566e+002	(-1.02126452554284e+002dB,1.79545659156841e+002°)
1.03466557584242e+002	(-1.02122452554868e+002dB,1.79545554529890e+002°)
1.03490384382610e+002	(-1.02118452555453e+002dB,1.79545449878846e+002°)
1.03514216667933e+002	(-1.02114452556037e+002dB,1.79545345203703e+002°)
1.03538054441474e+002	(-1.02110452556622e+002dB,1.79545240504455e+002°)
1.03561897704497e+002	(-1.02106452557207e+002dB,1.79545135781098e+002°)
1.03585746458267e+002	(-1.02102452557792e+002dB,1.79545031033625e+002°)
1.03609600704047e+002	(-1.02098452558378e+002dB,1.79544926262031e+002°)
1.03633460443103e+002	(-1.02094452558964e+002dB,1.79544821466310e+002°)
1.03657325676699e+002	(-1.02090452559550e+002dB,1.79544716646457e+002°)
1.03681196406101e+002	(-1.02086452560137e+002dB,1.79544611802466e+002°)
1.03705072632575e+002	(-1.02082452560723e+002dB,1.79544506934332e+002°)
1.03728954357386e+002	(-1.02078452561310e+002dB,1.79544402042049e+002°)
1.03752841581800e+002	(-1.02074452561898e+002dB,1.79544297125611e+002°)
1.03776734307084e+002	(-1.02070452562485e+002dB,1.79544192185014e+002°)
1.03800632534505e+002	(-1.02066452563073e+002dB,1.79544087220250e+002°)
1.03824536265330e+002	(-1.02062452563661e+002dB,1.79543982231316e+002°)
1.03848445500826e+002	(-1.02058452564249e+002dB,1.79543877218205e+002°)
1.03872360242261e+002	(-1.02054452564838e+002dB,1.79543772180912e+002°)
1.03896280490902e+002	(-1.02050452565427e+002dB,1.79543667119430e+002°)
1.03920206248019e+002	(-1.02046452566016e+002dB,1.79543562033756e+002°)
1.03944137514879e+002	(-1.02042452566605e+002dB,1.79543456923882e+002°)
1.03968074292751e+002	(-1.02038452567195e+002dB,1.79543351789804e+002°)
1.03992016582905e+002	(-1.02034452567785e+002dB,1.79543246631516e+002°)
1.04015964386609e+002	(-1.02030452568375e+002dB,1.79543141449011e+002°)
1.04039917705134e+002	(-1.02026452568966e+002dB,1.79543036242286e+002°)
1.04063876539749e+002	(-1.02022452569556e+002dB,1.79542931011334e+002°)
1.04087840891725e+002	(-1.02018452570147e+002dB,1.79542825756149e+002°)
1.04111810762332e+002	(-1.02014452570739e+002dB,1.79542720476726e+002°)
1.04135786152842e+002	(-1.02010452571330e+002dB,1.79542615173060e+002°)
1.04159767064525e+002	(-1.02006452571922e+002dB,1.79542509845145e+002°)
1.04183753498652e+002	(-1.02002452572514e+002dB,1.79542404492974e+002°)
1.04207745456496e+002	(-1.01998452573107e+002dB,1.79542299116544e+002°)
1.04231742939329e+002	(-1.01994452573699e+002dB,1.79542193715847e+002°)
1.04255745948422e+002	(-1.01990452574292e+002dB,1.79542088290879e+002°)
1.04279754485049e+002	(-1.01986452574886e+002dB,1.79541982841633e+002°)
1.04303768550482e+002	(-1.01982452575479e+002dB,1.79541877368105e+002°)
1.04327788145995e+002	(-1.01978452576073e+002dB,1.79541771870289e+002°)
1.04351813272861e+002	(-1.01974452576667e+002dB,1.79541666348179e+002°)
1.04375843932353e+002	(-1.01970452577261e+002dB,1.79541560801769e+002°)
1.04399880125747e+002	(-1.01966452577856e+002dB,1.79541455231054e+002°)
1.04423921854316e+002	(-1.01962452578450e+002dB,1.79541349636029e+002°)
1.04447969119335e+002	(-1.01958452579046e+002dB,1.79541244016687e+002°)
1.04472021922078e+002	(-1.01954452579641e+002dB,1.79541138373023e+002°)
1.04496080263822e+002	(-1.01950452580237e+002dB,1.79541032705032e+002°)
1.04520144145842e+002	(-1.01946452580833e+002dB,1.79540927012708e+002°)
1.04544213569413e+002	(-1.01942452581429e+002dB,1.79540821296045e+002°)
1.04568288535812e+002	(-1.01938452582025e+002dB,1.79540715555038e+002°)
1.04592369046315e+002	(-1.01934452582622e+002dB,1.79540609789681e+002°)
1.04616455102199e+002	(-1.01930452583219e+002dB,1.79540503999968e+002°)
1.04640546704741e+002	(-1.01926452583816e+002dB,1.79540398185894e+002°)
1.04664643855218e+002	(-1.01922452584414e+002dB,1.79540292347454e+002°)
1.04688746554908e+002	(-1.01918452585012e+002dB,1.79540186484641e+002°)
1.04712854805088e+002	(-1.01914452585610e+002dB,1.79540080597450e+002°)
1.04736968607038e+002	(-1.01910452586208e+002dB,1.79539974685876e+002°)
1.04761087962034e+002	(-1.01906452586807e+002dB,1.79539868749913e+002°)
1.04785212871357e+002	(-1.01902452587406e+002dB,1.79539762789554e+002°)
1.04809343336286e+002	(-1.01898452588005e+002dB,1.79539656804796e+002°)
1.04833479358098e+002	(-1.01894452588605e+002dB,1.79539550795631e+002°)
1.04857620938075e+002	(-1.01890452589204e+002dB,1.79539444762055e+002°)
1.04881768077497e+002	(-1.01886452589804e+002dB,1.79539338704061e+002°)
1.04905920777643e+002	(-1.01882452590405e+002dB,1.79539232621644e+002°)
1.04930079039794e+002	(-1.01878452591005e+002dB,1.79539126514799e+002°)
1.04954242865230e+002	(-1.01874452591606e+002dB,1.79539020383520e+002°)
1.04978412255234e+002	(-1.01870452592207e+002dB,1.79538914227801e+002°)
1.05002587211087e+002	(-1.01866452592809e+002dB,1.79538808047637e+002°)
1.05026767734069e+002	(-1.01862452593411e+002dB,1.79538701843022e+002°)
1.05050953825464e+002	(-1.01858452594013e+002dB,1.79538595613950e+002°)
1.05075145486553e+002	(-1.01854452594615e+002dB,1.79538489360415e+002°)
1.05099342718620e+002	(-1.01850452595217e+002dB,1.79538383082413e+002°)
1.05123545522946e+002	(-1.01846452595820e+002dB,1.79538276779937e+002°)
1.05147753900816e+002	(-1.01842452596423e+002dB,1.79538170452982e+002°)
1.05171967853513e+002	(-1.01838452597027e+002dB,1.79538064101543e+002°)
1.05196187382320e+002	(-1.01834452597630e+002dB,1.79537957725612e+002°)
1.05220412488522e+002	(-1.01830452598234e+002dB,1.79537851325186e+002°)
1.05244643173403e+002	(-1.01826452598838e+002dB,1.79537744900258e+002°)
1.05268879438248e+002	(-1.01822452599443e+002dB,1.79537638450822e+002°)
1.05293121284342e+002	(-1.01818452600047e+002dB,1.79537531976874e+002°)
1.05317368712970e+002	(-1.01814452600653e+002dB,1.79537425478407e+002°)
1.05341621725417e+002	(-1.01810452601258e+002dB,1.79537318955415e+002°)
1.05365880322970e+002	(-1.01806452601863e+002dB,1.79537212407894e+002°)
1.05390144506914e+002	(-1.01802452602469e+002dB,1.79537105835837e+002°)
1.05414414278537e+002	(-1.01798452603075e+002dB,1.79536999239239e+002°)
1.05438689639124e+002	(-1.01794452603682e+002dB,1.79536892618093e+002°)
1.05462970589963e+002	(-1.01790452604288e+002dB,1.79536785972396e+002°)
1.05487257132342e+002	(-1.01786452604895e+002dB,1.79536679302140e+002°)
1.05511549267547e+002	(-1.01782452605503e+002dB,1.79536572607320e+002°)
1.05535846996867e+002	(-1.01778452606110e+002dB,1.79536465887930e+002°)
1.05560150321591e+002	(-1.01774452606718e+002dB,1.79536359143966e+002°)
1.05584459243006e+002	(-1.01770452607326e+002dB,1.79536252375420e+002°)
1.05608773762401e+002	(-1.01766452607934e+002dB,1.79536145582288e+002°)
1.05633093881067e+002	(-1.01762452608543e+002dB,1.79536038764564e+002°)
1.05657419600291e+002	(-1.01758452609152e+002dB,1.79535931922242e+002°)
1.05681750921364e+002	(-1.01754452609761e+002dB,1.79535825055317e+002°)
1.05706087845575e+002	(-1.01750452610371e+002dB,1.79535718163782e+002°)
1.05730430374216e+002	(-1.01746452610980e+002dB,1.79535611247633e+002°)
1.05754778508577e+002	(-1.01742452611590e+002dB,1.79535504306863e+002°)
1.05779132249948e+002	(-1.01738452612201e+002dB,1.79535397341467e+002°)
1.05803491599621e+002	(-1.01734452612811e+002dB,1.79535290351439e+002°)
1.05827856558887e+002	(-1.01730452613422e+002dB,1.79535183336773e+002°)
1.05852227129039e+002	(-1.01726452614033e+002dB,1.79535076297465e+002°)
1.05876603311368e+002	(-1.01722452614645e+002dB,1.79534969233507e+002°)
1.05900985107166e+002	(-1.01718452615256e+002dB,1.79534862144895e+002°)
1.05925372517727e+002	(-1.01714452615868e+002dB,1.79534755031623e+002°)
1.05949765544343e+002	(-1.01710452616481e+002dB,1.79534647893685e+002°)
1.05974164188308e+002	(-1.01706452617093e+002dB,1.79534540731075e+002°)
1.05998568450915e+002	(-1.01702452617706e+002dB,1.79534433543788e+002°)
1.06022978333458e+002	(-1.01698452618319e+002dB,1.79534326331819e+002°)
1.06047393837231e+002	(-1.01694452618933e+002dB,1.79534219095160e+002°)
1.06071814963529e+002	(-1.01690452619546e+002dB,1.79534111833807e+002°)
1.06096241713647e+002	(-1.01686452620160e+002dB,1.79534004547755e+002°)
1.06120674088879e+002	(-1.01682452620774e+002dB,1.79533897236996e+002°)
1.06145112090522e+002	(-1.01678452621389e+002dB,1.79533789901527e+002°)
1.06169555719870e+002	(-1.01674452622004e+002dB,1.79533682541340e+002°)
1.06194004978220e+002	(-1.01670452622619e+002dB,1.79533575156430e+002°)
1.06218459866868e+002	(-1.01666452623234e+002dB,1.79533467746792e+002°)
1.06242920387110e+002	(-1.01662452623850e+002dB,1.79533360312420e+002°)
1.06267386540244e+002	(-1.01658452624466e+002dB,1.79533252853308e+002°)
1.06291858327567e+002	(-1.01654452625082e+002dB,1.79533145369451e+002°)
1.06316335750375e+002	(-1.01650452625699e+002dB,1.79533037860842e+002°)
1.06340818809967e+002	(-1.01646452626315e+002dB,1.79532930327477e+002°)
1.06365307507641e+002	(-1.01642452626932e+002dB,1.79532822769348e+002°)
1.06389801844696e+002	(-1.01638452627550e+002dB,1.79532715186452e+002°)
1.06414301822429e+002	(-1.01634452628167e+002dB,1.79532607578781e+002°)
1.06438807442140e+002	(-1.01630452628785e+002dB,1.79532499946331e+002°)
1.06463318705129e+002	(-1.01626452629403e+002dB,1.79532392289095e+002°)
1.06487835612694e+002	(-1.01622452630022e+002dB,1.79532284607068e+002°)
1.06512358166136e+002	(-1.01618452630641e+002dB,1.79532176900245e+002°)
1.06536886366754e+002	(-1.01614452631260e+002dB,1.79532069168618e+002°)
1.06561420215849e+002	(-1.01610452631879e+002dB,1.79531961412184e+002°)
