Freq.	V(n002)
1.00000000000000e+002	(-1.09025631076025e+002dB,1.79846211969147e+002°)
1.00023028502082e+002	(-1.09021630936201e+002dB,1.79846176552785e+002°)
1.00046062307284e+002	(-1.09017630796314e+002dB,1.79846141128266e+002°)
1.00069101416826e+002	(-1.09013630656362e+002dB,1.79846105695588e+002°)
1.00092145831930e+002	(-1.09009630516345e+002dB,1.79846070254750e+002°)
1.00115195553817e+002	(-1.09005630376264e+002dB,1.79846034805749e+002°)
1.00138250583710e+002	(-1.09001630236119e+002dB,1.79845999348584e+002°)
1.00161310922831e+002	(-1.08997630095909e+002dB,1.79845963883253e+002°)
1.00184376572403e+002	(-1.08993629955634e+002dB,1.79845928409754e+002°)
1.00207447533648e+002	(-1.08989629815295e+002dB,1.79845892928085e+002°)
1.00230523807790e+002	(-1.08985629674891e+002dB,1.79845857438244e+002°)
1.00253605396052e+002	(-1.08981629534422e+002dB,1.79845821940230e+002°)
1.00276692299659e+002	(-1.08977629393889e+002dB,1.79845786434040e+002°)
1.00299784519833e+002	(-1.08973629253291e+002dB,1.79845750919673e+002°)
1.00322882057800e+002	(-1.08969629112628e+002dB,1.79845715397126e+002°)
1.00345984914784e+002	(-1.08965628971901e+002dB,1.79845679866398e+002°)
1.00369093092010e+002	(-1.08961628831108e+002dB,1.79845644327487e+002°)
1.00392206590702e+002	(-1.08957628690251e+002dB,1.79845608780391e+002°)
1.00415325412088e+002	(-1.08953628549329e+002dB,1.79845573225108e+002°)
1.00438449557391e+002	(-1.08949628408342e+002dB,1.79845537661637e+002°)
1.00461579027839e+002	(-1.08945628267290e+002dB,1.79845502089974e+002°)
1.00484713824658e+002	(-1.08941628126173e+002dB,1.79845466510120e+002°)
1.00507853949074e+002	(-1.08937627984991e+002dB,1.79845430922070e+002°)
1.00530999402313e+002	(-1.08933627843744e+002dB,1.79845395325825e+002°)
1.00554150185604e+002	(-1.08929627702432e+002dB,1.79845359721381e+002°)
1.00577306300174e+002	(-1.08925627561055e+002dB,1.79845324108738e+002°)
1.00600467747249e+002	(-1.08921627419612e+002dB,1.79845288487892e+002°)
1.00623634528060e+002	(-1.08917627278105e+002dB,1.79845252858842e+002°)
1.00646806643832e+002	(-1.08913627136532e+002dB,1.79845217221587e+002°)
1.00669984095796e+002	(-1.08909626994894e+002dB,1.79845181576124e+002°)
1.00693166885180e+002	(-1.08905626853191e+002dB,1.79845145922452e+002°)
1.00716355013213e+002	(-1.08901626711423e+002dB,1.79845110260568e+002°)
1.00739548481125e+002	(-1.08897626569589e+002dB,1.79845074590471e+002°)
1.00762747290145e+002	(-1.08893626427690e+002dB,1.79845038912159e+002°)
1.00785951441503e+002	(-1.08889626285726e+002dB,1.79845003225629e+002°)
1.00809160936429e+002	(-1.08885626143696e+002dB,1.79844967530881e+002°)
1.00832375776155e+002	(-1.08881626001601e+002dB,1.79844931827912e+002°)
1.00855595961910e+002	(-1.08877625859440e+002dB,1.79844896116720e+002°)
1.00878821494927e+002	(-1.08873625717214e+002dB,1.79844860397303e+002°)
1.00902052376435e+002	(-1.08869625574923e+002dB,1.79844824669660e+002°)
1.00925288607668e+002	(-1.08865625432565e+002dB,1.79844788933788e+002°)
1.00948530189857e+002	(-1.08861625290143e+002dB,1.79844753189686e+002°)
1.00971777124234e+002	(-1.08857625147654e+002dB,1.79844717437352e+002°)
1.00995029412032e+002	(-1.08853625005100e+002dB,1.79844681676783e+002°)
1.01018287054483e+002	(-1.08849624862481e+002dB,1.79844645907979e+002°)
1.01041550052821e+002	(-1.08845624719795e+002dB,1.79844610130936e+002°)
1.01064818408279e+002	(-1.08841624577044e+002dB,1.79844574345654e+002°)
1.01088092122091e+002	(-1.08837624434228e+002dB,1.79844538552130e+002°)
1.01111371195490e+002	(-1.08833624291345e+002dB,1.79844502750363e+002°)
1.01134655629712e+002	(-1.08829624148397e+002dB,1.79844466940350e+002°)
1.01157945425989e+002	(-1.08825624005382e+002dB,1.79844431122089e+002°)
1.01181240585558e+002	(-1.08821623862302e+002dB,1.79844395295579e+002°)
1.01204541109654e+002	(-1.08817623719156e+002dB,1.79844359460818e+002°)
1.01227846999511e+002	(-1.08813623575944e+002dB,1.79844323617804e+002°)
1.01251158256365e+002	(-1.08809623432666e+002dB,1.79844287766535e+002°)
1.01274474881453e+002	(-1.08805623289322e+002dB,1.79844251907009e+002°)
1.01297796876010e+002	(-1.08801623145912e+002dB,1.79844216039224e+002°)
1.01321124241273e+002	(-1.08797623002436e+002dB,1.79844180163178e+002°)
1.01344456978479e+002	(-1.08793622858894e+002dB,1.79844144278869e+002°)
1.01367795088864e+002	(-1.08789622715286e+002dB,1.79844108386297e+002°)
1.01391138573667e+002	(-1.08785622571611e+002dB,1.79844072485457e+002°)
1.01414487434125e+002	(-1.08781622427871e+002dB,1.79844036576350e+002°)
1.01437841671476e+002	(-1.08777622284064e+002dB,1.79844000658972e+002°)
1.01461201286958e+002	(-1.08773622140191e+002dB,1.79843964733321e+002°)
1.01484566281809e+002	(-1.08769621996252e+002dB,1.79843928799397e+002°)
1.01507936657269e+002	(-1.08765621852246e+002dB,1.79843892857197e+002°)
1.01531312414576e+002	(-1.08761621708174e+002dB,1.79843856906719e+002°)
1.01554693554969e+002	(-1.08757621564036e+002dB,1.79843820947961e+002°)
1.01578080079690e+002	(-1.08753621419831e+002dB,1.79843784980922e+002°)
1.01601471989976e+002	(-1.08749621275560e+002dB,1.79843749005599e+002°)
1.01624869287069e+002	(-1.08745621131222e+002dB,1.79843713021990e+002°)
1.01648271972209e+002	(-1.08741620986818e+002dB,1.79843677030094e+002°)
1.01671680046637e+002	(-1.08737620842348e+002dB,1.79843641029909e+002°)
1.01695093511594e+002	(-1.08733620697811e+002dB,1.79843605021432e+002°)
1.01718512368321e+002	(-1.08729620553207e+002dB,1.79843569004663e+002°)
1.01741936618060e+002	(-1.08725620408537e+002dB,1.79843532979598e+002°)
1.01765366262053e+002	(-1.08721620263800e+002dB,1.79843496946236e+002°)
1.01788801301542e+002	(-1.08717620118996e+002dB,1.79843460904575e+002°)
1.01812241737769e+002	(-1.08713619974126e+002dB,1.79843424854614e+002°)
1.01835687571978e+002	(-1.08709619829189e+002dB,1.79843388796350e+002°)
1.01859138805411e+002	(-1.08705619684185e+002dB,1.79843352729781e+002°)
1.01882595439312e+002	(-1.08701619539114e+002dB,1.79843316654906e+002°)
1.01906057474924e+002	(-1.08697619393977e+002dB,1.79843280571722e+002°)
1.01929524913492e+002	(-1.08693619248772e+002dB,1.79843244480228e+002°)
1.01952997756260e+002	(-1.08689619103501e+002dB,1.79843208380422e+002°)
1.01976476004471e+002	(-1.08685618958163e+002dB,1.79843172272301e+002°)
1.01999959659371e+002	(-1.08681618812758e+002dB,1.79843136155865e+002°)
1.02023448722206e+002	(-1.08677618667286e+002dB,1.79843100031110e+002°)
1.02046943194219e+002	(-1.08673618521747e+002dB,1.79843063898036e+002°)
1.02070443076658e+002	(-1.08669618376141e+002dB,1.79843027756639e+002°)
1.02093948370767e+002	(-1.08665618230468e+002dB,1.79842991606919e+002°)
1.02117459077794e+002	(-1.08661618084727e+002dB,1.79842955448873e+002°)
1.02140975198984e+002	(-1.08657617938920e+002dB,1.79842919282500e+002°)
1.02164496735585e+002	(-1.08653617793046e+002dB,1.79842883107797e+002°)
1.02188023688843e+002	(-1.08649617647104e+002dB,1.79842846924763e+002°)
1.02211556060006e+002	(-1.08645617501095e+002dB,1.79842810733395e+002°)
1.02235093850322e+002	(-1.08641617355019e+002dB,1.79842774533692e+002°)
1.02258637061039e+002	(-1.08637617208875e+002dB,1.79842738325652e+002°)
1.02282185693404e+002	(-1.08633617062664e+002dB,1.79842702109272e+002°)
1.02305739748666e+002	(-1.08629616916386e+002dB,1.79842665884552e+002°)
1.02329299228075e+002	(-1.08625616770041e+002dB,1.79842629651489e+002°)
1.02352864132878e+002	(-1.08621616623628e+002dB,1.79842593410081e+002°)
1.02376434464327e+002	(-1.08617616477147e+002dB,1.79842557160326e+002°)
1.02400010223669e+002	(-1.08613616330599e+002dB,1.79842520902222e+002°)
1.02423591412156e+002	(-1.08609616183984e+002dB,1.79842484635767e+002°)
1.02447178031037e+002	(-1.08605616037301e+002dB,1.79842448360960e+002°)
1.02470770081564e+002	(-1.08601615890550e+002dB,1.79842412077799e+002°)
1.02494367564986e+002	(-1.08597615743732e+002dB,1.79842375786281e+002°)
1.02517970482555e+002	(-1.08593615596847e+002dB,1.79842339486405e+002°)
1.02541578835522e+002	(-1.08589615449893e+002dB,1.79842303178168e+002°)
1.02565192625140e+002	(-1.08585615302872e+002dB,1.79842266861570e+002°)
1.02588811852659e+002	(-1.08581615155783e+002dB,1.79842230536607e+002°)
1.02612436519333e+002	(-1.08577615008627e+002dB,1.79842194203278e+002°)
1.02636066626414e+002	(-1.08573614861403e+002dB,1.79842157861581e+002°)
1.02659702175154e+002	(-1.08569614714110e+002dB,1.79842121511515e+002°)
1.02683343166808e+002	(-1.08565614566750e+002dB,1.79842085153076e+002°)
1.02706989602627e+002	(-1.08561614419323e+002dB,1.79842048786264e+002°)
1.02730641483867e+002	(-1.08557614271827e+002dB,1.79842012411076e+002°)
1.02754298811780e+002	(-1.08553614124263e+002dB,1.79841976027510e+002°)
1.02777961587622e+002	(-1.08549613976631e+002dB,1.79841939635565e+002°)
1.02801629812646e+002	(-1.08545613828932e+002dB,1.79841903235238e+002°)
1.02825303488109e+002	(-1.08541613681164e+002dB,1.79841866826528e+002°)
1.02848982615264e+002	(-1.08537613533328e+002dB,1.79841830409433e+002°)
1.02872667195367e+002	(-1.08533613385424e+002dB,1.79841793983950e+002°)
1.02896357229674e+002	(-1.08529613237452e+002dB,1.79841757550078e+002°)
1.02920052719442e+002	(-1.08525613089412e+002dB,1.79841721107815e+002°)
1.02943753665926e+002	(-1.08521612941304e+002dB,1.79841684657159e+002°)
1.02967460070382e+002	(-1.08517612793127e+002dB,1.79841648198108e+002°)
1.02991171934069e+002	(-1.08513612644882e+002dB,1.79841611730659e+002°)
1.03014889258242e+002	(-1.08509612496569e+002dB,1.79841575254813e+002°)
1.03038612044161e+002	(-1.08505612348188e+002dB,1.79841538770565e+002°)
1.03062340293081e+002	(-1.08501612199738e+002dB,1.79841502277914e+002°)
1.03086074006261e+002	(-1.08497612051220e+002dB,1.79841465776859e+002°)
1.03109813184961e+002	(-1.08493611902633e+002dB,1.79841429267397e+002°)
1.03133557830437e+002	(-1.08489611753978e+002dB,1.79841392749527e+002°)
1.03157307943950e+002	(-1.08485611605254e+002dB,1.79841356223246e+002°)
1.03181063526758e+002	(-1.08481611456462e+002dB,1.79841319688553e+002°)
1.03204824580121e+002	(-1.08477611307602e+002dB,1.79841283145445e+002°)
1.03228591105299e+002	(-1.08473611158673e+002dB,1.79841246593921e+002°)
1.03252363103551e+002	(-1.08469611009675e+002dB,1.79841210033979e+002°)
1.03276140576139e+002	(-1.08465610860608e+002dB,1.79841173465617e+002°)
1.03299923524322e+002	(-1.08461610711473e+002dB,1.79841136888832e+002°)
1.03323711949362e+002	(-1.08457610562270e+002dB,1.79841100303624e+002°)
1.03347505852520e+002	(-1.08453610412997e+002dB,1.79841063709989e+002°)
1.03371305235057e+002	(-1.08449610263656e+002dB,1.79841027107927e+002°)
1.03395110098236e+002	(-1.08445610114246e+002dB,1.79840990497434e+002°)
1.03418920443318e+002	(-1.08441609964767e+002dB,1.79840953878510e+002°)
1.03442736271566e+002	(-1.08437609815220e+002dB,1.79840917251152e+002°)
1.03466557584242e+002	(-1.08433609665603e+002dB,1.79840880615358e+002°)
1.03490384382610e+002	(-1.08429609515917e+002dB,1.79840843971127e+002°)
1.03514216667933e+002	(-1.08425609366163e+002dB,1.79840807318456e+002°)
1.03538054441474e+002	(-1.08421609216340e+002dB,1.79840770657343e+002°)
1.03561897704497e+002	(-1.08417609066447e+002dB,1.79840733987788e+002°)
1.03585746458267e+002	(-1.08413608916486e+002dB,1.79840697309786e+002°)
1.03609600704047e+002	(-1.08409608766455e+002dB,1.79840660623337e+002°)
1.03633460443103e+002	(-1.08405608616355e+002dB,1.79840623928439e+002°)
1.03657325676699e+002	(-1.08401608466187e+002dB,1.79840587225090e+002°)
1.03681196406101e+002	(-1.08397608315949e+002dB,1.79840550513287e+002°)
1.03705072632575e+002	(-1.08393608165641e+002dB,1.79840513793029e+002°)
1.03728954357386e+002	(-1.08389608015265e+002dB,1.79840477064315e+002°)
1.03752841581800e+002	(-1.08385607864819e+002dB,1.79840440327141e+002°)
1.03776734307084e+002	(-1.08381607714304e+002dB,1.79840403581506e+002°)
1.03800632534505e+002	(-1.08377607563720e+002dB,1.79840366827408e+002°)
1.03824536265330e+002	(-1.08373607413066e+002dB,1.79840330064845e+002°)
1.03848445500826e+002	(-1.08369607262343e+002dB,1.79840293293815e+002°)
1.03872360242261e+002	(-1.08365607111551e+002dB,1.79840256514317e+002°)
1.03896280490902e+002	(-1.08361606960689e+002dB,1.79840219726347e+002°)
1.03920206248019e+002	(-1.08357606809757e+002dB,1.79840182929906e+002°)
1.03944137514879e+002	(-1.08353606658756e+002dB,1.79840146124989e+002°)
1.03968074292751e+002	(-1.08349606507686e+002dB,1.79840109311596e+002°)
1.03992016582905e+002	(-1.08345606356546e+002dB,1.79840072489724e+002°)
1.04015964386609e+002	(-1.08341606205336e+002dB,1.79840035659372e+002°)
1.04039917705134e+002	(-1.08337606054056e+002dB,1.79839998820537e+002°)
1.04063876539749e+002	(-1.08333605902707e+002dB,1.79839961973217e+002°)
1.04087840891725e+002	(-1.08329605751289e+002dB,1.79839925117412e+002°)
1.04111810762332e+002	(-1.08325605599800e+002dB,1.79839888253118e+002°)
1.04135786152842e+002	(-1.08321605448242e+002dB,1.79839851380334e+002°)
1.04159767064525e+002	(-1.08317605296614e+002dB,1.79839814499057e+002°)
1.04183753498652e+002	(-1.08313605144916e+002dB,1.79839777609286e+002°)
1.04207745456496e+002	(-1.08309604993148e+002dB,1.79839740711020e+002°)
1.04231742939329e+002	(-1.08305604841310e+002dB,1.79839703804255e+002°)
1.04255745948422e+002	(-1.08301604689402e+002dB,1.79839666888990e+002°)
1.04279754485049e+002	(-1.08297604537425e+002dB,1.79839629965222e+002°)
1.04303768550482e+002	(-1.08293604385377e+002dB,1.79839593032951e+002°)
1.04327788145995e+002	(-1.08289604233259e+002dB,1.79839556092174e+002°)
1.04351813272861e+002	(-1.08285604081071e+002dB,1.79839519142889e+002°)
1.04375843932353e+002	(-1.08281603928813e+002dB,1.79839482185094e+002°)
1.04399880125747e+002	(-1.08277603776485e+002dB,1.79839445218788e+002°)
1.04423921854316e+002	(-1.08273603624087e+002dB,1.79839408243967e+002°)
1.04447969119335e+002	(-1.08269603471619e+002dB,1.79839371260631e+002°)
1.04472021922078e+002	(-1.08265603319080e+002dB,1.79839334268777e+002°)
1.04496080263822e+002	(-1.08261603166471e+002dB,1.79839297268404e+002°)
1.04520144145842e+002	(-1.08257603013792e+002dB,1.79839260259508e+002°)
1.04544213569413e+002	(-1.08253602861042e+002dB,1.79839223242089e+002°)
1.04568288535812e+002	(-1.08249602708223e+002dB,1.79839186216145e+002°)
1.04592369046315e+002	(-1.08245602555332e+002dB,1.79839149181673e+002°)
1.04616455102199e+002	(-1.08241602402372e+002dB,1.79839112138672e+002°)
1.04640546704741e+002	(-1.08237602249340e+002dB,1.79839075087139e+002°)
1.04664643855218e+002	(-1.08233602096239e+002dB,1.79839038027072e+002°)
1.04688746554908e+002	(-1.08229601943067e+002dB,1.79839000958470e+002°)
1.04712854805088e+002	(-1.08225601789824e+002dB,1.79838963881331e+002°)
1.04736968607038e+002	(-1.08221601636510e+002dB,1.79838926795653e+002°)
1.04761087962034e+002	(-1.08217601483126e+002dB,1.79838889701433e+002°)
1.04785212871357e+002	(-1.08213601329672e+002dB,1.79838852598670e+002°)
1.04809343336286e+002	(-1.08209601176147e+002dB,1.79838815487362e+002°)
1.04833479358098e+002	(-1.08205601022551e+002dB,1.79838778367507e+002°)
1.04857620938075e+002	(-1.08201600868884e+002dB,1.79838741239102e+002°)
1.04881768077497e+002	(-1.08197600715146e+002dB,1.79838704102146e+002°)
1.04905920777643e+002	(-1.08193600561338e+002dB,1.79838666956637e+002°)
1.04930079039794e+002	(-1.08189600407459e+002dB,1.79838629802573e+002°)
1.04954242865230e+002	(-1.08185600253509e+002dB,1.79838592639953e+002°)
1.04978412255234e+002	(-1.08181600099488e+002dB,1.79838555468773e+002°)
1.05002587211087e+002	(-1.08177599945396e+002dB,1.79838518289032e+002°)
1.05026767734069e+002	(-1.08173599791233e+002dB,1.79838481100728e+002°)
1.05050953825464e+002	(-1.08169599636999e+002dB,1.79838443903859e+002°)
1.05075145486553e+002	(-1.08165599482694e+002dB,1.79838406698423e+002°)
1.05099342718620e+002	(-1.08161599328318e+002dB,1.79838369484418e+002°)
1.05123545522946e+002	(-1.08157599173871e+002dB,1.79838332261843e+002°)
1.05147753900816e+002	(-1.08153599019352e+002dB,1.79838295030695e+002°)
1.05171967853513e+002	(-1.08149598864763e+002dB,1.79838257790971e+002°)
1.05196187382320e+002	(-1.08145598710102e+002dB,1.79838220542671e+002°)
1.05220412488522e+002	(-1.08141598555370e+002dB,1.79838183285793e+002°)
1.05244643173403e+002	(-1.08137598400567e+002dB,1.79838146020333e+002°)
1.05268879438248e+002	(-1.08133598245692e+002dB,1.79838108746291e+002°)
1.05293121284342e+002	(-1.08129598090747e+002dB,1.79838071463664e+002°)
1.05317368712970e+002	(-1.08125597935729e+002dB,1.79838034172451e+002°)
1.05341621725417e+002	(-1.08121597780641e+002dB,1.79837996872649e+002°)
1.05365880322970e+002	(-1.08117597625481e+002dB,1.79837959564256e+002°)
1.05390144506914e+002	(-1.08113597470249e+002dB,1.79837922247271e+002°)
1.05414414278537e+002	(-1.08109597314946e+002dB,1.79837884921691e+002°)
1.05438689639124e+002	(-1.08105597159571e+002dB,1.79837847587514e+002°)
1.05462970589963e+002	(-1.08101597004125e+002dB,1.79837810244739e+002°)
1.05487257132342e+002	(-1.08097596848607e+002dB,1.79837772893364e+002°)
1.05511549267547e+002	(-1.08093596693018e+002dB,1.79837735533386e+002°)
1.05535846996867e+002	(-1.08089596537357e+002dB,1.79837698164803e+002°)
1.05560150321591e+002	(-1.08085596381624e+002dB,1.79837660787614e+002°)
1.05584459243006e+002	(-1.08081596225820e+002dB,1.79837623401817e+002°)
1.05608773762401e+002	(-1.08077596069943e+002dB,1.79837586007409e+002°)
1.05633093881067e+002	(-1.08073595913995e+002dB,1.79837548604389e+002°)
1.05657419600291e+002	(-1.08069595757975e+002dB,1.79837511192754e+002°)
1.05681750921364e+002	(-1.08065595601884e+002dB,1.79837473772503e+002°)
1.05706087845575e+002	(-1.08061595445720e+002dB,1.79837436343633e+002°)
1.05730430374216e+002	(-1.08057595289484e+002dB,1.79837398906144e+002°)
1.05754778508577e+002	(-1.08053595133177e+002dB,1.79837361460032e+002°)
1.05779132249948e+002	(-1.08049594976797e+002dB,1.79837324005295e+002°)
1.05803491599621e+002	(-1.08045594820345e+002dB,1.79837286541932e+002°)
1.05827856558887e+002	(-1.08041594663822e+002dB,1.79837249069941e+002°)
1.05852227129039e+002	(-1.08037594507226e+002dB,1.79837211589320e+002°)
1.05876603311368e+002	(-1.08033594350558e+002dB,1.79837174100066e+002°)
1.05900985107166e+002	(-1.08029594193818e+002dB,1.79837136602178e+002°)
1.05925372517727e+002	(-1.08025594037006e+002dB,1.79837099095654e+002°)
1.05949765544343e+002	(-1.08021593880121e+002dB,1.79837061580492e+002°)
1.05974164188308e+002	(-1.08017593723164e+002dB,1.79837024056689e+002°)
1.05998568450915e+002	(-1.08013593566135e+002dB,1.79836986524244e+002°)
1.06022978333458e+002	(-1.08009593409034e+002dB,1.79836948983155e+002°)
1.06047393837231e+002	(-1.08005593251860e+002dB,1.79836911433420e+002°)
1.06071814963529e+002	(-1.08001593094614e+002dB,1.79836873875037e+002°)
1.06096241713647e+002	(-1.07997592937295e+002dB,1.79836836308003e+002°)
1.06120674088879e+002	(-1.07993592779904e+002dB,1.79836798732317e+002°)
1.06145112090522e+002	(-1.07989592622441e+002dB,1.79836761147977e+002°)
1.06169555719870e+002	(-1.07985592464904e+002dB,1.79836723554981e+002°)
1.06194004978220e+002	(-1.07981592307296e+002dB,1.79836685953326e+002°)
1.06218459866868e+002	(-1.07977592149614e+002dB,1.79836648343012e+002°)
1.06242920387110e+002	(-1.07973591991861e+002dB,1.79836610724035e+002°)
1.06267386540244e+002	(-1.07969591834034e+002dB,1.79836573096394e+002°)
1.06291858327567e+002	(-1.07965591676135e+002dB,1.79836535460088e+002°)
1.06316335750375e+002	(-1.07961591518163e+002dB,1.79836497815112e+002°)
1.06340818809967e+002	(-1.07957591360118e+002dB,1.79836460161467e+002°)
1.06365307507641e+002	(-1.07953591202000e+002dB,1.79836422499150e+002°)
1.06389801844696e+002	(-1.07949591043810e+002dB,1.79836384828158e+002°)
1.06414301822429e+002	(-1.07945590885547e+002dB,1.79836347148491e+002°)
1.06438807442140e+002	(-1.07941590727210e+002dB,1.79836309460145e+002°)
1.06463318705129e+002	(-1.07937590568801e+002dB,1.79836271763119e+002°)
1.06487835612694e+002	(-1.07933590410319e+002dB,1.79836234057411e+002°)
1.06512358166136e+002	(-1.07929590251764e+002dB,1.79836196343019e+002°)
1.06536886366754e+002	(-1.07925590093136e+002dB,1.79836158619941e+002°)
1.06561420215849e+002	(-1.07921589934435e+002dB,1.79836120888174e+002°)
