Freq.	V(vout)
1.00000000000000e+000	(6.15604895958673e-003dB,-1.78792702054356e+002°)
1.02329299228075e+000	(6.44665170412866e-003dB,-1.78764645718221e+002°)
1.04712854805090e+000	(6.75091690837021e-003dB,-1.78735940524591e+002°)
1.07151930523761e+000	(7.06948526584403e-003dB,-1.78706571691427e+002°)
1.09647819614318e+000	(7.40302735817614e-003dB,-1.78676524116520e+002°)
1.12201845430196e+000	(7.75224503166023e-003dB,-1.78645782370894e+002°)
1.14815362149688e+000	(8.11787284069642e-003dB,-1.78614330693929e+002°)
1.17489755493953e+000	(8.50067954828606e-003dB,-1.78582152985998e+002°)
1.20226443461741e+000	(8.90146971910782e-003dB,-1.78549232804207e+002°)
1.23026877081238e+000	(9.32108533806520e-003dB,-1.78515553355629e+002°)
1.25892541179417e+000	(9.76040753462065e-003dB,-1.78481097492185e+002°)
1.28824955169313e+000	(1.02203583857125e-002dB,-1.78445847704112e+002°)
1.31825673855641e+000	(1.07019027910207e-002dB,-1.78409786114677e+002°)
1.34896288259165e+000	(1.12060504171802e-002dB,-1.78372894474884e+002°)
1.38038426460288e+000	(1.17338577402551e-002dB,-1.78335154157135e+002°)
1.41253754462275e+000	(1.22864301950048e-002dB,-1.78296546149918e+002°)
1.44543977074593e+000	(1.28649243923195e-002dB,-1.78257051053120e+002°)
1.47910838816821e+000	(1.34705504277401e-002dB,-1.78216649071490e+002°)
1.51356124843621e+000	(1.41045743292010e-002dB,-1.78175320011208e+002°)
1.54881661891248e+000	(1.47683205832247e-002dB,-1.78133043272608e+002°)
1.58489319246111e+000	(1.54631747535935e-002dB,-1.78089797847535e+002°)
1.62181009735893e+000	(1.61905862648078e-002dB,-1.78045562313494e+002°)
1.65958690743756e+000	(1.69520712437120e-002dB,-1.78000314829891e+002°)
1.69824365246174e+000	(1.77492155254044e-002dB,-1.77954033133726e+002°)
1.73780082874937e+000	(1.85836777692514e-002dB,-1.77906694535658e+002°)
1.77827941003892e+000	(1.94571927126719e-002dB,-1.77858275916671e+002°)
1.81970085860998e+000	(2.03715745473931e-002dB,-1.77808753725316e+002°)
1.86208713666287e+000	(2.13287204576362e-002dB,-1.77758103974199e+002°)
1.90546071796325e+000	(2.23306142957127e-002dB,-1.77706302238860e+002°)
1.94984459975804e+000	(2.33793303576401e-002dB,-1.77653323654796e+002°)
1.99526231496888e+000	(2.44770374537023e-002dB,-1.77599142916914e+002°)
2.04173794466953e+000	(2.56260029484693e-002dB,-1.77543734279639e+002°)
2.08929613085404e+000	(2.68285971182159e-002dB,-1.77487071554535e+002°)
2.13796208950223e+000	(2.80872976374440e-002dB,-1.77429128113831e+002°)
2.18776162394955e+000	(2.94046941852643e-002dB,-1.77369876889863e+002°)
2.23872113856834e+000	(3.07834933058344e-002dB,-1.77309290378496e+002°)
2.29086765276777e+000	(3.22265234224297e-002dB,-1.77247340641876e+002°)
2.34422881531992e+000	(3.37367400472947e-002dB,-1.77183999311535e+002°)
2.39883291901949e+000	(3.53172311609424e-002dB,-1.77119237596002e+002°)
2.45470891568503e+000	(3.69712228452313e-002dB,-1.77053026285400e+002°)
2.51188643150958e+000	(3.87020851002219e-002dB,-1.76985335758458e+002°)
2.57039578276886e+000	(4.05133378236662e-002dB,-1.76916135992866e+002°)
2.63026799189538e+000	(4.24086570565207e-002dB,-1.76845396575365e+002°)
2.69153480392691e+000	(4.43918814358376e-002dB,-1.76773086712093e+002°)
2.75422870333816e+000	(4.64670188537654e-002dB,-1.76699175244257e+002°)
2.81838293126445e+000	(4.86382533520573e-002dB,-1.76623630661075e+002°)
2.88403150312660e+000	(5.09099521993373e-002dB,-1.76546421118885e+002°)
2.95120922666638e+000	(5.32866733290356e-002dB,-1.76467514458797e+002°)
3.01995172040201e+000	(5.57731727806749e-002dB,-1.76386878229228e+002°)
3.09029543251359e+000	(5.83744125781097e-002dB,-1.76304479708496e+002°)
3.16227766016837e+000	(6.10955686855075e-002dB,-1.76220285931437e+002°)
3.23593656929628e+000	(6.39420393328586e-002dB,-1.76134263718497e+002°)
3.31131121482591e+000	(6.69194534100367e-002dB,-1.76046379706915e+002°)
3.38844156139202e+000	(7.00336792171607e-002dB,-1.75956600384859e+002°)
3.46736850452531e+000	(7.32908333405022e-002dB,-1.75864892130126e+002°)
3.54813389233575e+000	(7.66972897020314e-002dB,-1.75771221251569e+002°)
3.63078054770101e+000	(8.02596889923862e-002dB,-1.75675554032537e+002°)
3.71535229097172e+000	(8.39849480011227e-002dB,-1.75577856780460e+002°)
3.80189396320560e+000	(8.78802694541776e-002dB,-1.75478095879575e+002°)
3.89045144994280e+000	(9.19531517658835e-002dB,-1.75376237848482e+002°)
3.98107170553496e+000	(9.62113988933820e-002dB,-1.75272249400412e+002°)
4.07380277804112e+000	(1.00663130753427e-001dB,-1.75166097510916e+002°)
4.16869383470335e+000	(1.05316793065575e-001dB,-1.75057749487478e+002°)
4.26579518801592e+000	(1.10181167862270e-001dB,-1.74947173049775e+002°)
4.36515832240165e+000	(1.15265383790765e-001dB,-1.74834336408116e+002°)
4.46683592150962e+000	(1.20578926274374e-001dB,-1.74719208354614e+002°)
4.57088189614874e+000	(1.26131648149945e-001dB,-1.74601758356501e+002°)
4.67735141287197e+000	(1.31933779707890e-001dB,-1.74481956657518e+002°)
4.78630092322637e+000	(1.37995938833898e-001dB,-1.74359774385692e+002°)
4.89778819368445e+000	(1.44329141188029e-001dB,-1.74235183668135e+002°)
5.01187233627271e+000	(1.50944809810148e-001dB,-1.74108157753768e+002°)
5.12861383991364e+000	(1.57854784743336e-001dB,-1.73978671142606e+002°)
5.24807460249771e+000	(1.65071332263007e-001dB,-1.73846699725281e+002°)
5.37031796370252e+000	(1.72607153564198e-001dB,-1.73712220926396e+002°)
5.49540873857623e+000	(1.80475393055142e-001dB,-1.73575213862689e+002°)
5.62341325190348e+000	(1.88689646166709e-001dB,-1.73435659505506e+002°)
5.75439937337156e+000	(1.97263966278107e-001dB,-1.73293540851626e+002°)
5.88843655355588e+000	(2.06212871320106e-001dB,-1.73148843107157e+002°)
6.02559586074356e+000	(2.15551348703647e-001dB,-1.73001553878591e+002°)
6.16595001861481e+000	(2.25294860168637e-001dB,-1.72851663374092e+002°)
6.30957344480192e+000	(2.35459345143472e-001dB,-1.72699164613508e+002°)
6.45654229034654e+000	(2.46061222452731e-001dB,-1.72544053649181e+002°)
6.60693448007594e+000	(2.57117391538348e-001dB,-1.72386329797784e+002°)
6.76082975391980e+000	(2.68645231385219e-001dB,-1.72225995880023e+002°)
6.91830970918935e+000	(2.80662598140344e-001dB,-1.72063058470295e+002°)
7.07945784384136e+000	(2.93187821018717e-001dB,-1.71897528158564e+002°)
7.24435960074988e+000	(3.06239695544634e-001dB,-1.71729419818152e+002°)
7.41310241300916e+000	(3.19837475648490e-001dB,-1.71558752887040e+002°)
7.58577575029182e+000	(3.34000862486555e-001dB,-1.71385551653269e+002°)
7.76247116628690e+000	(3.48749991303685e-001dB,-1.71209845551875e+002°)
7.94328234724279e+000	(3.64105414962209e-001dB,-1.71031669469238e+002°)
8.12830516164097e+000	(3.80088085512584e-001dB,-1.70851064052774e+002°)
8.31763771102669e+000	(3.96719331392437e-001dB,-1.70668076030228e+002°)
8.51138038202374e+000	(4.14020832175325e-001dB,-1.70482758530728e+002°)
8.70963589956078e+000	(4.32014589750603e-001dB,-1.70295171409930e+002°)
8.91250938133743e+000	(4.50722895148203e-001dB,-1.70105381582522e+002°)
9.12010839355907e+000	(4.70168291863663e-001dB,-1.69913463351314e+002°)
9.33254300796988e+000	(4.90373535136573e-001dB,-1.69719498737273e+002°)
9.54992586021433e+000	(5.11361546941580e-001dB,-1.69523577810312e+002°)
9.77237220955808e+000	(5.33155366100288e-001dB,-1.69325799012873e+002°)
9.99999999999997e+000	(5.55778094017482e-001dB,-1.69126269478415e+002°)
1.02329299228075e+001	(5.79252835907511e-001dB,-1.68925105345113e+002°)
1.04712854805090e+001	(6.03602636560249e-001dB,-1.68722432051448e+002°)
1.07151930523760e+001	(6.28850411901373e-001dB,-1.68518384627170e+002°)
1.09647819614318e+001	(6.55018874689991e-001dB,-1.68313107960906e+002°)
1.12201845430196e+001	(6.82130455659035e-001dB,-1.68106757051805e+002°)
1.14815362149688e+001	(7.10207219513796e-001dB,-1.67899497240775e+002°)
1.17489755493953e+001	(7.39270776063413e-001dB,-1.67691504411028e+002°)
1.20226443461741e+001	(7.69342185851671e-001dB,-1.67482965164103e+002°)
1.23026877081238e+001	(8.00441861260150e-001dB,-1.67274076961639e+002°)
1.25892541179416e+001	(8.32589463590363e-001dB,-1.67065048232116e+002°)
1.28824955169313e+001	(8.65803794336792e-001dB,-1.66856098435721e+002°)
1.31825673855640e+001	(9.00102684532568e-001dB,-1.66647458091095e+002°)
1.34896288259165e+001	(9.35502877411860e-001dB,-1.66439368749439e+002°)
1.38038426460288e+001	(9.72019910695241e-001dB,-1.66232082923183e+002°)
1.41253754462275e+001	(1.00966799381643e+000dB,-1.66025863958224e+002°)
1.44543977074592e+001	(1.04845988379907e+000dB,-1.65820985852516e+002°)
1.47910838816820e+001	(1.08840675952380e+000dB,-1.65617733011354e+002°)
1.51356124843620e+001	(1.12951809383264e+000dB,-1.65416399943299e+002°)
1.54881661891248e+001	(1.17180152664953e+000dB,-1.65217290890334e+002°)
1.58489319246111e+001	(1.21526273719293e+000dB,-1.65020719390390e+002°)
1.62181009735892e+001	(1.25990531833484e+000dB,-1.64827007773101e+002°)
1.65958690743755e+001	(1.30573065213029e+000dB,-1.64636486582960e+002°)
1.69824365246174e+001	(1.35273778943569e+000dB,-1.64449493935646e+002°)
1.73780082874937e+001	(1.40092333178152e+000dB,-1.64266374800674e+002°)
1.77827941003892e+001	(1.45028131998040e+000dB,-1.64087480215622e+002°)
1.81970085860998e+001	(1.50080312718337e+000dB,-1.63913166430336e+002°)
1.86208713666286e+001	(1.55247735900047e+000dB,-1.63743793983656e+002°)
1.90546071796324e+001	(1.60528976190021e+000dB,-1.63579726714947e+002°)
1.94984459975804e+001	(1.65922313975935e+000dB,-1.63421330713389e+002°)
1.99526231496887e+001	(1.71425728072406e+000dB,-1.63268973208846e+002°)
2.04173794466952e+001	(1.77036889414921e+000dB,-1.63123021407743e+002°)
2.08929613085403e+001	(1.82753155901812e+000dB,-1.62983841279415e+002°)
2.13796208950222e+001	(1.88571568485501e+000dB,-1.62851796299126e+002°)
2.18776162394954e+001	(1.94488848607686e+000dB,-1.62727246153215e+002°)
2.23872113856833e+001	(2.00501396864887e+000dB,-1.62610545412229e+002°)
2.29086765276776e+001	(2.06605293212681e+000dB,-1.62502042180677e+002°)
2.34422881531991e+001	(2.12796298602789e+000dB,-1.62402076729692e+002°)
2.39883291901948e+001	(2.19069858079479e+000dB,-1.62310980121775e+002°)
2.45470891568502e+001	(2.25421105433727e+000dB,-1.62229072834549e+002°)
2.51188643150957e+001	(2.31844869427442e+000dB,-1.62156663392055e+002°)
2.57039578276885e+001	(2.38335681496758e+000dB,-1.62094047014107e+002°)
2.63026799189537e+001	(2.44887784955422e+000dB,-1.62041504288075e+002°)
2.69153480392690e+001	(2.51495145783065e+000dB,-1.61999299875199e+002°)
2.75422870333815e+001	(2.58151464858212e+000dB,-1.61967681260531e+002°)
2.81838293126444e+001	(2.64850191516190e+000dB,-1.61946877549442e+002°)
2.88403150312659e+001	(2.71584538566507e+000dB,-1.61937098323528e+002°)
2.95120922666637e+001	(2.78347498515344e+000dB,-1.61938532561228e+002°)
3.01995172040200e+001	(2.85131861077335e+000dB,-1.61951347632175e+002°)
3.09029543251358e+001	(2.91930231652724e+000dB,-1.61975688364548e+002°)
3.16227766016837e+001	(2.98735050993010e+000dB,-1.62011676205096e+002°)
3.23593656929627e+001	(3.05538615595455e+000dB,-1.62059408460046e+002°)
3.31131121482590e+001	(3.12333098968180e+000dB,-1.62118957634637e+002°)
3.38844156139201e+001	(3.19110573582524e+000dB,-1.62190370871328e+002°)
3.46736850452530e+001	(3.25863033257260e+000dB,-1.62273669481193e+002°)
3.54813389233574e+001	(3.32582416087410e+000dB,-1.62368848588231e+002°)
3.63078054770100e+001	(3.39260627513395e+000dB,-1.62475876869373e+002°)
3.71535229097171e+001	(3.45889563685293e+000dB,-1.62594696400627e+002°)
3.80189396320559e+001	(3.52461134678759e+000dB,-1.62725222610467e+002°)
3.89045144994279e+001	(3.58967287768369e+000dB,-1.62867344332528e+002°)
3.98107170553495e+001	(3.65400030326885e+000dB,-1.63020923958248e+002°)
4.07380277804111e+001	(3.71751452489595e+000dB,-1.63185797692768e+002°)
4.16869383470333e+001	(3.78013749241490e+000dB,-1.63361775899202e+002°)
4.26579518801591e+001	(3.84179242017326e+000dB,-1.63548643537265e+002°)
4.36515832240164e+001	(3.90240399570824e+000dB,-1.63746160686563e+002°)
4.46683592150961e+001	(3.96189858127107e+000dB,-1.63954063148336e+002°)
4.57088189614873e+001	(4.02020440643750e+000dB,-1.64172063127001e+002°)
4.67735141287196e+001	(4.07725175189500e+000dB,-1.64399849971280e+002°)
4.78630092322636e+001	(4.13297312352749e+000dB,-1.64637090986348e+002°)
4.89778819368444e+001	(4.18730341610762e+000dB,-1.64883432294666e+002°)
5.01187233627270e+001	(4.24018006671012e+000dB,-1.65138499747452e+002°)
5.12861383991362e+001	(4.29154319706567e+000dB,-1.65401899873413e+002°)
5.24807460249770e+001	(4.34133574545677e+000dB,-1.65673220868816e+002°)
5.37031796370250e+001	(4.38950358753904e+000dB,-1.65952033605881e+002°)
5.49540873857622e+001	(4.43599564623398e+000dB,-1.66237892668737e+002°)
5.62341325190346e+001	(4.48076399179125e+000dB,-1.66530337397049e+002°)
5.75439937337154e+001	(4.52376393096633e+000dB,-1.66828892944640e+002°)
5.88843655355586e+001	(4.56495408712368e+000dB,-1.67133071335118e+002°)
6.02559586074355e+001	(4.60429647099500e+000dB,-1.67442372518433e+002°)
6.16595001861479e+001	(4.64175654252331e+000dB,-1.67756285421742e+002°)
6.30957344480190e+001	(4.67730326542807e+000dB,-1.68074288987165e+002°)
6.45654229034652e+001	(4.71090915401389e+000dB,-1.68395853199466e+002°)
6.60693448007593e+001	(4.74255031381156e+000dB,-1.68720440098619e+002°)
6.76082975391978e+001	(4.77220647622111e+000dB,-1.69047504776467e+002°)
6.91830970918933e+001	(4.79986102845972e+000dB,-1.69376496353255e+002°)
7.07945784384134e+001	(4.82550103892307e+000dB,-1.69706858944016e+002°)
7.24435960074986e+001	(4.84911727909806e+000dB,-1.70038032604200e+002°)
7.41310241300914e+001	(4.87070424252766e+000dB,-1.70369454262514e+002°)
7.58577575029180e+001	(4.89026016137257e+000dB,-1.70700558645580e+002°)
7.76247116628688e+001	(4.90778702106689e+000dB,-1.71030779188954e+002°)
7.94328234724277e+001	(4.92329057356631e+000dB,-1.71359548947560e+002°)
8.12830516164095e+001	(4.93678034938527e+000dB,-1.71686301503098e+002°)
8.31763771102667e+001	(4.94826966874188e+000dB,-1.72010471873374e+002°)
8.51138038202372e+001	(4.95777565175040e+000dB,-1.72331497433893e+002°)
8.70963589956076e+001	(4.96531922775275e+000dB,-1.72648818846655e+002°)
8.91250938133741e+001	(4.97092514359193e+000dB,-1.72961881009715e+002°)
9.12010839355905e+001	(4.97462197036881e+000dB,-1.73270134027942e+002°)
9.33254300796986e+001	(4.97644210857492e+000dB,-1.73573034209849e+002°)
9.54992586021431e+001	(4.97642179070037e+000dB,-1.73870045095885e+002°)
9.77237220955805e+001	(4.97460108088239e+000dB,-1.74160638520222e+002°)
9.99999999999995e+001	(4.97102387065825e+000dB,-1.74444295710806e+002°)
1.02329299228075e+002	(4.96573786999547e+000dB,-1.74720508431244e+002°)
1.04712854805089e+002	(4.95879459262728e+000dB,-1.74988780163614e+002°)
1.07151930523760e+002	(4.95024933448832e+000dB,-1.75248627333115e+002°)
1.09647819614318e+002	(4.94016114423968e+000dB,-1.75499580580558e+002°)
1.12201845430196e+002	(4.92859278459269e+000dB,-1.75741186073793e+002°)
1.14815362149688e+002	(4.91561068331889e+000dB,-1.75973006862266e+002°)
1.17489755493952e+002	(4.90128487234480e+000dB,-1.76194624268276e+002°)
1.20226443461741e+002	(4.88568891428014e+000dB,-1.76405639313810e+002°)
1.23026877081237e+002	(4.86889981444009e+000dB,-1.76605674174192e+002°)
1.25892541179416e+002	(4.85099791779646e+000dB,-1.76794373656152e+002°)
1.28824955169313e+002	(4.83206678929682e+000dB,-1.76971406688480e+002°)
1.31825673855640e+002	(4.81219307664355e+000dB,-1.77136467821766e+002°)
1.34896288259165e+002	(4.79146635483333e+000dB,-1.77289278722131e+002°)
1.38038426460288e+002	(4.76997895113977e+000dB,-1.77429589651642e+002°)
1.41253754462275e+002	(4.74782575048986e+000dB,-1.77557180923904e+002°)
1.44543977074592e+002	(4.72510398007877e+000dB,-1.77671864318616e+002°)
1.47910838816820e+002	(4.70191297372936e+000dB,-1.77773484447461e+002°)
1.51356124843620e+002	(4.67835391503586e+000dB,-1.77861920050460e+002°)
1.54881661891247e+002	(4.65452956008224e+000dB,-1.77937085214826e+002°)
1.58489319246110e+002	(4.63054393964379e+000dB,-1.77998930496526e+002°)
1.62181009735892e+002	(4.60650204204045e+000dB,-1.78047443932264e+002°)
1.65958690743755e+002	(4.58250947677107e+000dB,-1.78082651924751e+002°)
1.69824365246173e+002	(4.55867212072309e+000dB,-1.78104619987958e+002°)
1.73780082874936e+002	(4.53509574809551e+000dB,-1.78113453336691e+002°)
1.77827941003891e+002	(4.51188564564095e+000dB,-1.78109297306068e+002°)
1.81970085860997e+002	(4.48914621541230e+000dB,-1.78092337588585e+002°)
1.86208713666286e+002	(4.46698056712453e+000dB,-1.78062800276097e+002°)
1.90546071796323e+002	(4.44549010262929e+000dB,-1.78020951694710e+002°)
1.94984459975803e+002	(4.42477409514109e+000dB,-1.77967098025478e+002°)
1.99526231496887e+002	(4.40492926639176e+000dB,-1.77901584699912e+002°)
2.04173794466952e+002	(4.38604936455090e+000dB,-1.77824795566894e+002°)
2.08929613085403e+002	(4.36822474657212e+000dB,-1.77737151826155e+002°)
2.13796208950222e+002	(4.35154196797364e+000dB,-1.77639110726793e+002°)
2.18776162394954e+002	(4.33608338393491e+000dB,-1.77531164032161e+002°)
2.23872113856832e+002	(4.32192676510525e+000dB,-1.77413836254287e+002°)
2.29086765276776e+002	(4.30914493174820e+000dB,-1.77287682664444e+002°)
2.34422881531991e+002	(4.29780540959418e+000dB,-1.77153287088225e+002°)
2.39883291901947e+002	(4.28797011105441e+000dB,-1.77011259497108e+002°)
2.45470891568501e+002	(4.27969504482282e+000dB,-1.76862233411117e+002°)
2.51188643150956e+002	(4.27303005703374e+000dB,-1.76706863128056e+002°)
2.57039578276885e+002	(4.26801860663494e+000dB,-1.76545820800149e+002°)
2.63026799189536e+002	(4.26469757761029e+000dB,-1.76379793378282e+002°)
2.69153480392690e+002	(4.26309712995441e+000dB,-1.76209479447748e+002°)
2.75422870333815e+002	(4.26324059135456e+000dB,-1.76035585980375e+002°)
2.81838293126443e+002	(4.26514439056250e+000dB,-1.75858825029209e+002°)
2.88403150312659e+002	(4.26881803366400e+000dB,-1.75679910393035e+002°)
2.95120922666637e+002	(4.27426412329267e+000dB,-1.75499554278836e+002°)
3.01995172040200e+002	(4.28147842081997e+000dB,-1.75318463989773e+002°)
3.09029543251357e+002	(4.29044995098545e+000dB,-1.75137338667056e+002°)
3.16227766016836e+002	(4.30116114768887e+000dB,-1.74956866111861e+002°)
3.23593656929626e+002	(4.31358803977317e+000dB,-1.74777719714641e+002°)
3.31131121482589e+002	(4.32770047443462e+000dB,-1.74600555515414e+002°)
3.38844156139200e+002	(4.34346237634043e+000dB,-1.74426009418815e+002°)
3.46736850452529e+002	(4.36083203948138e+000dB,-1.74254694584428e+002°)
3.54813389233573e+002	(4.37976244882279e+000dB,-1.74087199011167e+002°)
3.63078054770099e+002	(4.40020162858345e+000dB,-1.73924083332270e+002°)
3.71535229097170e+002	(4.42209301360188e+000dB,-1.73765878833492e+002°)
3.80189396320558e+002	(4.44537584006513e+000dB,-1.73613085706975e+002°)
3.89045144994278e+002	(4.46998555216998e+000dB,-1.73466171546690e+002°)
3.98107170553494e+002	(4.49585422057018e+000dB,-1.73325570092778e+002°)
4.07380277804110e+002	(4.52291096918119e+000dB,-1.73191680225667e+002°)
4.16869383470332e+002	(4.55108240633626e+000dB,-1.73064865210543e+002°)
4.26579518801589e+002	(4.58029305694455e+000dB,-1.72945452189399e+002°)
4.36515832240163e+002	(4.61046579196277e+000dB,-1.72833731914942e+002°)
4.46683592150960e+002	(4.64152225200186e+000dB,-1.72729958720039e+002°)
4.57088189614872e+002	(4.67338326194109e+000dB,-1.72634350712166e+002°)
4.67735141287195e+002	(4.70596923368123e+000dB,-1.72547090182525e+002°)
4.78630092322635e+002	(4.73920055444160e+000dB,-1.72468324217198e+002°)
4.89778819368443e+002	(4.77299795828620e+000dB,-1.72398165495770e+002°)
5.01187233627268e+002	(4.80728287878666e+000dB,-1.72336693262955e+002°)
5.12861383991361e+002	(4.84197778108646e+000dB,-1.72283954456961e+002°)
5.24807460249769e+002	(4.87700647189348e+000dB,-1.72239964978689e+002°)
5.37031796370249e+002	(4.91229438618681e+000dB,-1.72204711083995e+002°)
5.49540873857620e+002	(4.94776884978031e+000dB,-1.72178150883233e+002°)
5.62341325190345e+002	(4.98335931705780e+000dB,-1.72160215929738e+002°)
5.75439937337152e+002	(5.01899758356507e+000dB,-1.72150812881812e+002°)
