Freq.	V(out)
1.00000000000000e+001	(-3.57329390449905e-004dB,-5.21475332347347e-001°)
1.00230523807790e+001	(-3.57695210053004e-004dB,-5.22677468302075e-001°)
1.00461579027840e+001	(-3.58062718375913e-004dB,-5.23882375543748e-001°)
1.00693166885180e+001	(-3.58431923192612e-004dB,-5.25090060461374e-001°)
1.00925288607668e+001	(-3.58802832360017e-004dB,-5.26300529458700e-001°)
1.01157945425990e+001	(-3.59175453719618e-004dB,-5.27513788954236e-001°)
1.01391138573668e+001	(-3.59549795192948e-004dB,-5.28729845381290e-001°)
1.01624869287070e+001	(-3.59925864728547e-004dB,-5.29948705188008e-001°)
1.01859138805412e+001	(-3.60303670285563e-004dB,-5.31170374837404e-001°)
1.02093948370768e+001	(-3.60683219876189e-004dB,-5.32394860807391e-001°)
1.02329299228075e+001	(-3.61064521569516e-004dB,-5.33622169590822e-001°)
1.02565192625141e+001	(-3.61447583444282e-004dB,-5.34852307695521e-001°)
1.02801629812647e+001	(-3.61832413638055e-004dB,-5.36085281644316e-001°)
1.03038612044162e+001	(-3.62219020299976e-004dB,-5.37321097975080e-001°)
1.03276140576140e+001	(-3.62607411638016e-004dB,-5.38559763240757e-001°)
1.03514216667934e+001	(-3.62997595888116e-004dB,-5.39801284009402e-001°)
1.03752841581801e+001	(-3.63389581332508e-004dB,-5.41045666864218e-001°)
1.03992016582906e+001	(-3.63783376295859e-004dB,-5.42292918403585e-001°)
1.04231742939330e+001	(-3.64178989101874e-004dB,-5.43543045241097e-001°)
1.04472021922080e+001	(-3.64576428172627e-004dB,-5.44796054005600e-001°)
1.04712854805090e+001	(-3.64975701934052e-004dB,-5.46051951341228e-001°)
1.04954242865232e+001	(-3.65376818842946e-004dB,-5.47310743907427e-001°)
1.05196187382322e+001	(-3.65779787429398e-004dB,-5.48572438379009e-001°)
1.05438689639126e+001	(-3.66184616217717e-004dB,-5.49837041446170e-001°)
1.05681750921366e+001	(-3.66591313821900e-004dB,-5.51104559814536e-001°)
1.05925372517729e+001	(-3.66999888846301e-004dB,-5.52375000205193e-001°)
1.06169555719872e+001	(-3.67410349968573e-004dB,-5.53648369354729e-001°)
1.06414301822431e+001	(-3.67822705896262e-004dB,-5.54924674015261e-001°)
1.06659612123026e+001	(-3.68236965388033e-004dB,-5.56203920954479e-001°)
1.06905487922266e+001	(-3.68653137215088e-004dB,-5.57486116955678e-001°)
1.07151930523761e+001	(-3.69071230208425e-004dB,-5.58771268817793e-001°)
1.07398941234124e+001	(-3.69491253246296e-004dB,-5.60059383355439e-001°)
1.07646521362983e+001	(-3.69913215237819e-004dB,-5.61350467398943e-001°)
1.07894672222983e+001	(-3.70337125132617e-004dB,-5.62644527794382e-001°)
1.08143395129794e+001	(-3.70762991926604e-004dB,-5.63941571403622e-001°)
1.08392691402120e+001	(-3.71190824648489e-004dB,-5.65241605104347e-001°)
1.08642562361706e+001	(-3.71620632369415e-004dB,-5.66544635790104e-001°)
1.08893009333343e+001	(-3.72052424224175e-004dB,-5.67850670370337e-001°)
1.09144033644875e+001	(-3.72486209366855e-004dB,-5.69159715770419e-001°)
1.09395636627209e+001	(-3.72921996983366e-004dB,-5.70471778931695e-001°)
1.09647819614318e+001	(-3.73359796348346e-004dB,-5.71786866811515e-001°)
1.09900583943252e+001	(-3.73799616722934e-004dB,-5.73104986383272e-001°)
1.10153930954141e+001	(-3.74241467463745e-004dB,-5.74426144636440e-001°)
1.10407861990207e+001	(-3.74685357926434e-004dB,-5.75750348576610e-001°)
1.10662378397766e+001	(-3.75131297525485e-004dB,-5.77077605225527e-001°)
1.10917481526240e+001	(-3.75579295732282e-004dB,-5.78407921621129e-001°)
1.11173172728159e+001	(-3.76029362051968e-004dB,-5.79741304817581e-001°)
1.11429453359173e+001	(-3.76481506021511e-004dB,-5.81077761885317e-001°)
1.11686324778056e+001	(-3.76935737237674e-004dB,-5.82417299911073e-001°)
1.11943788346715e+001	(-3.77392065343516e-004dB,-5.83759925997926e-001°)
1.12201845430196e+001	(-3.77850500017777e-004dB,-5.85105647265337e-001°)
1.12460497396692e+001	(-3.78311050986457e-004dB,-5.86454470849179e-001°)
1.12719745617551e+001	(-3.78773728007385e-004dB,-5.87806403901783e-001°)
1.12979591467279e+001	(-3.79238540914575e-004dB,-5.89161453591970e-001°)
1.13240036323555e+001	(-3.79705499560371e-004dB,-5.90519627105096e-001°)
1.13501081567231e+001	(-3.80174613846302e-004dB,-5.91880931643085e-001°)
1.13762728582343e+001	(-3.80645893738515e-004dB,-5.93245374424467e-001°)
1.14024978756117e+001	(-3.81119349227269e-004dB,-5.94612962684419e-001°)
1.14287833478977e+001	(-3.81594990354902e-004dB,-5.95983703674802e-001°)
1.14551294144553e+001	(-3.82072827214869e-004dB,-5.97357604664199e-001°)
1.14815362149688e+001	(-3.82552869948845e-004dB,-5.98734672937955e-001°)
1.15080038894443e+001	(-3.83035128737088e-004dB,-6.00114915798216e-001°)
1.15345325782109e+001	(-3.83519613814825e-004dB,-6.01498340563965e-001°)
1.15611224219210e+001	(-3.84006335454899e-004dB,-6.02884954571063e-001°)
1.15877735615512e+001	(-3.84495303977411e-004dB,-6.04274765172288e-001°)
1.16144861384034e+001	(-3.84986529774794e-004dB,-6.05667779737371e-001°)
1.16412602941049e+001	(-3.85480023259736e-004dB,-6.07064005653045e-001°)
1.16680961706096e+001	(-3.85975794895078e-004dB,-6.08463450323067e-001°)
1.16949939101987e+001	(-3.86473855204419e-004dB,-6.09866121168274e-001°)
1.17219536554813e+001	(-3.86974214765368e-004dB,-6.11272025626615e-001°)
1.17489755493953e+001	(-3.87476884174826e-004dB,-6.12681171153188e-001°)
1.17760597352080e+001	(-3.87981874113596e-004dB,-6.14093565220284e-001°)
1.18032063565173e+001	(-3.88489195275025e-004dB,-6.15509215317427e-001°)
1.18304155572516e+001	(-3.88998858442149e-004dB,-6.16928128951411e-001°)
1.18576874816716e+001	(-3.89510874420192e-004dB,-6.18350313646341e-001°)
1.18850222743701e+001	(-3.90025254078990e-004dB,-6.19775776943673e-001°)
1.19124200802737e+001	(-3.90542008315391e-004dB,-6.21204526402252e-001°)
1.19398810446427e+001	(-3.91061148103394e-004dB,-6.22636569598358e-001°)
1.19674053130724e+001	(-3.91582684471009e-004dB,-6.24071914125741e-001°)
1.19949930314937e+001	(-3.92106628464572e-004dB,-6.25510567595658e-001°)
1.20226443461741e+001	(-3.92632991206612e-004dB,-6.26952537636926e-001°)
1.20503594037179e+001	(-3.93161783850520e-004dB,-6.28397831895948e-001°)
1.20781383510678e+001	(-3.93693017635521e-004dB,-6.29846458036763e-001°)
1.21059813355048e+001	(-3.94226703825919e-004dB,-6.31298423741084e-001°)
1.21338885046497e+001	(-3.94762853747743e-004dB,-6.32753736708339e-001°)
1.21618600064636e+001	(-3.95301478764636e-004dB,-6.34212404655708e-001°)
1.21898959892486e+001	(-3.95842590322220e-004dB,-6.35674435318173e-001°)
1.22179966016487e+001	(-3.96386199876726e-004dB,-6.37139836448548e-001°)
1.22461619926504e+001	(-3.96932318989512e-004dB,-6.38608615817530e-001°)
1.22743923115840e+001	(-3.97480959220972e-004dB,-6.40080781213735e-001°)
1.23026877081238e+001	(-3.98032132224086e-004dB,-6.41556340443737e-001°)
1.23310483322890e+001	(-3.98585849701988e-004dB,-6.43035301332118e-001°)
1.23594743344450e+001	(-3.99142123395426e-004dB,-6.44517671721502e-001°)
1.23879658653036e+001	(-3.99700965102052e-004dB,-6.46003459472598e-001°)
1.24165230759240e+001	(-4.00262386681244e-004dB,-6.47492672464242e-001°)
1.24451461177138e+001	(-4.00826400038673e-004dB,-6.48985318593443e-001°)
1.24738351424294e+001	(-4.01393017160059e-004dB,-6.50481405775420e-001°)
1.25025903021771e+001	(-4.01962250046560e-004dB,-6.51980941943644e-001°)
1.25314117494141e+001	(-4.02534110775521e-004dB,-6.53483935049883e-001°)
1.25602996369487e+001	(-4.03108611505302e-004dB,-6.54990393064243e-001°)
1.25892541179416e+001	(-4.03685764403913e-004dB,-6.56500323975210e-001°)
1.26182753459066e+001	(-4.04265581712659e-004dB,-6.58013735789692e-001°)
1.26473634747114e+001	(-4.04848075756755e-004dB,-6.59530636533062e-001°)
1.26765186585784e+001	(-4.05433258872027e-004dB,-6.61051034249204e-001°)
1.27057410520853e+001	(-4.06021143475315e-004dB,-6.62574937000545e-001°)
1.27350308101665e+001	(-4.06611742065437e-004dB,-6.64102352868116e-001°)
1.27643880881134e+001	(-4.07205067148930e-004dB,-6.65633289951575e-001°)
1.27938130415752e+001	(-4.07801131314312e-004dB,-6.67167756369263e-001°)
1.28233058265601e+001	(-4.08399947219539e-004dB,-6.68705760258243e-001°)
1.28528665994361e+001	(-4.09001527578508e-004dB,-6.70247309774344e-001°)
1.28824955169313e+001	(-4.09605885130196e-004dB,-6.71792413092203e-001°)
1.29121927361353e+001	(-4.10213032708094e-004dB,-6.73341078405307e-001°)
1.29419584144998e+001	(-4.10822983208384e-004dB,-6.74893313926046e-001°)
1.29717927098395e+001	(-4.11435749555220e-004dB,-6.76449127885743e-001°)
1.30016957803328e+001	(-4.12051344760523e-004dB,-6.78008528534703e-001°)
1.30316677845229e+001	(-4.12669781879614e-004dB,-6.79571524142264e-001°)
1.30617088813183e+001	(-4.13291074023757e-004dB,-6.81138122996830e-001°)
1.30918192299940e+001	(-4.13915234399694e-004dB,-6.82708333405922e-001°)
1.31219989901920e+001	(-4.14542276240212e-004dB,-6.84282163696221e-001°)
1.31522483219223e+001	(-4.15172212852361e-004dB,-6.85859622213607e-001°)
1.31825673855640e+001	(-4.15805057588524e-004dB,-6.87440717323210e-001°)
1.32129563418657e+001	(-4.16440823904278e-004dB,-6.89025457409455e-001°)
1.32434153519466e+001	(-4.17079525251351e-004dB,-6.90613850876100e-001°)
1.32739445772973e+001	(-4.17721175206845e-004dB,-6.92205906146280e-001°)
1.33045441797808e+001	(-4.18365787396088e-004dB,-6.93801631662568e-001°)
1.33352143216332e+001	(-4.19013375471418e-004dB,-6.95401035886994e-001°)
1.33659551654643e+001	(-4.19663953178724e-004dB,-6.97004127301112e-001°)
1.33967668742593e+001	(-4.20317534331407e-004dB,-6.98610914406036e-001°)
1.34276496113785e+001	(-4.20974132795920e-004dB,-7.00221405722483e-001°)
1.34586035405594e+001	(-4.21633762487902e-004dB,-7.01835609790821e-001°)
1.34896288259164e+001	(-4.22296437436797e-004dB,-7.03453535171119e-001°)
1.35207256319427e+001	(-4.22962171679773e-004dB,-7.05075190443184e-001°)
1.35518941235103e+001	(-4.23630979350441e-004dB,-7.06700584206610e-001°)
1.35831344658714e+001	(-4.24302874623888e-004dB,-7.08329725080827e-001°)
1.36144468246594e+001	(-4.24977871781292e-004dB,-7.09962621705141e-001°)
1.36458313658891e+001	(-4.25655985127945e-004dB,-7.11599282738786e-001°)
1.36772882559584e+001	(-4.26337229060764e-004dB,-7.13239716860962e-001°)
1.37088176616484e+001	(-4.27021618031643e-004dB,-7.14883932770894e-001°)
1.37404197501251e+001	(-4.27709166559027e-004dB,-7.16531939187861e-001°)
1.37720946889394e+001	(-4.28399889249125e-004dB,-7.18183744851258e-001°)
1.38038426460287e+001	(-4.29093800738051e-004dB,-7.19839358520634e-001°)
1.38356637897177e+001	(-4.29790915767045e-004dB,-7.21498788975738e-001°)
1.38675582887188e+001	(-4.30491249109177e-004dB,-7.23162045016570e-001°)
1.38995263121334e+001	(-4.31194815641681e-004dB,-7.24829135463428e-001°)
1.39315680294529e+001	(-4.31901630283265e-004dB,-7.26500069156948e-001°)
1.39636836105593e+001	(-4.32611708039441e-004dB,-7.28174854958161e-001°)
1.39958732257261e+001	(-4.33325063976484e-004dB,-7.29853501748529e-001°)
1.40281370456195e+001	(-4.34041713226256e-004dB,-7.31536018430004e-001°)
1.40604752412990e+001	(-4.34761670991991e-004dB,-7.33222413925061e-001°)
1.40928879842186e+001	(-4.35484952568548e-004dB,-7.34912697176762e-001°)
1.41253754462274e+001	(-4.36211573289369e-004dB,-7.36606877148791e-001°)
1.41579377995707e+001	(-4.36941548567950e-004dB,-7.38304962825504e-001°)
1.41905752168908e+001	(-4.37674893915197e-004dB,-7.40006963211986e-001°)
1.42232878712281e+001	(-4.38411624871919e-004dB,-7.41712887334076e-001°)
1.42560759360218e+001	(-4.39151757080197e-004dB,-7.43422744238450e-001°)
1.42889395851109e+001	(-4.39895306256377e-004dB,-7.45136542992636e-001°)
1.43218789927353e+001	(-4.40642288155388e-004dB,-7.46854292685075e-001°)
1.43548943335364e+001	(-4.41392718635359e-004dB,-7.48576002425177e-001°)
1.43879857825583e+001	(-4.42146613639292e-004dB,-7.50301681343357e-001°)
1.44211535152486e+001	(-4.42903989142024e-004dB,-7.52031338591093e-001°)
1.44543977074592e+001	(-4.43664861225448e-004dB,-7.53764983340963e-001°)
1.44877185354475e+001	(-4.44429246024506e-004dB,-7.55502624786706e-001°)
1.45211161758773e+001	(-4.45197159780232e-004dB,-7.57244272143268e-001°)
1.45545908058195e+001	(-4.45968618770317e-004dB,-7.58989934646845e-001°)
1.45881426027534e+001	(-4.46743639380473e-004dB,-7.60739621554935e-001°)
1.46217717445671e+001	(-4.47522238045603e-004dB,-7.62493342146392e-001°)
1.46554784095590e+001	(-4.48304431281630e-004dB,-7.64251105721468e-001°)
1.46892627764385e+001	(-4.49090235703818e-004dB,-7.66012921601867e-001°)
1.47231250243271e+001	(-4.49879667983375e-004dB,-7.67778799130792e-001°)
1.47570653327588e+001	(-4.50672744859990e-004dB,-7.69548747672999e-001°)
1.47910838816819e+001	(-4.51469483180409e-004dB,-7.71322776614841e-001°)
1.48251808514594e+001	(-4.52269899839609e-004dB,-7.73100895364322e-001°)
1.48593564228699e+001	(-4.53074011827084e-004dB,-7.74883113351141e-001°)
1.48936107771090e+001	(-4.53881836216243e-004dB,-7.76669440026756e-001°)
1.49279440957898e+001	(-4.54693390124865e-004dB,-7.78459884864416e-001°)
1.49623565609442e+001	(-4.55508690799968e-004dB,-7.80254457359225e-001°)
1.49968483550236e+001	(-4.56327755543551e-004dB,-7.82053167028184e-001°)
1.50314196609001e+001	(-4.57150601714522e-004dB,-7.83856023410251e-001°)
1.50660706618673e+001	(-4.57977246794278e-004dB,-7.85663036066379e-001°)
1.51008015416413e+001	(-4.58807708316302e-004dB,-7.87474214579579e-001°)
1.51356124843619e+001	(-4.59642003905707e-004dB,-7.89289568554963e-001°)
1.51705036745932e+001	(-4.60480151268623e-004dB,-7.91109107619799e-001°)
1.52054752973248e+001	(-4.61322168197987e-004dB,-7.92932841423559e-001°)
1.52405275379728e+001	(-4.62168072557150e-004dB,-7.94760779637975e-001°)
1.52756605823806e+001	(-4.63017882294337e-004dB,-7.96592931957085e-001°)
1.53108746168202e+001	(-4.63871615454226e-004dB,-7.98429308097289e-001°)
1.53461698279928e+001	(-4.64729290123938e-004dB,-8.00269917797394e-001°)
1.53815464030302e+001	(-4.65590924556480e-004dB,-8.02114770818677e-001°)
1.54170045294954e+001	(-4.66456536993301e-004dB,-8.03963876944927e-001°)
1.54525443953840e+001	(-4.67326145818589e-004dB,-8.05817245982500e-001°)
1.54881661891247e+001	(-4.68199769492731e-004dB,-8.07674887760373e-001°)
1.55238700995807e+001	(-4.69077426546527e-004dB,-8.09536812130193e-001°)
1.55596563160506e+001	(-4.69959135616872e-004dB,-8.11403028966332e-001°)
1.55955250282694e+001	(-4.70844915421682e-004dB,-8.13273548165938e-001°)
1.56314764264094e+001	(-4.71734784731928e-004dB,-8.15148379648988e-001°)
1.56675107010813e+001	(-4.72628762450713e-004dB,-8.17027533358339e-001°)
1.57036280433354e+001	(-4.73526867555411e-004dB,-8.18911019259789e-001°)
1.57398286446620e+001	(-4.74429119085131e-004dB,-8.20798847342115e-001°)
1.57761126969933e+001	(-4.75335536208224e-004dB,-8.22691027617142e-001°)
1.58124803927037e+001	(-4.76246138150914e-004dB,-8.24587570119785e-001°)
1.58489319246110e+001	(-4.77160944249382e-004dB,-8.26488484908106e-001°)
1.58854674859776e+001	(-4.78079973909256e-004dB,-8.28393782063368e-001°)
1.59220872705115e+001	(-4.79003246634548e-004dB,-8.30303471690093e-001°)
1.59587914723672e+001	(-4.79930782016077e-004dB,-8.32217563916104e-001°)
1.59955802861465e+001	(-4.80862599757509e-004dB,-8.34136068892591e-001°)
1.60324539069002e+001	(-4.81798719619423e-004dB,-8.36058996794156e-001°)
1.60694125301286e+001	(-4.82739161463675e-004dB,-8.37986357818871e-001°)
1.61064563517825e+001	(-4.83683945267859e-004dB,-8.39918162188338e-001°)
1.61435855682647e+001	(-4.84633091066485e-004dB,-8.41854420147732e-001°)
1.61808003764305e+001	(-4.85586619010767e-004dB,-8.43795141965858e-001°)
1.62181009735891e+001	(-4.86544549344516e-004dB,-8.45740337935216e-001°)
1.62554875575047e+001	(-4.87506902383886e-004dB,-8.47690018372046e-001°)
1.62929603263970e+001	(-4.88473698560774e-004dB,-8.49644193616380e-001°)
1.63305194789432e+001	(-4.89444958405460e-004dB,-8.51602874032109e-001°)
1.63681652142779e+001	(-4.90420702508993e-004dB,-8.53566070007024e-001°)
1.64058977319952e+001	(-4.91400951588776e-004dB,-8.55533791952882e-001°)
1.64437172321491e+001	(-4.92385726463487e-004dB,-8.57506050305462e-001°)
1.64816239152549e+001	(-4.93375048009684e-004dB,-8.59482855524608e-001°)
1.65196179822900e+001	(-4.94368937251490e-004dB,-8.61464218094298e-001°)
1.65576996346951e+001	(-4.95367415266088e-004dB,-8.63450148522691e-001°)
1.65958690743754e+001	(-4.96370503247367e-004dB,-8.65440657342192e-001°)
1.66341265037015e+001	(-4.97378222493388e-004dB,-8.67435755109494e-001°)
1.66724721255104e+001	(-4.98390594364913e-004dB,-8.69435452405647e-001°)
1.67109061431069e+001	(-4.99407640399204e-004dB,-8.71439759836115e-001°)
1.67494287602642e+001	(-5.00429382138361e-004dB,-8.73448688030816e-001°)
1.67880401812254e+001	(-5.01455841280734e-004dB,-8.75462247644198e-001°)
1.68267406107045e+001	(-5.02487039618235e-004dB,-8.77480449355286e-001°)
1.68655302538872e+001	(-5.03522999030552e-004dB,-8.79503303867734e-001°)
1.69044093164324e+001	(-5.04563741516013e-004dB,-8.81530821909895e-001°)
1.69433780044731e+001	(-5.05609289154935e-004dB,-8.83563014234870e-001°)
1.69824365246172e+001	(-5.06659664136629e-004dB,-8.85599891620562e-001°)
1.70215850839493e+001	(-5.07714888773866e-004dB,-8.87641464869741e-001°)
1.70608238900310e+001	(-5.08774985436336e-004dB,-8.89687744810098e-001°)
1.71001531509027e+001	(-5.09839976643226e-004dB,-8.91738742294300e-001°)
1.71395730750841e+001	(-5.10909885006324e-004dB,-8.93794468200052e-001°)
1.71790838715757e+001	(-5.11984733219410e-004dB,-8.95854933430153e-001°)
1.72186857498599e+001	(-5.13064544092972e-004dB,-8.97920148912554e-001°)
1.72583789199018e+001	(-5.14149340554213e-004dB,-8.99990125600411e-001°)
1.72981635921508e+001	(-5.15239145638364e-004dB,-9.02064874472161e-001°)
1.73380399775412e+001	(-5.16333982459754e-004dB,-9.04144406531552e-001°)
1.73780082874935e+001	(-5.17433874257143e-004dB,-9.06228732807732e-001°)
1.74180687339159e+001	(-5.18538844398535e-004dB,-9.08317864355278e-001°)
1.74582215292048e+001	(-5.19648916332000e-004dB,-9.10411812254283e-001°)
1.74984668862464e+001	(-5.20764113592424e-004dB,-9.12510587610396e-001°)
1.75388050184174e+001	(-5.21884459876732e-004dB,-9.14614201554884e-001°)
1.75792361395867e+001	(-5.23009978964803e-004dB,-9.16722665244698e-001°)
1.76197604641161e+001	(-5.24140694736840e-004dB,-9.18835989862524e-001°)
1.76603782068614e+001	(-5.25276631196504e-004dB,-9.20954186616855e-001°)
1.77010895831740e+001	(-5.26417812464172e-004dB,-9.23077266742032e-001°)
1.77418948089014e+001	(-5.27564262756678e-004dB,-9.25205241498321e-001°)
1.77827941003890e+001	(-5.28716006404681e-004dB,-9.27338122171962e-001°)
1.78237876744807e+001	(-5.29873067867120e-004dB,-9.29475920075235e-001°)
1.78648757485203e+001	(-5.31035471694580e-004dB,-9.31618646546516e-001°)
1.79060585403527e+001	(-5.32203242552425e-004dB,-9.33766312950343e-001°)
1.79473362683250e+001	(-5.33376405254562e-004dB,-9.35918930677469e-001°)
1.79887091512877e+001	(-5.34554984698820e-004dB,-9.38076511144932e-001°)
1.80301774085955e+001	(-5.35739005881422e-004dB,-9.40239065796102e-001°)
1.80717412601090e+001	(-5.36928493955807e-004dB,-9.42406606100755e-001°)
1.81134009261958e+001	(-5.38123474161270e-004dB,-9.44579143555131e-001°)
1.81551566277311e+001	(-5.39323971874074e-004dB,-9.46756689681989e-001°)
1.81970085860996e+001	(-5.40530012567908e-004dB,-9.48939256030672e-001°)
1.82389570231961e+001	(-5.41741621844751e-004dB,-9.51126854177172e-001°)
1.82810021614272e+001	(-5.42958825448371e-004dB,-9.53319495724189e-001°)
1.83231442237119e+001	(-5.44181649172709e-004dB,-9.55517192301189e-001°)
1.83653834334832e+001	(-5.45410119004610e-004dB,-9.57719955564469e-001°)
1.84077200146893e+001	(-5.46644261016773e-004dB,-9.59927797197226e-001°)
1.84501541917945e+001	(-5.47884101411155e-004dB,-9.62140728909603e-001°)
1.84926861897805e+001	(-5.49129666506426e-004dB,-9.64358762438763e-001°)
1.85353162341479e+001	(-5.50380982733155e-004dB,-9.66581909548952e-001°)
1.85780445509167e+001	(-5.51638076671414e-004dB,-9.68810182031557e-001°)
1.86208713666284e+001	(-5.52900974991958e-004dB,-9.71043591705170e-001°)
1.86637969083464e+001	(-5.54169704517940e-004dB,-9.73282150415654e-001°)
1.87068214036578e+001	(-5.55444292168017e-004dB,-9.75525870036194e-001°)
