Freq.	V(outder)/V(VIN)
1.00000000000000e+001	(-4.33679468640409e+001dB,-9.00000457201578e+001°)
1.02329299228075e+001	(-4.31679468618663e+001dB,-9.00000467851171e+001°)
1.04712854805090e+001	(-4.29679468595891e+001dB,-9.00000478748825e+001°)
1.07151930523761e+001	(-4.27679468572047e+001dB,-9.00000489900317e+001°)
1.09647819614319e+001	(-4.25679468547078e+001dB,-9.00000501311562e+001°)
1.12201845430196e+001	(-4.23679468520933e+001dB,-9.00000512988608e+001°)
1.14815362149688e+001	(-4.21679468493556e+001dB,-9.00000524937648e+001°)
1.17489755493953e+001	(-4.19679468464889e+001dB,-9.00000537165017e+001°)
1.20226443461741e+001	(-4.17679468434871e+001dB,-9.00000549677197e+001°)
1.23026877081238e+001	(-4.15679468403437e+001dB,-9.00000562480824e+001°)
1.25892541179417e+001	(-4.13679468370523e+001dB,-9.00000575582685e+001°)
1.28824955169313e+001	(-4.11679468336057e+001dB,-9.00000588989728e+001°)
1.31825673855641e+001	(-4.09679468299967e+001dB,-9.00000602709061e+001°)
1.34896288259165e+001	(-4.07679468262176e+001dB,-9.00000616747959e+001°)
1.38038426460288e+001	(-4.05679468222604e+001dB,-9.00000631113864e+001°)
1.41253754462275e+001	(-4.03679468181167e+001dB,-9.00000645814395e+001°)
1.44543977074593e+001	(-4.01679468137777e+001dB,-9.00000660857345e+001°)
1.47910838816821e+001	(-3.99679468092342e+001dB,-9.00000676250690e+001°)
1.51356124843621e+001	(-3.97679468044766e+001dB,-9.00000692002592e+001°)
1.54881661891248e+001	(-3.95679467994948e+001dB,-9.00000708121403e+001°)
1.58489319246111e+001	(-3.93679467942782e+001dB,-9.00000724615669e+001°)
1.62181009735893e+001	(-3.91679467888157e+001dB,-9.00000741494136e+001°)
1.65958690743756e+001	(-3.89679467830958e+001dB,-9.00000758765754e+001°)
1.69824365246174e+001	(-3.87679467771064e+001dB,-9.00000776439678e+001°)
1.73780082874937e+001	(-3.85679467708346e+001dB,-9.00000794525282e+001°)
1.77827941003892e+001	(-3.83679467642673e+001dB,-9.00000813032153e+001°)
1.81970085860998e+001	(-3.81679467573905e+001dB,-9.00000831970105e+001°)
1.86208713666287e+001	(-3.79679467501895e+001dB,-9.00000851349178e+001°)
1.90546071796325e+001	(-3.77679467426492e+001dB,-9.00000871179648e+001°)
1.94984459975804e+001	(-3.75679467347536e+001dB,-9.00000891472029e+001°)
1.99526231496888e+001	(-3.73679467264858e+001dB,-9.00000912237080e+001°)
2.04173794466953e+001	(-3.71679467178284e+001dB,-9.00000933485811e+001°)
2.08929613085404e+001	(-3.69679467087630e+001dB,-9.00000955229489e+001°)
2.13796208950223e+001	(-3.67679466992703e+001dB,-9.00000977479642e+001°)
2.18776162394955e+001	(-3.65679466893303e+001dB,-9.00001000248068e+001°)
2.23872113856834e+001	(-3.63679466789218e+001dB,-9.00001023546838e+001°)
2.29086765276777e+001	(-3.61679466680227e+001dB,-9.00001047388307e+001°)
2.34422881531992e+001	(-3.59679466566100e+001dB,-9.00001071785115e+001°)
2.39883291901949e+001	(-3.57679466446594e+001dB,-9.00001096750197e+001°)
2.45470891568503e+001	(-3.55679466321457e+001dB,-9.00001122296791e+001°)
2.51188643150958e+001	(-3.53679466190422e+001dB,-9.00001148438442e+001°)
2.57039578276886e+001	(-3.51679466053211e+001dB,-9.00001175189010e+001°)
2.63026799189538e+001	(-3.49679465909533e+001dB,-9.00001202562678e+001°)
2.69153480392691e+001	(-3.47679465759085e+001dB,-9.00001230573961e+001°)
2.75422870333816e+001	(-3.45679465601546e+001dB,-9.00001259237711e+001°)
2.81838293126445e+001	(-3.43679465436582e+001dB,-9.00001288569125e+001°)
2.88403150312660e+001	(-3.41679465263844e+001dB,-9.00001318583756e+001°)
2.95120922666638e+001	(-3.39679465082965e+001dB,-9.00001349297518e+001°)
3.01995172040201e+001	(-3.37679464893561e+001dB,-9.00001380726694e+001°)
3.09029543251359e+001	(-3.35679464695231e+001dB,-9.00001412887951e+001°)
3.16227766016838e+001	(-3.33679464487554e+001dB,-9.00001445798339e+001°)
3.23593656929628e+001	(-3.31679464270090e+001dB,-9.00001479475308e+001°)
3.31131121482591e+001	(-3.29679464042376e+001dB,-9.00001513936716e+001°)
3.38844156139202e+001	(-3.27679463803931e+001dB,-9.00001549200832e+001°)
3.46736850452531e+001	(-3.25679463554249e+001dB,-9.00001585286355e+001°)
3.54813389233575e+001	(-3.23679463292799e+001dB,-9.00001622212418e+001°)
3.63078054770101e+001	(-3.21679463019027e+001dB,-9.00001659998599e+001°)
3.71535229097172e+001	(-3.19679462732353e+001dB,-9.00001698664934e+001°)
3.80189396320561e+001	(-3.17679462432169e+001dB,-9.00001738231923e+001°)
3.89045144994280e+001	(-3.15679462117837e+001dB,-9.00001778720546e+001°)
3.98107170553497e+001	(-3.13679461788691e+001dB,-9.00001820152270e+001°)
4.07380277804112e+001	(-3.11679461444033e+001dB,-9.00001862549063e+001°)
4.16869383470335e+001	(-3.09679461083132e+001dB,-9.00001905933404e+001°)
4.26579518801592e+001	(-3.07679460705222e+001dB,-9.00001950328297e+001°)
4.36515832240165e+001	(-3.05679460309502e+001dB,-9.00001995757279e+001°)
4.46683592150962e+001	(-3.03679459895132e+001dB,-9.00002042244438e+001°)
4.57088189614874e+001	(-3.01679459461233e+001dB,-9.00002089814422e+001°)
4.67735141287197e+001	(-2.99679459006885e+001dB,-9.00002138492454e+001°)
4.78630092322638e+001	(-2.97679458531125e+001dB,-9.00002188304342e+001°)
4.89778819368445e+001	(-2.95679458032943e+001dB,-9.00002239276499e+001°)
5.01187233627271e+001	(-2.93679457511282e+001dB,-9.00002291435950e+001°)
5.12861383991364e+001	(-2.91679456965035e+001dB,-9.00002344810350e+001°)
5.24807460249772e+001	(-2.89679456393046e+001dB,-9.00002399428000e+001°)
5.37031796370252e+001	(-2.87679455794099e+001dB,-9.00002455317858e+001°)
5.49540873857624e+001	(-2.85679455166924e+001dB,-9.00002512509558e+001°)
5.62341325190348e+001	(-2.83679454510192e+001dB,-9.00002571033424e+001°)
5.75439937337156e+001	(-2.81679453822509e+001dB,-9.00002630920487e+001°)
5.88843655355588e+001	(-2.79679453102416e+001dB,-9.00002692202498e+001°)
6.02559586074357e+001	(-2.77679452348386e+001dB,-9.00002754911950e+001°)
6.16595001861481e+001	(-2.75679451558821e+001dB,-9.00002819082094e+001°)
6.30957344480192e+001	(-2.73679450732044e+001dB,-9.00002884746952e+001°)
6.45654229034654e+001	(-2.71679449866302e+001dB,-9.00002951941341e+001°)
6.60693448007595e+001	(-2.69679448959759e+001dB,-9.00003020700889e+001°)
6.76082975391980e+001	(-2.67679448010492e+001dB,-9.00003091062052e+001°)
6.91830970918935e+001	(-2.65679447016487e+001dB,-9.00003163062137e+001°)
7.07945784384136e+001	(-2.63679445975637e+001dB,-9.00003236739320e+001°)
7.24435960074988e+001	(-2.61679444885732e+001dB,-9.00003312132665e+001°)
7.41310241300916e+001	(-2.59679443744462e+001dB,-9.00003389282147e+001°)
7.58577575029182e+001	(-2.57679442549406e+001dB,-9.00003468228671e+001°)
7.76247116628690e+001	(-2.55679441298028e+001dB,-9.00003549014096e+001°)
7.94328234724279e+001	(-2.53679439987675e+001dB,-9.00003631681255e+001°)
8.12830516164097e+001	(-2.51679438615566e+001dB,-9.00003716273980e+001°)
8.31763771102669e+001	(-2.49679437178792e+001dB,-9.00003802837123e+001°)
8.51138038202374e+001	(-2.47679435674305e+001dB,-9.00003891416580e+001°)
8.70963589956078e+001	(-2.45679434098914e+001dB,-9.00003982059319e+001°)
8.91250938133743e+001	(-2.43679432449276e+001dB,-9.00004074813398e+001°)
9.12010839355907e+001	(-2.41679430721894e+001dB,-9.00004169727997e+001°)
9.33254300796988e+001	(-2.39679428913102e+001dB,-9.00004266853441e+001°)
9.54992586021433e+001	(-2.37679427019065e+001dB,-9.00004366241228e+001°)
9.77237220955808e+001	(-2.35679425035765e+001dB,-9.00004467944053e+001°)
9.99999999999997e+001	(-2.33679422958994e+001dB,-9.00004572015842e+001°)
1.02329299228075e+002	(-2.31679420784348e+001dB,-9.00004678511775e+001°)
1.04712854805090e+002	(-2.29679418507215e+001dB,-9.00004787488317e+001°)
1.07151930523760e+002	(-2.27679416122763e+001dB,-9.00004899003249e+001°)
1.09647819614318e+002	(-2.25679413625935e+001dB,-9.00005013115697e+001°)
1.12201845430196e+002	(-2.23679411011436e+001dB,-9.00005129886166e+001°)
1.14815362149688e+002	(-2.21679408273718e+001dB,-9.00005249376569e+001°)
1.17489755493953e+002	(-2.19679405406976e+001dB,-9.00005371650261e+001°)
1.20226443461741e+002	(-2.17679402405129e+001dB,-9.00005496772074e+001°)
1.23026877081238e+002	(-2.15679399261808e+001dB,-9.00005624808349e+001°)
1.25892541179416e+002	(-2.13679395970348e+001dB,-9.00005755826972e+001°)
1.28824955169313e+002	(-2.11679392523765e+001dB,-9.00005889897411e+001°)
1.31825673855640e+002	(-2.09679388914751e+001dB,-9.00006027090752e+001°)
1.34896288259165e+002	(-2.07679385135648e+001dB,-9.00006167479737e+001°)
1.38038426460288e+002	(-2.05679381178441e+001dB,-9.00006311138802e+001°)
1.41253754462275e+002	(-2.03679377034737e+001dB,-9.00006458144117e+001°)
1.44543977074592e+002	(-2.01679372695746e+001dB,-9.00006608573626e+001°)
1.47910838816820e+002	(-1.99679368152264e+001dB,-9.00006762507090e+001°)
1.51356124843620e+002	(-1.97679363394654e+001dB,-9.00006920026125e+001°)
1.54881661891248e+002	(-1.95679358412825e+001dB,-9.00007081214250e+001°)
1.58489319246111e+002	(-1.93679353196209e+001dB,-9.00007246156930e+001°)
1.62181009735892e+002	(-1.91679347733741e+001dB,-9.00007414941619e+001°)
1.65958690743755e+002	(-1.89679342013835e+001dB,-9.00007587657809e+001°)
1.69824365246174e+002	(-1.87679336024357e+001dB,-9.00007764397077e+001°)
1.73780082874937e+002	(-1.85679329752604e+001dB,-9.00007945253133e+001°)
1.77827941003892e+002	(-1.83679323185271e+001dB,-9.00008130321868e+001°)
1.81970085860998e+002	(-1.81679316308429e+001dB,-9.00008319701409e+001°)
1.86208713666286e+002	(-1.79679309107491e+001dB,-9.00008513492167e+001°)
1.90546071796324e+002	(-1.77679301567182e+001dB,-9.00008711796893e+001°)
1.94984459975804e+002	(-1.75679293671509e+001dB,-9.00008914720731e+001°)
1.99526231496887e+002	(-1.73679285403724e+001dB,-9.00009122371274e+001°)
2.04173794466952e+002	(-1.71679276746289e+001dB,-9.00009334858621e+001°)
2.08929613085403e+002	(-1.69679267680841e+001dB,-9.00009552295436e+001°)
2.13796208950222e+002	(-1.67679258188150e+001dB,-9.00009774797006e+001°)
2.18776162394954e+002	(-1.65679248248082e+001dB,-9.00010002481306e+001°)
2.23872113856833e+002	(-1.63679237839551e+001dB,-9.00010235469056e+001°)
2.29086765276776e+002	(-1.61679226940480e+001dB,-9.00010473883791e+001°)
2.34422881531991e+002	(-1.59679215527750e+001dB,-9.00010717851920e+001°)
2.39883291901948e+002	(-1.57679203577153e+001dB,-9.00010967502800e+001°)
2.45470891568502e+002	(-1.55679191063341e+001dB,-9.00011222968798e+001°)
2.51188643150957e+002	(-1.53679177959768e+001dB,-9.00011484385367e+001°)
2.57039578276885e+002	(-1.51679164238641e+001dB,-9.00011751891113e+001°)
2.63026799189537e+002	(-1.49679149870855e+001dB,-9.00012025627872e+001°)
2.69153480392690e+002	(-1.47679134825933e+001dB,-9.00012305740782e+001°)
2.75422870333816e+002	(-1.45679119071963e+001dB,-9.00012592378364e+001°)
2.81838293126444e+002	(-1.43679102575529e+001dB,-9.00012885692597e+001°)
2.88403150312659e+002	(-1.41679085301638e+001dB,-9.00013185839001e+001°)
2.95120922666637e+002	(-1.39679067213650e+001dB,-9.00013492976717e+001°)
3.01995172040200e+002	(-1.37679048273197e+001dB,-9.00013807268595e+001°)
3.09029543251358e+002	(-1.35679028440104e+001dB,-9.00014128881276e+001°)
3.16227766016837e+002	(-1.33679007672301e+001dB,-9.00014457985285e+001°)
3.23593656929627e+002	(-1.31678985925736e+001dB,-9.00014794755117e+001°)
3.31131121482590e+002	(-1.29678963154282e+001dB,-9.00015139369333e+001°)
3.38844156139201e+002	(-1.27678939309635e+001dB,-9.00015492010652e+001°)
3.46736850452530e+002	(-1.25678914341218e+001dB,-9.00015852866050e+001°)
3.54813389233574e+002	(-1.23678888196069e+001dB,-9.00016222126858e+001°)
3.63078054770100e+002	(-1.21678860818727e+001dB,-9.00016599988865e+001°)
3.71535229097171e+002	(-1.19678832151122e+001dB,-9.00016986652417e+001°)
3.80189396320559e+002	(-1.17678802132445e+001dB,-9.00017382322530e+001°)
3.89045144994279e+002	(-1.15678770699019e+001dB,-9.00017787208995e+001°)
3.98107170553495e+002	(-1.13678737784170e+001dB,-9.00018201526489e+001°)
4.07380277804111e+002	(-1.11678703318078e+001dB,-9.00018625494690e+001°)
4.16869383470333e+002	(-1.09678667227635e+001dB,-9.00019059338392e+001°)
4.26579518801591e+002	(-1.07678629436285e+001dB,-9.00019503287625e+001°)
4.36515832240164e+002	(-1.05678589863867e+001dB,-9.00019957577780e+001°)
4.46683592150961e+002	(-1.03678548426438e+001dB,-9.00020422449728e+001°)
4.57088189614873e+002	(-1.01678505036102e+001dB,-9.00020898149953e+001°)
4.67735141287196e+002	(-9.96784596008198e+000dB,-9.00021384930677e+001°)
4.78630092322636e+002	(-9.76784120242131e+000dB,-9.00021883050002e+001°)
4.89778819368444e+002	(-9.56783622053619e+000dB,-9.00022392772037e+001°)
5.01187233627270e+002	(-9.36783100385901e+000dB,-9.00022914367047e+001°)
5.12861383991362e+002	(-9.16782554132405e+000dB,-9.00023448111589e+001°)
5.24807460249770e+002	(-8.96781982134406e+000dB,-9.00023994288666e+001°)
5.37031796370250e+002	(-8.76781383178568e+000dB,-9.00024553187869e+001°)
5.49540873857622e+002	(-8.56780755994369e+000dB,-9.00025125105537e+001°)
5.62341325190346e+002	(-8.36780099251403e+000dB,-9.00025710344911e+001°)
5.75439937337154e+002	(-8.16779411556563e+000dB,-9.00026309216296e+001°)
5.88843655355586e+002	(-7.96778691451080e+000dB,-9.00026922037225e+001°)
6.02559586074355e+002	(-7.76777937407430e+000dB,-9.00027549132627e+001°)
6.16595001861479e+002	(-7.56777147826098e+000dB,-9.00028190835000e+001°)
6.30957344480190e+002	(-7.36776321032174e+000dB,-9.00028847484588e+001°)
6.45654229034652e+002	(-7.16775455271808e+000dB,-9.00029519429557e+001°)
6.60693448007592e+002	(-6.96774548708489e+000dB,-9.00030207026189e+001°)
6.76082975391978e+002	(-6.76773599419143e+000dB,-9.00030910639060e+001°)
6.91830970918933e+002	(-6.56772605390056e+000dB,-9.00031630641240e+001°)
7.07945784384134e+002	(-6.36771564512601e+000dB,-9.00032367414490e+001°)
7.24435960074986e+002	(-6.16770474578767e+000dB,-9.00033121349463e+001°)
7.41310241300914e+002	(-5.96769333276468e+000dB,-9.00033892845911e+001°)
7.58577575029180e+002	(-5.76768138184641e+000dB,-9.00034682312900e+001°)
7.76247116628688e+002	(-5.56766886768109e+000dB,-9.00035490169022e+001°)
7.94328234724277e+002	(-5.36765576372200e+000dB,-9.00036316842622e+001°)
8.12830516164095e+002	(-5.16764204217115e+000dB,-9.00037162772022e+001°)
8.31763771102666e+002	(-4.96762767392030e+000dB,-9.00038028405753e+001°)
8.51138038202372e+002	(-4.76761262848916e+000dB,-9.00038914202797e+001°)
8.70963589956076e+002	(-4.56759687396078e+000dB,-9.00039820632824e+001°)
8.91250938133741e+002	(-4.36758037691371e+000dB,-9.00040748176448e+001°)
9.12010839355905e+002	(-4.16756310235118e+000dB,-9.00041697325477e+001°)
9.33254300796986e+002	(-3.96754501362677e+000dB,-9.00042668583174e+001°)
9.54992586021431e+002	(-3.76752607236666e+000dB,-9.00043662464528e+001°)
9.77237220955805e+002	(-3.56750623838820e+000dB,-9.00044679496523e+001°)
9.99999999999994e+002	(-3.36748546961457e+000dB,-9.00045720218419e+001°)
1.02329299228075e+003	(-3.16746372198557e+000dB,-9.00046785182036e+001°)
1.04712854805089e+003	(-2.96744094936402e+000dB,-9.00047874952052e+001°)
1.07151930523760e+003	(-2.76741710343789e+000dB,-9.00048990106296e+001°)
1.09647819614318e+003	(-2.56739213361770e+000dB,-9.00050131236060e+001°)
1.12201845430196e+003	(-2.36736598692920e+000dB,-9.00051298946407e+001°)
1.14815362149688e+003	(-2.16733860790086e+000dB,-9.00052493856499e+001°)
1.17489755493952e+003	(-1.96730993844616e+000dB,-9.00053716599917e+001°)
1.20226443461741e+003	(-1.76727991774025e+000dB,-9.00054967825004e+001°)
1.23026877081237e+003	(-1.56724848209083e+000dB,-9.00056248195207e+001°)
1.25892541179416e+003	(-1.36721556480296e+000dB,-9.00057558389427e+001°)
1.28824955169313e+003	(-1.16718109603737e+000dB,-9.00058899102379e+001°)
1.31825673855640e+003	(-9.67145002662284e-001dB,-9.00060271044966e+001°)
1.34896288259165e+003	(-7.67107208098069e-001dB,-9.00061674944647e+001°)
1.38038426460288e+003	(-5.67067632154637e-001dB,-9.00063111545831e+001°)
1.41253754462275e+003	(-3.67026190861152e-001dB,-9.00064581610270e+001°)
1.44543977074592e+003	(-1.66982796287739e-001dB,-9.00066085917458e+001°)
1.47910838816820e+003	(3.30626436413064e-002dB,-9.00067625265050e+001°)
1.51356124843620e+003	(2.33110225343053e-001dB,-9.00069200469286e+001°)
1.54881661891247e+003	(4.33160049780712e-001dB,-9.00070812365418e+001°)
1.58489319246110e+003	(6.33212222678144e-001dB,-9.00072461808160e+001°)
1.62181009735892e+003	(8.33266854744406e-001dB,-9.00074149672136e+001°)
1.65958690743755e+003	(1.03332406190896e+000dB,-9.00075876852347e+001°)
1.69824365246173e+003	(1.23338396556801e+000dB,-9.00077644264645e+001°)
1.73780082874936e+003	(1.43344669284238e+000dB,-9.00079452846220e+001°)
1.77827941003891e+003	(1.63351237684770e+000dB,-9.00081303556096e+001°)
1.81970085860997e+003	(1.83358115697727e+000dB,-9.00083197375640e+001°)
1.86208713666286e+003	(2.03365317919830e+000dB,-9.00085135309084e+001°)
1.90546071796323e+003	(2.23372859636218e+000dB,-9.00087118384057e+001°)
1.94984459975803e+003	(2.43380756852944e+000dB,-9.00089147652130e+001°)
1.99526231496887e+003	(2.63389026330993e+000dB,-9.00091224189377e+001°)
2.04173794466952e+003	(2.83397685621931e+000dB,-9.00093349096939e+001°)
2.08929613085403e+003	(3.03406753105215e+000dB,-9.00095523501619e+001°)
2.13796208950222e+003	(3.23416248027288e+000dB,-9.00097748556470e+001°)
2.18776162394954e+003	(3.43426190542514e+000dB,-9.00100025441415e+001°)
2.23872113856832e+003	(3.63436601756041e+000dB,-9.00102355363867e+001°)
2.29086765276776e+003	(3.83447503768716e+000dB,-9.00104739559375e+001°)
2.34422881531991e+003	(4.03458919724098e+000dB,-9.00107179292279e+001°)
2.39883291901947e+003	(4.23470873857716e+000dB,-9.00109675856377e+001°)
2.45470891568501e+003	(4.43483391548653e+000dB,-9.00112230575619e+001°)
2.51188643150956e+003	(4.63496499373566e+000dB,-9.00114844804804e+001°)
2.57039578276885e+003	(4.83510225163275e+000dB,-9.00117519930305e+001°)
2.63026799189536e+003	(5.03524598062028e+000dB,-9.00120257370800e+001°)
2.69153480392690e+003	(5.23539648589576e+000dB,-9.00123058578030e+001°)
2.75422870333815e+003	(5.43555408706186e+000dB,-9.00125925037565e+001°)
2.81838293126443e+003	(5.63571911880742e+000dB,-9.00128858269602e+001°)
2.88403150312659e+003	(5.83589193162072e+000dB,-9.00131859829762e+001°)
2.95120922666636e+003	(6.03607289253663e+000dB,-9.00134931309927e+001°)
3.01995172040199e+003	(6.23626238591912e+000dB,-9.00138074339076e+001°)
3.09029543251357e+003	(6.43646081428107e+000dB,-9.00141290584161e+001°)
3.16227766016836e+003	(6.63666859914286e+000dB,-9.00144581750984e+001°)
3.23593656929626e+003	(6.83688618193177e+000dB,-9.00147949585109e+001°)
3.31131121482589e+003	(7.03711402492427e+000dB,-9.00151395872790e+001°)
3.38844156139200e+003	(7.23735261223288e+000dB,-9.00154922441920e+001°)
3.46736850452529e+003	(7.43760245084010e+000dB,-9.00158531163001e+001°)
3.54813389233573e+003	(7.63786407168152e+000dB,-9.00162223950144e+001°)
3.63078054770099e+003	(7.83813803078044e+000dB,-9.00166002762081e+001°)
3.71535229097170e+003	(8.03842491043659e+000dB,-9.00169869603214e+001°)
3.80189396320558e+003	(8.23872532047136e+000dB,-9.00173826524675e+001°)
3.89045144994278e+003	(8.43903989953258e+000dB,-9.00177875625425e+001°)
3.98107170553494e+003	(8.63936931646130e+000dB,-9.00182019053364e+001°)
4.07380277804110e+003	(8.83971427172400e+000dB,-9.00186259006480e+001°)
4.16869383470332e+003	(9.04007549891302e+000dB,-9.00190597734017e+001°)
4.26579518801589e+003	(9.24045376631883e+000dB,-9.00195037537676e+001°)
4.36515832240162e+003	(9.44084987857731e+000dB,-9.00199580772838e+001°)
4.46683592150960e+003	(9.64126467839592e+000dB,-9.00204229849821e+001°)
4.57088189614871e+003	(9.84169904836255e+000dB,-9.00208987235164e+001°)
4.67735141287194e+003	(1.00421539128409e+001dB,-9.00213855452945e+001°)
4.78630092322634e+003	(1.02426302399567e+001dB,-9.00218837086122e+001°)
4.89778819368442e+003	(1.04431290436797e+001dB,-9.00223934777918e+001°)
5.01187233627268e+003	(1.06436513860048e+001dB,-9.00229151233225e+001°)
5.12861383991361e+003	(1.08441983792386e+001dB,-9.00234489220051e+001°)
5.24807460249768e+003	(1.10447711883962e+001dB,-9.00239951570999e+001°)
5.37031796370248e+003	(1.12453710337126e+001dB,-9.00245541184778e+001°)
