Freq.	V(outder)/V(VIN)
1.00000000000000e+001	(-3.63242964441384e+001dB,-9.00000468049186e+001°)
1.02329299228075e+001	(-3.61242964392456e+001dB,-9.00000478951452e+001°)
1.04712854805090e+001	(-3.59242964341222e+001dB,-9.00000490107665e+001°)
1.07151930523761e+001	(-3.57242964287574e+001dB,-9.00000501523739e+001°)
1.09647819614319e+001	(-3.55242964231397e+001dB,-9.00000513205727e+001°)
1.12201845430196e+001	(-3.53242964172573e+001dB,-9.00000525159824e+001°)
1.14815362149688e+001	(-3.51242964110976e+001dB,-9.00000537392368e+001°)
1.17489755493953e+001	(-3.49242964046476e+001dB,-9.00000549909844e+001°)
1.20226443461741e+001	(-3.47242963978937e+001dB,-9.00000562718890e+001°)
1.23026877081238e+001	(-3.45242963908215e+001dB,-9.00000575826297e+001°)
1.25892541179417e+001	(-3.43242963834159e+001dB,-9.00000589239014e+001°)
1.28824955169313e+001	(-3.41242963756614e+001dB,-9.00000602964154e+001°)
1.31825673855641e+001	(-3.39242963675413e+001dB,-9.00000617008994e+001°)
1.34896288259165e+001	(-3.37242963590386e+001dB,-9.00000631380979e+001°)
1.38038426460288e+001	(-3.35242963501352e+001dB,-9.00000646087732e+001°)
1.41253754462275e+001	(-3.33242963408122e+001dB,-9.00000661137048e+001°)
1.44543977074593e+001	(-3.31242963310498e+001dB,-9.00000676536909e+001°)
1.47910838816821e+001	(-3.29242963208273e+001dB,-9.00000692295478e+001°)
1.51356124843621e+001	(-3.27242963101230e+001dB,-9.00000708421111e+001°)
1.54881661891248e+001	(-3.25242962989143e+001dB,-9.00000724922358e+001°)
1.58489319246111e+001	(-3.23242962871773e+001dB,-9.00000741807969e+001°)
1.62181009735893e+001	(-3.21242962748871e+001dB,-9.00000759086897e+001°)
1.65958690743756e+001	(-3.19242962620177e+001dB,-9.00000776768302e+001°)
1.69824365246174e+001	(-3.17242962485419e+001dB,-9.00000794861560e+001°)
1.73780082874937e+001	(-3.15242962344309e+001dB,-9.00000813376264e+001°)
1.77827941003892e+001	(-3.13242962196549e+001dB,-9.00000832322231e+001°)
1.81970085860998e+001	(-3.11242962041825e+001dB,-9.00000851709507e+001°)
1.86208713666287e+001	(-3.09242961879809e+001dB,-9.00000871548370e+001°)
1.90546071796325e+001	(-3.07242961710158e+001dB,-9.00000891849339e+001°)
1.94984459975804e+001	(-3.05242961532511e+001dB,-9.00000912623179e+001°)
1.99526231496888e+001	(-3.03242961346493e+001dB,-9.00000933880904e+001°)
2.04173794466953e+001	(-3.01242961151707e+001dB,-9.00000955633785e+001°)
2.08929613085404e+001	(-2.99242960947741e+001dB,-9.00000977893355e+001°)
2.13796208950223e+001	(-2.97242960734163e+001dB,-9.00001000671418e+001°)
2.18776162394955e+001	(-2.95242960510519e+001dB,-9.00001023980050e+001°)
2.23872113856834e+001	(-2.93242960276335e+001dB,-9.00001047831609e+001°)
2.29086765276777e+001	(-2.91242960031114e+001dB,-9.00001072238743e+001°)
2.34422881531992e+001	(-2.89242959774337e+001dB,-9.00001097214392e+001°)
2.39883291901949e+001	(-2.87242959505458e+001dB,-9.00001122771798e+001°)
2.45470891568503e+001	(-2.85242959223907e+001dB,-9.00001148924513e+001°)
2.51188643150958e+001	(-2.83242958929087e+001dB,-9.00001175686403e+001°)
2.57039578276886e+001	(-2.81242958620372e+001dB,-9.00001203071658e+001°)
2.63026799189538e+001	(-2.79242958297108e+001dB,-9.00001231094797e+001°)
2.69153480392691e+001	(-2.77242957958609e+001dB,-9.00001259770679e+001°)
2.75422870333816e+001	(-2.75242957604158e+001dB,-9.00001289114508e+001°)
2.81838293126445e+001	(-2.73242957233001e+001dB,-9.00001319141842e+001°)
2.88403150312660e+001	(-2.71242956844353e+001dB,-9.00001349868603e+001°)
2.95120922666638e+001	(-2.69242956437388e+001dB,-9.00001381311082e+001°)
3.01995172040201e+001	(-2.67242956011243e+001dB,-9.00001413485951e+001°)
3.09029543251359e+001	(-2.65242955565015e+001dB,-9.00001446410269e+001°)
3.16227766016838e+001	(-2.63242955097756e+001dB,-9.00001480101492e+001°)
3.23593656929628e+001	(-2.61242954608477e+001dB,-9.00001514577485e+001°)
3.31131121482591e+001	(-2.59242954096138e+001dB,-9.00001549856528e+001°)
3.38844156139202e+001	(-2.57242953559654e+001dB,-9.00001585957324e+001°)
3.46736850452531e+001	(-2.55242952997885e+001dB,-9.00001622899017e+001°)
3.54813389233575e+001	(-2.53242952409642e+001dB,-9.00001660701191e+001°)
3.63078054770101e+001	(-2.51242951793675e+001dB,-9.00001699383892e+001°)
3.71535229097172e+001	(-2.49242951148679e+001dB,-9.00001738967628e+001°)
3.80189396320561e+001	(-2.47242950473285e+001dB,-9.00001779473388e+001°)
3.89045144994280e+001	(-2.45242949766061e+001dB,-9.00001820922649e+001°)
3.98107170553497e+001	(-2.43242949025506e+001dB,-9.00001863337387e+001°)
4.07380277804112e+001	(-2.41242948250050e+001dB,-9.00001906740091e+001°)
4.16869383470335e+001	(-2.39242947438048e+001dB,-9.00001951153774e+001°)
4.26579518801592e+001	(-2.37242946587778e+001dB,-9.00001996601985e+001°)
4.36515832240165e+001	(-2.35242945697435e+001dB,-9.00002043108821e+001°)
4.46683592150962e+001	(-2.33242944765132e+001dB,-9.00002090698940e+001°)
4.57088189614874e+001	(-2.31242943788891e+001dB,-9.00002139397575e+001°)
4.67735141287197e+001	(-2.29242942766641e+001dB,-9.00002189230548e+001°)
4.78630092322638e+001	(-2.27242941696213e+001dB,-9.00002240224279e+001°)
4.89778819368445e+001	(-2.25242940575339e+001dB,-9.00002292405808e+001°)
5.01187233627271e+001	(-2.23242939401638e+001dB,-9.00002345802800e+001°)
5.12861383991364e+001	(-2.21242938172623e+001dB,-9.00002400443568e+001°)
5.24807460249772e+001	(-2.19242936885687e+001dB,-9.00002456357083e+001°)
5.37031796370252e+001	(-2.17242935538098e+001dB,-9.00002513572991e+001°)
5.49540873857624e+001	(-2.15242934127000e+001dB,-9.00002572121630e+001°)
5.62341325190348e+001	(-2.13242932649399e+001dB,-9.00002632034041e+001°)
5.75439937337156e+001	(-2.11242931102161e+001dB,-9.00002693341992e+001°)
5.88843655355588e+001	(-2.09242929482003e+001dB,-9.00002756077989e+001°)
6.02559586074357e+001	(-2.07242927785490e+001dB,-9.00002820275295e+001°)
6.16595001861481e+001	(-2.05242926009023e+001dB,-9.00002885967948e+001°)
6.30957344480192e+001	(-2.03242924148833e+001dB,-9.00002953190780e+001°)
6.45654229034654e+001	(-2.01242922200975e+001dB,-9.00003021979433e+001°)
6.60693448007595e+001	(-1.99242920161317e+001dB,-9.00003092370381e+001°)
6.76082975391980e+001	(-1.97242918025534e+001dB,-9.00003164400944e+001°)
6.91830970918935e+001	(-1.95242915789093e+001dB,-9.00003238109314e+001°)
7.07945784384136e+001	(-1.93242913447253e+001dB,-9.00003313534574e+001°)
7.24435960074988e+001	(-1.91242910995045e+001dB,-9.00003390716714e+001°)
7.41310241300916e+001	(-1.89242908427268e+001dB,-9.00003469696657e+001°)
7.58577575029182e+001	(-1.87242905738475e+001dB,-9.00003550516279e+001°)
7.76247116628690e+001	(-1.85242902922963e+001dB,-9.00003633218433e+001°)
7.94328234724279e+001	(-1.83242899974760e+001dB,-9.00003717846968e+001°)
8.12830516164097e+001	(-1.81242896887612e+001dB,-9.00003804446755e+001°)
8.31763771102669e+001	(-1.79242893654972e+001dB,-9.00003893063711e+001°)
8.51138038202374e+001	(-1.77242890269982e+001dB,-9.00003983744821e+001°)
8.70963589956078e+001	(-1.75242886725462e+001dB,-9.00004076538167e+001°)
8.91250938133743e+001	(-1.73242883013893e+001dB,-9.00004171492947e+001°)
9.12010839355907e+001	(-1.71242879127404e+001dB,-9.00004268659509e+001°)
9.33254300796988e+001	(-1.69242875057750e+001dB,-9.00004368089372e+001°)
9.54992586021433e+001	(-1.67242870796299e+001dB,-9.00004469835255e+001°)
9.77237220955808e+001	(-1.65242866334011e+001dB,-9.00004573951104e+001°)
9.99999999999997e+001	(-1.63242861661423e+001dB,-9.00004680492123e+001°)
1.02329299228075e+002	(-1.61242856768621e+001dB,-9.00004789514803e+001°)
1.04712854805090e+002	(-1.59242851645229e+001dB,-9.00004901076948e+001°)
1.07151930523760e+002	(-1.57242846280378e+001dB,-9.00005015237711e+001°)
1.09647819614318e+002	(-1.55242840662690e+001dB,-9.00005132057620e+001°)
1.12201845430196e+002	(-1.53242834780247e+001dB,-9.00005251598615e+001°)
1.14815362149688e+002	(-1.51242828620573e+001dB,-9.00005373924079e+001°)
1.17489755493953e+002	(-1.49242822170602e+001dB,-9.00005499098871e+001°)
1.20226443461741e+002	(-1.47242815416653e+001dB,-9.00005627189359e+001°)
1.23026877081238e+002	(-1.45242808344400e+001dB,-9.00005758263460e+001°)
1.25892541179416e+002	(-1.43242800938840e+001dB,-9.00005892390670e+001°)
1.28824955169313e+002	(-1.41242793184267e+001dB,-9.00006029642106e+001°)
1.31825673855640e+002	(-1.39242785064232e+001dB,-9.00006170090540e+001°)
1.34896288259165e+002	(-1.37242776561510e+001dB,-9.00006313810441e+001°)
1.38038426460288e+002	(-1.35242767658066e+001dB,-9.00006460878010e+001°)
1.41253754462275e+002	(-1.33242758335015e+001dB,-9.00006611371225e+001°)
1.44543977074592e+002	(-1.31242748572581e+001dB,-9.00006765369881e+001°)
1.47910838816820e+002	(-1.29242738350056e+001dB,-9.00006922955628e+001°)
1.51356124843620e+002	(-1.27242727645757e+001dB,-9.00007084212021e+001°)
1.54881661891248e+002	(-1.25242716436979e+001dB,-9.00007249224561e+001°)
1.58489319246111e+002	(-1.23242704699946e+001dB,-9.00007418080741e+001°)
1.62181009735892e+002	(-1.21242692409762e+001dB,-9.00007590870089e+001°)
1.65958690743755e+002	(-1.19242679540358e+001dB,-9.00007767684222e+001°)
1.69824365246174e+002	(-1.17242666064435e+001dB,-9.00007948616890e+001°)
1.73780082874937e+002	(-1.15242651953409e+001dB,-9.00008133764024e+001°)
1.77827941003892e+002	(-1.13242637177348e+001dB,-9.00008323223794e+001°)
1.81970085860998e+002	(-1.11242621704911e+001dB,-9.00008517096654e+001°)
1.86208713666286e+002	(-1.09242605503277e+001dB,-9.00008715485397e+001°)
1.90546071796324e+002	(-1.07242588538080e+001dB,-9.00008918495214e+001°)
1.94984459975804e+002	(-1.05242570773335e+001dB,-9.00009126233743e+001°)
1.99526231496887e+002	(-1.03242552171359e+001dB,-9.00009338811130e+001°)
2.04173794466952e+002	(-1.01242532692695e+001dB,-9.00009556340088e+001°)
2.08929613085403e+002	(-9.92425122960251e+000dB,-9.00009778935953e+001°)
2.13796208950222e+002	(-9.72424909380846e+000dB,-9.00010006716749e+001°)
2.18776162394954e+002	(-9.52424685735697e+000dB,-9.00010239803251e+001°)
2.23872113856833e+002	(-9.32424451550414e+000dB,-9.00010478319043e+001°)
2.29086765276776e+002	(-9.12424206328252e+000dB,-9.00010722390591e+001°)
2.34422881531991e+002	(-8.92423949549051e+000dB,-9.00010972147307e+001°)
2.39883291901948e+002	(-8.72423680668137e+000dB,-9.00011227721614e+001°)
2.45470891568502e+002	(-8.52423399115168e+000dB,-9.00011489249024e+001°)
2.51188643150957e+002	(-8.32423104292918e+000dB,-9.00011756868202e+001°)
2.57039578276885e+002	(-8.12422795576016e+000dB,-9.00012030721046e+001°)
2.63026799189537e+002	(-7.92422472309617e+000dB,-9.00012310952756e+001°)
2.69153480392690e+002	(-7.72422133808014e+000dB,-9.00012597711917e+001°)
2.75422870333816e+002	(-7.52421779353180e+000dB,-9.00012891150573e+001°)
2.81838293126444e+002	(-7.32421408193249e+000dB,-9.00013191424312e+001°)
2.88403150312659e+002	(-7.12421019540919e+000dB,-9.00013498692343e+001°)
2.95120922666637e+002	(-6.92420612571783e+000dB,-9.00013813117587e+001°)
3.01995172040200e+002	(-6.72420186422578e+000dB,-9.00014134866758e+001°)
3.09029543251358e+002	(-6.52419740189356e+000dB,-9.00014464110454e+001°)
3.16227766016837e+002	(-6.32419272925564e+000dB,-9.00014801023245e+001°)
3.23593656929627e+002	(-6.12418783640039e+000dB,-9.00015145783770e+001°)
3.31131121482590e+002	(-5.92418271294902e+000dB,-9.00015498574829e+001°)
3.38844156139201e+002	(-5.72417734803358e+000dB,-9.00015859583478e+001°)
3.46736850452530e+002	(-5.52417173027392e+000dB,-9.00016229001133e+001°)
3.54813389233574e+002	(-5.32416584775351e+000dB,-9.00016607023665e+001°)
3.63078054770100e+002	(-5.12415968799417e+000dB,-9.00016993851511e+001°)
3.71535229097171e+002	(-4.92415323792965e+000dB,-9.00017389689777e+001°)
3.80189396320559e+002	(-4.72414648387782e+000dB,-9.00017794748344e+001°)
3.89045144994279e+002	(-4.52413941151170e+000dB,-9.00018209241985e+001°)
3.98107170553495e+002	(-4.32413200582906e+000dB,-9.00018633390472e+001°)
4.07380277804111e+002	(-4.12412425112059e+000dB,-9.00019067418701e+001°)
4.16869383470333e+002	(-3.92411613093654e+000dB,-9.00019511556805e+001°)
4.26579518801591e+002	(-3.72410762805187e+000dB,-9.00019966040275e+001°)
4.36515832240164e+002	(-3.52409872442967e+000dB,-9.00020431110092e+001°)
4.46683592150961e+002	(-3.32408940118290e+000dB,-9.00020907012848e+001°)
4.57088189614873e+002	(-3.12407963853432e+000dB,-9.00021394000879e+001°)
4.67735141287196e+002	(-2.92406941577453e+000dB,-9.00021892332401e+001°)
4.78630092322636e+002	(-2.72405871121801e+000dB,-9.00022402271642e+001°)
4.89778819368444e+002	(-2.52404750215715e+000dB,-9.00022924088988e+001°)
5.01187233627270e+002	(-2.32403576481402e+000dB,-9.00023458061122e+001°)
5.12861383991362e+002	(-2.12402347428995e+000dB,-9.00024004471172e+001°)
5.24807460249770e+002	(-1.92401060451269e+000dB,-9.00024563608863e+001°)
5.37031796370250e+002	(-1.72399712818107e+000dB,-9.00025135770667e+001°)
5.49540873857622e+002	(-1.52398301670709e+000dB,-9.00025721259965e+001°)
5.62341325190346e+002	(-1.32396824015526e+000dB,-9.00026320387202e+001°)
5.75439937337154e+002	(-1.12395276717906e+000dB,-9.00026933470057e+001°)
5.88843655355586e+002	(-9.23936564954403e-001dB,-9.00027560833610e+001°)
6.02559586074355e+002	(-7.23919599110038e-001dB,-9.00028202810511e+001°)
6.16595001861479e+002	(-5.23901833654538e-001dB,-9.00028859741163e+001°)
6.30957344480190e+002	(-3.23883230899964e-001dB,-9.00029531973896e+001°)
6.45654229034652e+002	(-1.23863751381878e-001dB,-9.00030219865156e+001°)
6.60693448007592e+002	(7.61566462244394e-002dB,-9.00030923779692e+001°)
6.76082975391978e+002	(2.76178005191672e-001dB,-9.00031644090751e+001°)
6.91830970918933e+002	(4.76200370832320e-001dB,-9.00032381180273e+001°)
7.07945784384134e+002	(6.76223790594860e-001dB,-9.00033135439100e+001°)
7.24435960074986e+002	(8.76248314164482e-001dB,-9.00033907267176e+001°)
7.41310241300914e+002	(1.07627399356856e+000dB,-9.00034697073762e+001°)
7.58577575029180e+002	(1.27630088328703e+000dB,-9.00035505277655e+001°)
7.76247116628688e+002	(1.47632904036813e+000dB,-9.00036332307409e+001°)
7.94328234724277e+002	(1.67635852454941e+000dB,-9.00037178601561e+001°)
8.12830516164095e+002	(1.87638939838461e+000dB,-9.00038044608865e+001°)
8.31763771102666e+002	(2.07642172737648e+000dB,-9.00038930788530e+001°)
8.51138038202372e+002	(2.27645558011577e+000dB,-9.00039837610464e+001°)
8.70963589956076e+002	(2.47649102842692e+000dB,-9.00040765555521e+001°)
8.91250938133741e+002	(2.67652814752057e+000dB,-9.00041715115761e+001°)
9.12010839355905e+002	(2.87656701615325e+000dB,-9.00042686794706e+001°)
9.33254300796986e+002	(3.07660771679457e+000dB,-9.00043681107610e+001°)
9.54992586021431e+002	(3.27665033580246e+000dB,-9.00044698581733e+001°)
9.77237220955805e+002	(3.47669496360644e+000dB,-9.00045739756618e+001°)
9.99999999999994e+002	(3.67674169489981e+000dB,-9.00046805184381e+001°)
1.02329299228075e+003	(3.87679062884067e+000dB,-9.00047895429999e+001°)
1.04712854805089e+003	(4.07684186926260e+000dB,-9.00049011071618e+001°)
1.07151930523760e+003	(4.27689552489523e+000dB,-9.00050152700851e+001°)
1.09647819614318e+003	(4.47695170959519e+000dB,-9.00051320923098e+001°)
1.12201845430196e+003	(4.67701054258802e+000dB,-9.00052516357865e+001°)
1.14815362149688e+003	(4.87707214872153e+000dB,-9.00053739639093e+001°)
1.17489755493952e+003	(5.07713665873100e+000dB,-9.00054991415498e+001°)
1.20226443461741e+003	(5.27720420951711e+000dB,-9.00056272350909e+001°)
1.23026877081237e+003	(5.47727494443679e+000dB,-9.00057583124625e+001°)
1.25892541179416e+003	(5.67734901360797e+000dB,-9.00058924431778e+001°)
1.28824955169313e+003	(5.87742657422866e+000dB,-9.00060296983697e+001°)
1.31825673855640e+003	(6.07750779091114e+000dB,-9.00061701508286e+001°)
1.34896288259165e+003	(6.27759283603194e+000dB,-9.00063138750418e+001°)
1.38038426460288e+003	(6.47768189009832e+000dB,-9.00064609472320e+001°)
1.41253754462275e+003	(6.67777514213223e+000dB,-9.00066114453988e+001°)
1.44543977074592e+003	(6.87787279007220e+000dB,-9.00067654493596e+001°)
1.47910838816820e+003	(7.07797504119448e+000dB,-9.00069230407920e+001°)
1.51356124843620e+003	(7.27808211255390e+000dB,-9.00070843032775e+001°)
1.54881661891247e+003	(7.47819423144577e+000dB,-9.00072493223458e+001°)
1.58489319246110e+003	(7.67831163588948e+000dB,-9.00074181855201e+001°)
1.62181009735892e+003	(7.87843457513513e+000dB,-9.00075909823639e+001°)
1.65958690743755e+003	(8.07856331019407e+000dB,-9.00077678045285e+001°)
1.69824365246173e+003	(8.27869811439456e+000dB,-9.00079487458020e+001°)
1.73780082874936e+003	(8.47883927396380e+000dB,-9.00081339021586e+001°)
1.77827941003891e+003	(8.67898708863755e+000dB,-9.00083233718103e+001°)
1.81970085860997e+003	(8.87914187229853e+000dB,-9.00085172552589e+001°)
1.86208713666286e+003	(9.07930395364524e+000dB,-9.00087156553492e+001°)
1.90546071796323e+003	(9.27947367689237e+000dB,-9.00089186773245e+001°)
1.94984459975803e+003	(9.47965140250450e+000dB,-9.00091264288818e+001°)
1.99526231496887e+003	(9.67983750796458e+000dB,-9.00093390202297e+001°)
2.04173794466952e+003	(9.88003238857894e+000dB,-9.00095565641468e+001°)
2.08929613085403e+003	(1.00802364583204e+001dB,-9.00097791760420e+001°)
2.13796208950222e+003	(1.02804501507117e+001dB,-9.00100069740160e+001°)
2.18776162394954e+003	(1.04806739197503e+001dB,-9.00102400789239e+001°)
2.23872113856832e+003	(1.06809082408780e+001dB,-9.00104786144402e+001°)
2.29086765276776e+003	(1.08811536119960e+001dB,-9.00107227071243e+001°)
2.34422881531991e+003	(1.10814105545284e+001dB,-9.00109724864880e+001°)
2.39883291901947e+003	(1.12816796145366e+001dB,-9.00112280850650e+001°)
2.45470891568501e+003	(1.14819613638859e+001dB,-9.00114896384814e+001°)
2.51188643150956e+003	(1.16822564014694e+001dB,-9.00117572855278e+001°)
2.57039578276885e+003	(1.18825653544880e+001dB,-9.00120311682341e+001°)
2.63026799189536e+003	(1.20828888797932e+001dB,-9.00123114319449e+001°)
2.69153480392690e+003	(1.22832276652931e+001dB,-9.00125982253971e+001°)
2.75422870333815e+003	(1.24835824314258e+001dB,-9.00128917007999e+001°)
2.81838293126443e+003	(1.26839539327032e+001dB,-9.00131920139158e+001°)
2.88403150312659e+003	(1.28843429593282e+001dB,-9.00134993241441e+001°)
2.95120922666636e+003	(1.30847503388901e+001dB,-9.00138137946062e+001°)
3.01995172040199e+003	(1.32851769381397e+001dB,-9.00141355922329e+001°)
3.09029543251357e+003	(1.34856236648513e+001dB,-9.00144648878540e+001°)
3.16227766016836e+003	(1.36860914697722e+001dB,-9.00148018562899e+001°)
3.23593656929626e+003	(1.38865813486668e+001dB,-9.00151466764451e+001°)
3.31131121482589e+003	(1.40870943444584e+001dB,-9.00154995314044e+001°)
3.38844156139200e+003	(1.42876315494738e+001dB,-9.00158606085313e+001°)
3.46736850452529e+003	(1.44881941077965e+001dB,-9.00162300995685e+001°)
3.54813389233573e+003	(1.46887832177319e+001dB,-9.00166082007409e+001°)
3.63078054770099e+003	(1.48894001343931e+001dB,-9.00169951128617e+001°)
3.71535229097170e+003	(1.50900461724093e+001dB,-9.00173910414397e+001°)
3.80189396320558e+003	(1.52907227087670e+001dB,-9.00177961967908e+001°)
3.89045144994278e+003	(1.54914311857867e+001dB,-9.00182107941508e+001°)
3.98107170553494e+003	(1.56921731142454e+001dB,-9.00186350537919e+001°)
4.07380277804110e+003	(1.58929500766487e+001dB,-9.00190692011416e+001°)
4.16869383470332e+003	(1.60937637306631e+001dB,-9.00195134669045e+001°)
4.26579518801589e+003	(1.62946158127140e+001dB,-9.00199680871870e+001°)
4.36515832240162e+003	(1.64955081417592e+001dB,-9.00204333036254e+001°)
4.46683592150960e+003	(1.66964426232462e+001dB,-9.00209093635166e+001°)
4.57088189614871e+003	(1.68974212532624e+001dB,-9.00213965199528e+001°)
4.67735141287194e+003	(1.70984461228884e+001dB,-9.00218950319585e+001°)
4.78630092322634e+003	(1.72995194227639e+001dB,-9.00224051646314e+001°)
4.89778819368442e+003	(1.75006434478782e+001dB,-9.00229271892872e+001°)
5.01187233627268e+003	(1.77018206025952e+001dB,-9.00234613836072e+001°)
5.12861383991361e+003	(1.79030534059263e+001dB,-9.00240080317899e+001°)
5.24807460249768e+003	(1.81043444970628e+001dB,-9.00245674247066e+001°)
5.37031796370248e+003	(1.83056966411827e+001dB,-9.00251398600607e+001°)
