Freq.	V(out)
1.00000000000000e+000	(-1.52268156965973e-006dB,-3.38399992371329e-002°)
1.00230523807790e+000	(-1.52970995012939e-006dB,-3.39180084884011e-002°)
1.00461579027840e+000	(-1.53677077058646e-006dB,-3.39961975695413e-002°)
1.00693166885180e+000	(-1.54386418243045e-006dB,-3.40745668951039e-002°)
1.00925288607668e+000	(-1.55099033513223e-006dB,-3.41531168805952e-002°)
1.01157945425990e+000	(-1.55814938105563e-006dB,-3.42318479424791e-002°)
1.01391138573668e+000	(-1.56534147256451e-006dB,-3.43107604981796e-002°)
1.01624869287070e+000	(-1.57256676202273e-006dB,-3.43898549660830e-002°)
1.01859138805412e+000	(-1.57982539986546e-006dB,-3.44691317655400e-002°)
1.02093948370768e+000	(-1.58711754231389e-006dB,-3.45485913168682e-002°)
1.02329299228075e+000	(-1.59444334366050e-006dB,-3.46282340413539e-002°)
1.02565192625141e+000	(-1.60180295916215e-006dB,-3.47080603612547e-002°)
1.02801629812647e+000	(-1.60919654793297e-006dB,-3.47880706998015e-002°)
1.03038612044162e+000	(-1.61662426040817e-006dB,-3.48682654812010e-002°)
1.03276140576140e+000	(-1.62408625859487e-006dB,-3.49486451306376e-002°)
1.03514216667934e+000	(-1.63158269967858e-006dB,-3.50292100742760e-002°)
1.03752841581801e+000	(-1.63911374470210e-006dB,-3.51099607392633e-002°)
1.03992016582906e+000	(-1.64667955085093e-006dB,-3.51908975537312e-002°)
1.04231742939330e+000	(-1.65428027820354e-006dB,-3.52720209467984e-002°)
1.04472021922080e+000	(-1.66191608876708e-006dB,-3.53533313485728e-002°)
1.04712854805090e+000	(-1.66958714647733e-006dB,-3.54348291901538e-002°)
1.04954242865232e+000	(-1.67729360851981e-006dB,-3.55165149036346e-002°)
1.05196187382322e+000	(-1.68503564461626e-006dB,-3.55983889221044e-002°)
1.05438689639126e+000	(-1.69281341580951e-006dB,-3.56804516796509e-002°)
1.05681750921366e+000	(-1.70062708699967e-006dB,-3.57627036113624e-002°)
1.05925372517729e+000	(-1.70847682597986e-006dB,-3.58451451533302e-002°)
1.06169555719872e+000	(-1.71636279572155e-006dB,-3.59277767426509e-002°)
1.06414301822431e+000	(-1.72428516691084e-006dB,-3.60105988174286e-002°)
1.06659612123026e+000	(-1.73224410637650e-006dB,-3.60936118167775e-002°)
1.06905487922266e+000	(-1.74023978287598e-006dB,-3.61768161808240e-002°)
1.07151930523761e+000	(-1.74827236516673e-006dB,-3.62602123507090e-002°)
1.07398941234124e+000	(-1.75634202393483e-006dB,-3.63438007685906e-002°)
1.07646521362983e+000	(-1.76444892890206e-006dB,-3.64275818776458e-002°)
1.07894672222983e+000	(-1.77259325557617e-006dB,-3.65115561220735e-002°)
1.08143395129794e+000	(-1.78077517560757e-006dB,-3.65957239470965e-002°)
1.08392691402120e+000	(-1.78899485775372e-006dB,-3.66800857989639e-002°)
1.08642562361706e+000	(-1.79725248427266e-006dB,-3.67646421249537e-002°)
1.08893009333343e+000	(-1.80554822681481e-006dB,-3.68493933733747e-002°)
1.09144033644876e+000	(-1.81388225799494e-006dB,-3.69343399935693e-002°)
1.09395636627209e+000	(-1.82225475814243e-006dB,-3.70194824359158e-002°)
1.09647819614318e+000	(-1.83066590469369e-006dB,-3.71048211518307e-002°)
1.09900583943252e+000	(-1.83911587315646e-006dB,-3.71903565937709e-002°)
1.10153930954141e+000	(-1.84760484868177e-006dB,-3.72760892152367e-002°)
1.10407861990207e+000	(-1.85613300484872e-006dB,-3.73620194707736e-002°)
1.10662378397766e+000	(-1.86470052584400e-006dB,-3.74481478159748e-002°)
1.10917481526240e+000	(-1.87330759103268e-006dB,-3.75344747074841e-002°)
1.11173172728159e+000	(-1.88195438653013e-006dB,-3.76210006029976e-002°)
1.11429453359173e+000	(-1.89064109363005e-006dB,-3.77077259612669e-002°)
1.11686324778056e+000	(-1.89936789651916e-006dB,-3.77946512421007e-002°)
1.11943788346715e+000	(-1.90813498034849e-006dB,-3.78817769063680e-002°)
1.12201845430196e+000	(-1.91694253219774e-006dB,-3.79691034160000e-002°)
1.12460497396692e+000	(-1.92579073625361e-006dB,-3.80566312339929e-002°)
1.12719745617551e+000	(-1.93467978345311e-006dB,-3.81443608244102e-002°)
1.12979591467280e+000	(-1.94360985894728e-006dB,-3.82322926523851e-002°)
1.13240036323556e+000	(-1.95258115656611e-006dB,-3.83204271841231e-002°)
1.13501081567231e+000	(-1.96159386049631e-006dB,-3.84087648869043e-002°)
1.13762728582343e+000	(-1.97064816649654e-006dB,-3.84973062290861e-002°)
1.14024978756117e+000	(-1.97974426453948e-006dB,-3.85860516801057e-002°)
1.14287833478977e+000	(-1.98888234941946e-006dB,-3.86750017104821e-002°)
1.14551294144553e+000	(-1.99806261303781e-006dB,-3.87641567918193e-002°)
1.14815362149688e+000	(-2.00728525211751e-006dB,-3.88535173968084e-002°)
1.15080038894443e+000	(-2.01655045855992e-006dB,-3.89430839992300e-002°)
1.15345325782109e+000	(-2.02585843487399e-006dB,-3.90328570739569e-002°)
1.15611224219210e+000	(-2.03520937199673e-006dB,-3.91228370969568e-002°)
1.15877735615512e+000	(-2.04460347147278e-006dB,-3.92130245452945e-002°)
1.16144861384034e+000	(-2.05404093195377e-006dB,-3.93034198971343e-002°)
1.16412602941049e+000	(-2.06352195594866e-006dB,-3.93940236317433e-002°)
1.16680961706096e+000	(-2.07304674018046e-006dB,-3.94848362294929e-002°)
1.16949939101987e+000	(-2.08261548908677e-006dB,-3.95758581718622e-002°)
1.17219536554813e+000	(-2.09222840710521e-006dB,-3.96670899414401e-002°)
1.17489755493953e+000	(-2.10188569288743e-006dB,-3.97585320219281e-002°)
1.17760597352080e+000	(-2.11158755665702e-006dB,-3.98501848981425e-002°)
1.18032063565173e+000	(-2.12133420285161e-006dB,-3.99420490560174e-002°)
1.18304155572516e+000	(-2.13112583783747e-006dB,-4.00341249826071e-002°)
1.18576874816716e+000	(-2.14096266701655e-006dB,-4.01264131660886e-002°)
1.18850222743702e+000	(-2.15084490061245e-006dB,-4.02189140957643e-002°)
1.19124200802737e+000	(-2.16077275174175e-006dB,-4.03116282620646e-002°)
1.19398810446427e+000	(-2.17074642387775e-006dB,-4.04045561565502e-002°)
1.19674053130724e+000	(-2.18076613495867e-006dB,-4.04976982719154e-002°)
1.19949930314938e+000	(-2.19083209424378e-006dB,-4.05910551019900e-002°)
1.20226443461741e+000	(-2.20094451677832e-006dB,-4.06846271417421e-002°)
1.20503594037179e+000	(-2.21110361567888e-006dB,-4.07784148872811e-002°)
1.20781383510678e+000	(-2.22130960502638e-006dB,-4.08724188358598e-002°)
1.21059813355048e+000	(-2.23156270565202e-006dB,-4.09666394858775e-002°)
1.21338885046497e+000	(-2.24186313067240e-006dB,-4.10610773368822e-002°)
1.21618600064636e+000	(-2.25221109995441e-006dB,-4.11557328895736e-002°)
1.21898959892486e+000	(-2.26260683625792e-006dB,-4.12506066458057e-002°)
1.22179966016487e+000	(-2.27305055366385e-006dB,-4.13456991085892e-002°)
1.22461619926504e+000	(-2.28354247878939e-006dB,-4.14410107820945e-002°)
1.22743923115840e+000	(-2.29408283343010e-006dB,-4.15365421716543e-002°)
1.23026877081238e+000	(-2.30467183938152e-006dB,-4.16322937837659e-002°)
1.23310483322890e+000	(-2.31530971940353e-006dB,-4.17282661260946e-002°)
1.23594743344451e+000	(-2.32599670589931e-006dB,-4.18244597074757e-002°)
1.23879658653036e+000	(-2.33673301873574e-006dB,-4.19208750379175e-002°)
1.24165230759241e+000	(-2.34751888742302e-006dB,-4.20175126286043e-002°)
1.24451461177138e+000	(-2.35835454243565e-006dB,-4.21143729918983e-002°)
1.24738351424294e+000	(-2.36924021424815e-006dB,-4.22114566413431e-002°)
1.25025903021771e+000	(-2.38017612947772e-006dB,-4.23087640916663e-002°)
1.25314117494141e+000	(-2.39116252245620e-006dB,-4.24062958587817e-002°)
1.25602996369487e+000	(-2.40219962751540e-006dB,-4.25040524597927e-002°)
1.25892541179416e+000	(-2.41328767898717e-006dB,-4.26020344129946e-002°)
1.26182753459066e+000	(-2.42442690831036e-006dB,-4.27002422378774e-002°)
1.26473634747115e+000	(-2.43561755560277e-006dB,-4.27986764551289e-002°)
1.26765186585784e+000	(-2.44685985519624e-006dB,-4.28973375866370e-002°)
1.27057410520854e+000	(-2.45815404720857e-006dB,-4.29962261554928e-002°)
1.27350308101666e+000	(-2.46950037175758e-006dB,-4.30953426859932e-002°)
1.27643880881134e+000	(-2.48089906703243e-006dB,-4.31946877036436e-002°)
1.27938130415752e+000	(-2.49235037797256e-006dB,-4.32942617351610e-002°)
1.28233058265602e+000	(-2.50385454469579e-006dB,-4.33940653084766e-002°)
1.28528665994361e+000	(-2.51541181214159e-006dB,-4.34940989527385e-002°)
1.28824955169313e+000	(-2.52702242621373e-006dB,-4.35943631983146e-002°)
1.29121927361353e+000	(-2.53868663185168e-006dB,-4.36948585767956e-002°)
1.29419584144998e+000	(-2.55040467592356e-006dB,-4.37955856209973e-002°)
1.29717927098395e+000	(-2.56217681011914e-006dB,-4.38965448649641e-002°)
1.30016957803328e+000	(-2.57400328130652e-006dB,-4.39977368439715e-002°)
1.30316677845229e+000	(-2.58588434213982e-006dB,-4.40991620945286e-002°)
1.30617088813183e+000	(-2.59782024141581e-006dB,-4.42008211543816e-002°)
1.30918192299940e+000	(-2.60981123564590e-006dB,-4.43027145625161e-002°)
1.31219989901920e+000	(-2.62185757651987e-006dB,-4.44048428591605e-002°)
1.31522483219223e+000	(-2.63395952151345e-006dB,-4.45072065857883e-002°)
1.31825673855640e+000	(-2.64611732617374e-006dB,-4.46098062851211e-002°)
1.32129563418657e+000	(-2.65833124894081e-006dB,-4.47126425011320e-002°)
1.32434153519466e+000	(-2.67060154921907e-006dB,-4.48157157790479e-002°)
1.32739445772973e+000	(-2.68292848641292e-006dB,-4.49190266653523e-002°)
1.33045441797808e+000	(-2.69531232089110e-006dB,-4.50225757077889e-002°)
1.33352143216332e+000	(-2.70775331880832e-006dB,-4.51263634553638e-002°)
1.33659551654643e+000	(-2.72025174149765e-006dB,-4.52303904583488e-002°)
1.33967668742593e+000	(-2.73280785318515e-006dB,-4.53346572682842e-002°)
1.34276496113786e+000	(-2.74542192098986e-006dB,-4.54391644379818e-002°)
1.34586035405594e+000	(-2.75809421395947e-006dB,-4.55439125215275e-002°)
1.34896288259164e+000	(-2.77082499824872e-006dB,-4.56489020742848e-002°)
1.35207256319427e+000	(-2.78361454579829e-006dB,-4.57541336528972e-002°)
1.35518941235103e+000	(-2.79646312758454e-006dB,-4.58596078152916e-002°)
1.35831344658715e+000	(-2.80937101458385e-006dB,-4.59653251206809e-002°)
1.36144468246594e+000	(-2.82233848162989e-006dB,-4.60712861295672e-002°)
1.36458313658892e+000	(-2.83536580548500e-006dB,-4.61774914037446e-002°)
1.36772882559584e+000	(-2.84845325905423e-006dB,-4.62839415063024e-002°)
1.37088176616484e+000	(-2.86160112295721e-006dB,-4.63906370016279e-002°)
1.37404197501251e+000	(-2.87480967395631e-006dB,-4.64975784554093e-002°)
1.37720946889394e+000	(-2.88807919170686e-006dB,-4.66047664346391e-002°)
1.38038426460288e+000	(-2.90140996068583e-006dB,-4.67122015076166e-002°)
1.38356637897177e+000	(-2.91480226151290e-006dB,-4.68198842439513e-002°)
1.38675582887188e+000	(-2.92825637770072e-006dB,-4.69278152145658e-002°)
1.38995263121334e+000	(-2.94177259469060e-006dB,-4.70359949916988e-002°)
1.39315680294529e+000	(-2.95535120178117e-006dB,-4.71444241489081e-002°)
1.39636836105593e+000	(-2.96899248248509e-006dB,-4.72531032610735e-002°)
1.39958732257261e+000	(-2.98269672899400e-006dB,-4.73620329044005e-002°)
1.40281370456195e+000	(-2.99646423253517e-006dB,-4.74712136564225e-002°)
1.40604752412990e+000	(-3.01029528240724e-006dB,-4.75806460960044e-002°)
1.40928879842186e+000	(-3.02419017562350e-006dB,-4.76903308033453e-002°)
1.41253754462274e+000	(-3.03814920244690e-006dB,-4.78002683599823e-002°)
1.41579377995707e+000	(-3.05217266374804e-006dB,-4.79104593487924e-002°)
1.41905752168908e+000	(-3.06626085268288e-006dB,-4.80209043539969e-002°)
1.42232878712281e+000	(-3.08041407012201e-006dB,-4.81316039611635e-002°)
1.42560759360218e+000	(-3.09463261790036e-006dB,-4.82425587572098e-002°)
1.42889395851109e+000	(-3.10891679206688e-006dB,-4.83537693304065e-002°)
1.43218789927353e+000	(-3.12326690024247e-006dB,-4.84652362703803e-002°)
1.43548943335364e+000	(-3.13768324522639e-006dB,-4.85769601681172e-002°)
1.43879857825583e+000	(-3.15216613367521e-006dB,-4.86889416159655e-002°)
1.44211535152486e+000	(-3.16671587224553e-006dB,-4.88011812076390e-002°)
1.44543977074592e+000	(-3.18133276855823e-006dB,-4.89136795382202e-002°)
1.44877185354475e+000	(-3.19601713505588e-006dB,-4.90264372041634e-002°)
1.45211161758773e+000	(-3.21076927935940e-006dB,-4.91394548032979e-002°)
1.45545908058195e+000	(-3.22558951680433e-006dB,-4.92527329348309e-002°)
1.45881426027534e+000	(-3.24047816369055e-006dB,-4.93662721993513e-002°)
1.46217717445671e+000	(-3.25543553053196e-006dB,-4.94800731988321e-002°)
1.46554784095590e+000	(-3.27046193941443e-006dB,-4.95941365366343e-002°)
1.46892627764385e+000	(-3.28555770567350e-006dB,-4.97084628175096e-002°)
1.47231250243271e+000	(-3.30072315332369e-006dB,-4.98230526476038e-002°)
1.47570653327588e+000	(-3.31595859866489e-006dB,-4.99379066344602e-002°)
1.47910838816819e+000	(-3.33126436764029e-006dB,-5.00530253870224e-002°)
1.48251808514594e+000	(-3.34664078619306e-006dB,-5.01684095156379e-002°)
1.48593564228699e+000	(-3.36208817833774e-006dB,-5.02840596320611e-002°)
1.48936107771090e+000	(-3.37760687483915e-006dB,-5.03999763494567e-002°)
1.49279440957898e+000	(-3.39319719874749e-006dB,-5.05161602824028e-002°)
1.49623565609442e+000	(-3.40885948661359e-006dB,-5.06326120468943e-002°)
1.49968483550236e+000	(-3.42459406920227e-006dB,-5.07493322603462e-002°)
1.50314196609001e+000	(-3.44040127534972e-006dB,-5.08663215415967e-002°)
1.50660706618673e+000	(-3.45628144642840e-006dB,-5.09835805109106e-002°)
1.51008015416413e+000	(-3.47223491706048e-006dB,-5.11011097899823e-002°)
1.51356124843619e+000	(-3.48826202668976e-006dB,-5.12189100019398e-002°)
1.51705036745932e+000	(-3.50436311476006e-006dB,-5.13369817713472e-002°)
1.52054752973248e+000	(-3.52053851975086e-006dB,-5.14553257242086e-002°)
1.52405275379728e+000	(-3.53678858689196e-006dB,-5.15739424879709e-002°)
1.52756605823806e+000	(-3.55311366237748e-006dB,-5.16928326915278e-002°)
1.53108746168202e+000	(-3.56951409143720e-006dB,-5.18119969652224e-002°)
1.53461698279928e+000	(-3.58599021930095e-006dB,-5.19314359408511e-002°)
1.53815464030302e+000	(-3.60254239891314e-006dB,-5.20511502516665e-002°)
1.54170045294954e+000	(-3.61917097839657e-006dB,-5.21711405323812e-002°)
1.54525443953840e+000	(-3.63587631358866e-006dB,-5.22914074191711e-002°)
1.54881661891247e+000	(-3.65265875550521e-006dB,-5.24119515496782e-002°)
1.55238700995807e+000	(-3.66951866480528e-006dB,-5.25327735630148e-002°)
1.55596563160506e+000	(-3.68645639443332e-006dB,-5.26538740997662e-002°)
1.55955250282694e+000	(-3.70347230311978e-006dB,-5.27752538019947e-002°)
1.56314764264094e+000	(-3.72056675538103e-006dB,-5.28969133132426e-002°)
1.56675107010813e+000	(-3.73774011380483e-006dB,-5.30188532785355e-002°)
1.57036280433354e+000	(-3.75499273808595e-006dB,-5.31410743443861e-002°)
1.57398286446620e+000	(-3.77232499659811e-006dB,-5.32635771587976e-002°)
1.57761126969933e+000	(-3.78973725964369e-006dB,-5.33863623712668e-002°)
1.58124803927037e+000	(-3.80722989173913e-006dB,-5.35094306327878e-002°)
1.58489319246110e+000	(-3.82480326800846e-006dB,-5.36327825958553e-002°)
1.58854674859776e+000	(-3.84245775682541e-006dB,-5.37564189144684e-002°)
1.59220872705115e+000	(-3.86019373910001e-006dB,-5.38803402441336e-002°)
1.59587914723672e+000	(-3.87801158417033e-006dB,-5.40045472418685e-002°)
1.59955802861465e+000	(-3.89591167198208e-006dB,-5.41290405662054e-002°)
1.60324539069002e+000	(-3.91389438440962e-006dB,-5.42538208771945e-002°)
1.60694125301286e+000	(-3.93196009946998e-006dB,-5.43788888364078e-002°)
1.61064563517825e+000	(-3.95010920482351e-006dB,-5.45042451069422e-002°)
1.61435855682647e+000	(-3.96834208138026e-006dB,-5.46298903534232e-002°)
1.61808003764305e+000	(-3.98665911583624e-006dB,-5.47558252420084e-002°)
1.62181009735891e+000	(-4.00506069970911e-006dB,-5.48820504403913e-002°)
1.62554875575047e+000	(-4.02354722065925e-006dB,-5.50085666178042e-002°)
1.62929603263970e+000	(-4.04211907116864e-006dB,-5.51353744450224e-002°)
1.63305194789432e+000	(-4.06077664564796e-006dB,-5.52624745943674e-002°)
1.63681652142779e+000	(-4.07952034043653e-006dB,-5.53898677397105e-002°)
1.64058977319952e+000	(-4.09835055090936e-006dB,-5.55175545564767e-002°)
1.64437172321491e+000	(-4.11726767919176e-006dB,-5.56455357216476e-002°)
1.64816239152549e+000	(-4.13627212355172e-006dB,-5.57738119137656e-002°)
1.65196179822900e+000	(-4.15536428900755e-006dB,-5.59023838129375e-002°)
1.65576996346951e+000	(-4.17454457961323e-006dB,-5.60312521008375e-002°)
1.65958690743754e+000	(-4.19381340328006e-006dB,-5.61604174607116e-002°)
1.66341265037015e+000	(-4.21317116791935e-006dB,-5.62898805773805e-002°)
1.66724721255104e+000	(-4.23261828144240e-006dB,-5.64196421372438e-002°)
1.67109061431069e+000	(-4.25215516140382e-006dB,-5.65497028282834e-002°)
1.67494287602642e+000	(-4.27178222053656e-006dB,-5.66800633400671e-002°)
1.67880401812254e+000	(-4.29149987157361e-006dB,-5.68107243637521e-002°)
1.68267406107045e+000	(-4.31130853592688e-006dB,-5.69416865920893e-002°)
1.68655302538872e+000	(-4.33120863211534e-006dB,-5.70729507194263e-002°)
1.69044093164324e+000	(-4.35120058444390e-006dB,-5.72045174417114e-002°)
1.69433780044731e+000	(-4.37128481336019e-006dB,-5.73363874564970e-002°)
1.69824365246172e+000	(-4.39146174991944e-006dB,-5.74685614629439e-002°)
1.70215850839493e+000	(-4.41173181553362e-006dB,-5.76010401618244e-002°)
1.70608238900310e+000	(-4.43209544511528e-006dB,-5.77338242555263e-002°)
1.71001531509027e+000	(-4.45255306875537e-006dB,-5.78669144480564e-002°)
1.71395730750840e+000	(-4.47310512136644e-006dB,-5.80003114450446e-002°)
1.71790838715757e+000	(-4.49375203786109e-006dB,-5.81340159537475e-002°)
1.72186857498599e+000	(-4.51449425411624e-006dB,-5.82680286830518e-002°)
1.72583789199018e+000	(-4.53533221468775e-006dB,-5.84023503434786e-002°)
1.72981635921508e+000	(-4.55626635738122e-006dB,-5.85369816471868e-002°)
1.73380399775412e+000	(-4.57729712964552e-006dB,-5.86719233079771e-002°)
1.73780082874935e+000	(-4.59842497314358e-006dB,-5.88071760412954e-002°)
1.74180687339159e+000	(-4.61965033918158e-006dB,-5.89427405642373e-002°)
1.74582215292048e+000	(-4.64097367810142e-006dB,-5.90786175955511e-002°)
1.74984668862464e+000	(-4.66239544120932e-006dB,-5.92148078556420e-002°)
1.75388050184174e+000	(-4.68391608077582e-006dB,-5.93513120665762e-002°)
1.75792361395867e+000	(-4.70553605775044e-006dB,-5.94881309520842e-002°)
1.76197604641161e+000	(-4.72725582536807e-006dB,-5.96252652375648e-002°)
1.76603782068614e+000	(-4.74907584747124e-006dB,-5.97627156500892e-002°)
1.77010895831740e+000	(-4.77099658693814e-006dB,-5.99004829184045e-002°)
1.77418948089014e+000	(-4.79301850857562e-006dB,-6.00385677729379e-002°)
1.77827941003890e+000	(-4.81514207719054e-006dB,-6.01769709458003e-002°)
1.78237876744807e+000	(-4.83736776434009e-006dB,-6.03156931707902e-002°)
1.78648757485203e+000	(-4.85969603965278e-006dB,-6.04547351833978e-002°)
1.79060585403527e+000	(-4.88212737950744e-006dB,-6.05940977208089e-002°)
1.79473362683250e+000	(-4.90466225642559e-006dB,-6.07337815219082e-002°)
1.79887091512876e+000	(-4.92730115064340e-006dB,-6.08737873272844e-002°)
1.80301774085955e+000	(-4.95004453950403e-006dB,-6.10141158792327e-002°)
1.80717412601090e+000	(-4.97289290710099e-006dB,-6.11547679217600e-002°)
1.81134009261958e+000	(-4.99584674042074e-006dB,-6.12957442005881e-002°)
1.81551566277311e+000	(-5.01890652259247e-006dB,-6.14370454631579e-002°)
1.81970085860996e+000	(-5.04207274349565e-006dB,-6.15786724586331e-002°)
1.82389570231961e+000	(-5.06534589493843e-006dB,-6.17206259379049e-002°)
1.82810021614272e+000	(-5.08872647065762e-006dB,-6.18629066535949e-002°)
1.83231442237119e+000	(-5.11221496631871e-006dB,-6.20055153600600e-002°)
1.83653834334832e+000	(-5.13581187855149e-006dB,-6.21484528133961e-002°)
1.84077200146893e+000	(-5.15951771073611e-006dB,-6.22917197714418e-002°)
1.84501541917945e+000	(-5.18333296335969e-006dB,-6.24353169937830e-002°)
1.84926861897805e+000	(-5.20725814269537e-006dB,-6.25792452417564e-002°)
1.85353162341479e+000	(-5.23129375598059e-006dB,-6.27235052784539e-002°)
1.85780445509167e+000	(-5.25544031141718e-006dB,-6.28680978687264e-002°)
1.86208713666284e+000	(-5.27969832395722e-006dB,-6.30130237791880e-002°)
1.86637969083464e+000	(-5.30406830662418e-006dB,-6.31582837782200e-002°)
1.87068214036577e+000	(-5.32855077340586e-006dB,-6.33038786359749e-002°)
