Freq.	V(vout)
1.00000000000000e+000	(4.28153112578967e+001dB,1.79998788272625e+002°)
1.00230523807790e+000	(4.28153112578883e+001dB,1.79998785479305e+002°)
1.00461579027840e+000	(4.28153112578800e+001dB,1.79998782679546e+002°)
1.00693166885180e+000	(4.28153112578716e+001dB,1.79998779873332e+002°)
1.00925288607668e+000	(4.28153112578631e+001dB,1.79998777060650e+002°)
1.01157945425990e+000	(4.28153112578546e+001dB,1.79998774241483e+002°)
1.01391138573668e+000	(4.28153112578460e+001dB,1.79998771415818e+002°)
1.01624869287070e+000	(4.28153112578374e+001dB,1.79998768583639e+002°)
1.01859138805412e+000	(4.28153112578288e+001dB,1.79998765744931e+002°)
1.02093948370768e+000	(4.28153112578202e+001dB,1.79998762899679e+002°)
1.02329299228075e+000	(4.28153112578115e+001dB,1.79998760047869e+002°)
1.02565192625141e+000	(4.28153112578027e+001dB,1.79998757189484e+002°)
1.02801629812647e+000	(4.28153112577940e+001dB,1.79998754324510e+002°)
1.03038612044162e+000	(4.28153112577851e+001dB,1.79998751452931e+002°)
1.03276140576140e+000	(4.28153112577762e+001dB,1.79998748574733e+002°)
1.03514216667934e+000	(4.28153112577674e+001dB,1.79998745689900e+002°)
1.03752841581801e+000	(4.28153112577584e+001dB,1.79998742798416e+002°)
1.03992016582906e+000	(4.28153112577495e+001dB,1.79998739900267e+002°)
1.04231742939330e+000	(4.28153112577404e+001dB,1.79998736995437e+002°)
1.04472021922080e+000	(4.28153112577313e+001dB,1.79998734083911e+002°)
1.04712854805090e+000	(4.28153112577222e+001dB,1.79998731165673e+002°)
1.04954242865232e+000	(4.28153112577131e+001dB,1.79998728240708e+002°)
1.05196187382322e+000	(4.28153112577038e+001dB,1.79998725309000e+002°)
1.05438689639126e+000	(4.28153112576947e+001dB,1.79998722370534e+002°)
1.05681750921366e+000	(4.28153112576854e+001dB,1.79998719425294e+002°)
1.05925372517729e+000	(4.28153112576761e+001dB,1.79998716473264e+002°)
1.06169555719872e+000	(4.28153112576667e+001dB,1.79998713514429e+002°)
1.06414301822431e+000	(4.28153112576573e+001dB,1.79998710548774e+002°)
1.06659612123026e+000	(4.28153112576478e+001dB,1.79998707576282e+002°)
1.06905487922266e+000	(4.28153112576383e+001dB,1.79998704596937e+002°)
1.07151930523761e+000	(4.28153112576287e+001dB,1.79998701610725e+002°)
1.07398941234124e+000	(4.28153112576192e+001dB,1.79998698617629e+002°)
1.07646521362983e+000	(4.28153112576095e+001dB,1.79998695617632e+002°)
1.07894672222983e+000	(4.28153112575999e+001dB,1.79998692610720e+002°)
1.08143395129794e+000	(4.28153112575902e+001dB,1.79998689596877e+002°)
1.08392691402120e+000	(4.28153112575804e+001dB,1.79998686576086e+002°)
1.08642562361706e+000	(4.28153112575706e+001dB,1.79998683548331e+002°)
1.08893009333343e+000	(4.28153112575608e+001dB,1.79998680513596e+002°)
1.09144033644876e+000	(4.28153112575509e+001dB,1.79998677471866e+002°)
1.09395636627209e+000	(4.28153112575409e+001dB,1.79998674423124e+002°)
1.09647819614318e+000	(4.28153112575310e+001dB,1.79998671367354e+002°)
1.09900583943252e+000	(4.28153112575209e+001dB,1.79998668304539e+002°)
1.10153930954141e+000	(4.28153112575108e+001dB,1.79998665234664e+002°)
1.10407861990207e+000	(4.28153112575007e+001dB,1.79998662157712e+002°)
1.10662378397766e+000	(4.28153112574905e+001dB,1.79998659073667e+002°)
1.10917481526240e+000	(4.28153112574803e+001dB,1.79998655982513e+002°)
1.11173172728159e+000	(4.28153112574701e+001dB,1.79998652884232e+002°)
1.11429453359173e+000	(4.28153112574596e+001dB,1.79998649778810e+002°)
1.11686324778056e+000	(4.28153112574493e+001dB,1.79998646666229e+002°)
1.11943788346715e+000	(4.28153112574389e+001dB,1.79998643546472e+002°)
1.12201845430196e+000	(4.28153112574284e+001dB,1.79998640419524e+002°)
1.12460497396692e+000	(4.28153112574179e+001dB,1.79998637285367e+002°)
1.12719745617551e+000	(4.28153112574074e+001dB,1.79998634143985e+002°)
1.12979591467280e+000	(4.28153112573968e+001dB,1.79998630995362e+002°)
1.13240036323556e+000	(4.28153112573861e+001dB,1.79998627839480e+002°)
1.13501081567231e+000	(4.28153112573754e+001dB,1.79998624676324e+002°)
1.13762728582343e+000	(4.28153112573647e+001dB,1.79998621505875e+002°)
1.14024978756117e+000	(4.28153112573538e+001dB,1.79998618328118e+002°)
1.14287833478977e+000	(4.28153112573430e+001dB,1.79998615143035e+002°)
1.14551294144553e+000	(4.28153112573321e+001dB,1.79998611950610e+002°)
1.14815362149688e+000	(4.28153112573211e+001dB,1.79998608750826e+002°)
1.15080038894443e+000	(4.28153112573101e+001dB,1.79998605543666e+002°)
1.15345325782109e+000	(4.28153112572991e+001dB,1.79998602329112e+002°)
1.15611224219210e+000	(4.28153112572880e+001dB,1.79998599107148e+002°)
1.15877735615512e+000	(4.28153112572768e+001dB,1.79998595877756e+002°)
1.16144861384034e+000	(4.28153112572656e+001dB,1.79998592640920e+002°)
1.16412602941049e+000	(4.28153112572544e+001dB,1.79998589396622e+002°)
1.16680961706096e+000	(4.28153112572431e+001dB,1.79998586144846e+002°)
1.16949939101987e+000	(4.28153112572316e+001dB,1.79998582885573e+002°)
1.17219536554813e+000	(4.28153112572203e+001dB,1.79998579618787e+002°)
1.17489755493953e+000	(4.28153112572088e+001dB,1.79998576344470e+002°)
1.17760597352080e+000	(4.28153112571973e+001dB,1.79998573062605e+002°)
1.18032063565173e+000	(4.28153112571857e+001dB,1.79998569773175e+002°)
1.18304155572516e+000	(4.28153112571740e+001dB,1.79998566476161e+002°)
1.18576874816716e+000	(4.28153112571624e+001dB,1.79998563171547e+002°)
1.18850222743702e+000	(4.28153112571507e+001dB,1.79998559859316e+002°)
1.19124200802737e+000	(4.28153112571389e+001dB,1.79998556539449e+002°)
1.19398810446427e+000	(4.28153112571270e+001dB,1.79998553211928e+002°)
1.19674053130724e+000	(4.28153112571152e+001dB,1.79998549876737e+002°)
1.19949930314938e+000	(4.28153112571032e+001dB,1.79998546533858e+002°)
1.20226443461741e+000	(4.28153112570912e+001dB,1.79998543183273e+002°)
1.20503594037179e+000	(4.28153112570791e+001dB,1.79998539824963e+002°)
1.20781383510678e+000	(4.28153112570670e+001dB,1.79998536458912e+002°)
1.21059813355048e+000	(4.28153112570548e+001dB,1.79998533085101e+002°)
1.21338885046497e+000	(4.28153112570425e+001dB,1.79998529703513e+002°)
1.21618600064636e+000	(4.28153112570302e+001dB,1.79998526314130e+002°)
1.21898959892486e+000	(4.28153112570179e+001dB,1.79998522916933e+002°)
1.22179966016487e+000	(4.28153112570056e+001dB,1.79998519511905e+002°)
1.22461619926504e+000	(4.28153112569931e+001dB,1.79998516099027e+002°)
1.22743923115840e+000	(4.28153112569805e+001dB,1.79998512678282e+002°)
1.23026877081238e+000	(4.28153112569680e+001dB,1.79998509249652e+002°)
1.23310483322890e+000	(4.28153112569553e+001dB,1.79998505813117e+002°)
1.23594743344451e+000	(4.28153112569426e+001dB,1.79998502368661e+002°)
1.23879658653036e+000	(4.28153112569298e+001dB,1.79998498916264e+002°)
1.24165230759241e+000	(4.28153112569170e+001dB,1.79998495455909e+002°)
1.24451461177138e+000	(4.28153112569042e+001dB,1.79998491987576e+002°)
1.24738351424294e+000	(4.28153112568912e+001dB,1.79998488511249e+002°)
1.25025903021771e+000	(4.28153112568782e+001dB,1.79998485026907e+002°)
1.25314117494141e+000	(4.28153112568652e+001dB,1.79998481534534e+002°)
1.25602996369487e+000	(4.28153112568521e+001dB,1.79998478034109e+002°)
1.25892541179416e+000	(4.28153112568389e+001dB,1.79998474525615e+002°)
1.26182753459066e+000	(4.28153112568257e+001dB,1.79998471009034e+002°)
1.26473634747115e+000	(4.28153112568124e+001dB,1.79998467484346e+002°)
1.26765186585784e+000	(4.28153112567991e+001dB,1.79998463951532e+002°)
1.27057410520854e+000	(4.28153112567856e+001dB,1.79998460410575e+002°)
1.27350308101666e+000	(4.28153112567722e+001dB,1.79998456861455e+002°)
1.27643880881134e+000	(4.28153112567587e+001dB,1.79998453304153e+002°)
1.27938130415752e+000	(4.28153112567450e+001dB,1.79998449738651e+002°)
1.28233058265602e+000	(4.28153112567314e+001dB,1.79998446164929e+002°)
1.28528665994361e+000	(4.28153112567176e+001dB,1.79998442582969e+002°)
1.28824955169313e+000	(4.28153112567039e+001dB,1.79998438992752e+002°)
1.29121927361353e+000	(4.28153112566900e+001dB,1.79998435394259e+002°)
1.29419584144998e+000	(4.28153112566761e+001dB,1.79998431787470e+002°)
1.29717927098395e+000	(4.28153112566621e+001dB,1.79998428172367e+002°)
1.30016957803328e+000	(4.28153112566480e+001dB,1.79998424548930e+002°)
1.30316677845229e+000	(4.28153112566339e+001dB,1.79998420917140e+002°)
1.30617088813183e+000	(4.28153112566198e+001dB,1.79998417276979e+002°)
1.30918192299940e+000	(4.28153112566055e+001dB,1.79998413628425e+002°)
1.31219989901920e+000	(4.28153112565913e+001dB,1.79998409971461e+002°)
1.31522483219223e+000	(4.28153112565768e+001dB,1.79998406306067e+002°)
1.31825673855640e+000	(4.28153112565624e+001dB,1.79998402632223e+002°)
1.32129563418657e+000	(4.28153112565480e+001dB,1.79998398949910e+002°)
1.32434153519466e+000	(4.28153112565333e+001dB,1.79998395259108e+002°)
1.32739445772973e+000	(4.28153112565187e+001dB,1.79998391559798e+002°)
1.33045441797808e+000	(4.28153112565040e+001dB,1.79998387851961e+002°)
1.33352143216332e+000	(4.28153112564892e+001dB,1.79998384135576e+002°)
1.33659551654643e+000	(4.28153112564743e+001dB,1.79998380410623e+002°)
1.33967668742593e+000	(4.28153112564594e+001dB,1.79998376677084e+002°)
1.34276496113786e+000	(4.28153112564445e+001dB,1.79998372934938e+002°)
1.34586035405594e+000	(4.28153112564295e+001dB,1.79998369184166e+002°)
1.34896288259164e+000	(4.28153112564143e+001dB,1.79998365424747e+002°)
1.35207256319427e+000	(4.28153112563991e+001dB,1.79998361656662e+002°)
1.35518941235103e+000	(4.28153112563839e+001dB,1.79998357879891e+002°)
1.35831344658715e+000	(4.28153112563685e+001dB,1.79998354094413e+002°)
1.36144468246594e+000	(4.28153112563531e+001dB,1.79998350300209e+002°)
1.36458313658892e+000	(4.28153112563376e+001dB,1.79998346497258e+002°)
1.36772882559584e+000	(4.28153112563221e+001dB,1.79998342685541e+002°)
1.37088176616484e+000	(4.28153112563065e+001dB,1.79998338865036e+002°)
1.37404197501251e+000	(4.28153112562908e+001dB,1.79998335035725e+002°)
1.37720946889394e+000	(4.28153112562750e+001dB,1.79998331197586e+002°)
1.38038426460288e+000	(4.28153112562592e+001dB,1.79998327350599e+002°)
1.38356637897177e+000	(4.28153112562433e+001dB,1.79998323494744e+002°)
1.38675582887188e+000	(4.28153112562273e+001dB,1.79998319630000e+002°)
1.38995263121334e+000	(4.28153112562113e+001dB,1.79998315756347e+002°)
1.39315680294529e+000	(4.28153112561951e+001dB,1.79998311873764e+002°)
1.39636836105593e+000	(4.28153112561790e+001dB,1.79998307982231e+002°)
1.39958732257261e+000	(4.28153112561626e+001dB,1.79998304081728e+002°)
1.40281370456195e+000	(4.28153112561462e+001dB,1.79998300172232e+002°)
1.40604752412990e+000	(4.28153112561299e+001dB,1.79998296253725e+002°)
1.40928879842186e+000	(4.28153112561134e+001dB,1.79998292326184e+002°)
1.41253754462274e+000	(4.28153112560968e+001dB,1.79998288389589e+002°)
1.41579377995707e+000	(4.28153112560801e+001dB,1.79998284443920e+002°)
1.41905752168908e+000	(4.28153112560634e+001dB,1.79998280489154e+002°)
1.42232878712281e+000	(4.28153112560466e+001dB,1.79998276525273e+002°)
1.42560759360218e+000	(4.28153112560297e+001dB,1.79998272552253e+002°)
1.42889395851109e+000	(4.28153112560127e+001dB,1.79998268570075e+002°)
1.43218789927353e+000	(4.28153112559957e+001dB,1.79998264578716e+002°)
1.43548943335364e+000	(4.28153112559786e+001dB,1.79998260578157e+002°)
1.43879857825583e+000	(4.28153112559614e+001dB,1.79998256568376e+002°)
1.44211535152486e+000	(4.28153112559441e+001dB,1.79998252549351e+002°)
1.44543977074592e+000	(4.28153112559268e+001dB,1.79998248521061e+002°)
1.44877185354475e+000	(4.28153112559094e+001dB,1.79998244483485e+002°)
1.45211161758773e+000	(4.28153112558918e+001dB,1.79998240436602e+002°)
1.45545908058195e+000	(4.28153112558742e+001dB,1.79998236380389e+002°)
1.45881426027534e+000	(4.28153112558564e+001dB,1.79998232314826e+002°)
1.46217717445671e+000	(4.28153112558387e+001dB,1.79998228239891e+002°)
1.46554784095590e+000	(4.28153112558209e+001dB,1.79998224155562e+002°)
1.46892627764385e+000	(4.28153112558030e+001dB,1.79998220061818e+002°)
1.47231250243271e+000	(4.28153112557849e+001dB,1.79998215958636e+002°)
1.47570653327588e+000	(4.28153112557669e+001dB,1.79998211845996e+002°)
1.47910838816819e+000	(4.28153112557487e+001dB,1.79998207723876e+002°)
1.48251808514594e+000	(4.28153112557304e+001dB,1.79998203592253e+002°)
1.48593564228699e+000	(4.28153112557121e+001dB,1.79998199451105e+002°)
1.48936107771090e+000	(4.28153112556936e+001dB,1.79998195300411e+002°)
1.49279440957898e+000	(4.28153112556752e+001dB,1.79998191140149e+002°)
1.49623565609442e+000	(4.28153112556565e+001dB,1.79998186970296e+002°)
1.49968483550236e+000	(4.28153112556378e+001dB,1.79998182790831e+002°)
1.50314196609001e+000	(4.28153112556191e+001dB,1.79998178601731e+002°)
1.50660706618673e+000	(4.28153112556002e+001dB,1.79998174402975e+002°)
1.51008015416413e+000	(4.28153112555813e+001dB,1.79998170194539e+002°)
1.51356124843619e+000	(4.28153112555622e+001dB,1.79998165976402e+002°)
1.51705036745932e+000	(4.28153112555431e+001dB,1.79998161748541e+002°)
1.52054752973248e+000	(4.28153112555238e+001dB,1.79998157510933e+002°)
1.52405275379728e+000	(4.28153112555045e+001dB,1.79998153263558e+002°)
1.52756605823806e+000	(4.28153112554851e+001dB,1.79998149006390e+002°)
1.53108746168202e+000	(4.28153112554657e+001dB,1.79998144739409e+002°)
1.53461698279928e+000	(4.28153112554462e+001dB,1.79998140462592e+002°)
1.53815464030302e+000	(4.28153112554265e+001dB,1.79998136175916e+002°)
1.54170045294954e+000	(4.28153112554067e+001dB,1.79998131879357e+002°)
1.54525443953840e+000	(4.28153112553869e+001dB,1.79998127572895e+002°)
1.54881661891247e+000	(4.28153112553669e+001dB,1.79998123256504e+002°)
1.55238700995807e+000	(4.28153112553470e+001dB,1.79998118930164e+002°)
1.55596563160506e+000	(4.28153112553268e+001dB,1.79998114593850e+002°)
1.55955250282694e+000	(4.28153112553067e+001dB,1.79998110247540e+002°)
1.56314764264094e+000	(4.28153112552863e+001dB,1.79998105891211e+002°)
1.56675107010813e+000	(4.28153112552660e+001dB,1.79998101524839e+002°)
1.57036280433354e+000	(4.28153112552455e+001dB,1.79998097148402e+002°)
1.57398286446620e+000	(4.28153112552248e+001dB,1.79998092761876e+002°)
1.57761126969933e+000	(4.28153112552041e+001dB,1.79998088365238e+002°)
1.58124803927037e+000	(4.28153112551834e+001dB,1.79998083958464e+002°)
1.58489319246110e+000	(4.28153112551625e+001dB,1.79998079541533e+002°)
1.58854674859776e+000	(4.28153112551415e+001dB,1.79998075114419e+002°)
1.59220872705115e+000	(4.28153112551205e+001dB,1.79998070677099e+002°)
1.59587914723672e+000	(4.28153112550993e+001dB,1.79998066229550e+002°)
1.59955802861465e+000	(4.28153112550780e+001dB,1.79998061771749e+002°)
1.60324539069002e+000	(4.28153112550568e+001dB,1.79998057303672e+002°)
1.60694125301286e+000	(4.28153112550352e+001dB,1.79998052825294e+002°)
1.61064563517825e+000	(4.28153112550136e+001dB,1.79998048336593e+002°)
1.61435855682647e+000	(4.28153112549921e+001dB,1.79998043837544e+002°)
1.61808003764305e+000	(4.28153112549703e+001dB,1.79998039328124e+002°)
1.62181009735891e+000	(4.28153112549485e+001dB,1.79998034808308e+002°)
1.62554875575047e+000	(4.28153112549264e+001dB,1.79998030278074e+002°)
1.62929603263970e+000	(4.28153112549044e+001dB,1.79998025737396e+002°)
1.63305194789432e+000	(4.28153112548823e+001dB,1.79998021186250e+002°)
1.63681652142779e+000	(4.28153112548600e+001dB,1.79998016624613e+002°)
1.64058977319952e+000	(4.28153112548376e+001dB,1.79998012052461e+002°)
1.64437172321491e+000	(4.28153112548152e+001dB,1.79998007469769e+002°)
1.64816239152549e+000	(4.28153112547926e+001dB,1.79998002876512e+002°)
1.65196179822900e+000	(4.28153112547699e+001dB,1.79997998272667e+002°)
1.65576996346951e+000	(4.28153112547471e+001dB,1.79997993658209e+002°)
1.65958690743754e+000	(4.28153112547242e+001dB,1.79997989033113e+002°)
1.66341265037015e+000	(4.28153112547012e+001dB,1.79997984397356e+002°)
1.66724721255104e+000	(4.28153112546781e+001dB,1.79997979750912e+002°)
1.67109061431069e+000	(4.28153112546550e+001dB,1.79997975093757e+002°)
1.67494287602642e+000	(4.28153112546316e+001dB,1.79997970425866e+002°)
1.67880401812254e+000	(4.28153112546083e+001dB,1.79997965747214e+002°)
1.68267406107045e+000	(4.28153112545846e+001dB,1.79997961057777e+002°)
1.68655302538872e+000	(4.28153112545610e+001dB,1.79997956357530e+002°)
1.69044093164324e+000	(4.28153112545373e+001dB,1.79997951646448e+002°)
1.69433780044731e+000	(4.28153112545134e+001dB,1.79997946924505e+002°)
1.69824365246172e+000	(4.28153112544895e+001dB,1.79997942191677e+002°)
1.70215850839493e+000	(4.28153112544655e+001dB,1.79997937447939e+002°)
1.70608238900310e+000	(4.28153112544413e+001dB,1.79997932693266e+002°)
1.71001531509027e+000	(4.28153112544169e+001dB,1.79997927927631e+002°)
1.71395730750840e+000	(4.28153112543925e+001dB,1.79997923151011e+002°)
1.71790838715757e+000	(4.28153112543680e+001dB,1.79997918363380e+002°)
1.72186857498599e+000	(4.28153112543434e+001dB,1.79997913564712e+002°)
1.72583789199018e+000	(4.28153112543185e+001dB,1.79997908754982e+002°)
1.72981635921508e+000	(4.28153112542937e+001dB,1.79997903934164e+002°)
1.73380399775412e+000	(4.28153112542687e+001dB,1.79997899102234e+002°)
1.73780082874935e+000	(4.28153112542436e+001dB,1.79997894259164e+002°)
1.74180687339159e+000	(4.28153112542184e+001dB,1.79997889404930e+002°)
1.74582215292048e+000	(4.28153112541932e+001dB,1.79997884539506e+002°)
1.74984668862464e+000	(4.28153112541678e+001dB,1.79997879662866e+002°)
1.75388050184174e+000	(4.28153112541421e+001dB,1.79997874774984e+002°)
1.75792361395867e+000	(4.28153112541165e+001dB,1.79997869875834e+002°)
1.76197604641161e+000	(4.28153112540907e+001dB,1.79997864965391e+002°)
1.76603782068614e+000	(4.28153112540648e+001dB,1.79997860043628e+002°)
1.77010895831740e+000	(4.28153112540387e+001dB,1.79997855110519e+002°)
1.77418948089014e+000	(4.28153112540126e+001dB,1.79997850166038e+002°)
1.77827941003890e+000	(4.28153112539863e+001dB,1.79997845210159e+002°)
1.78237876744807e+000	(4.28153112539599e+001dB,1.79997840242855e+002°)
1.78648757485203e+000	(4.28153112539334e+001dB,1.79997835264101e+002°)
1.79060585403527e+000	(4.28153112539068e+001dB,1.79997830273869e+002°)
1.79473362683250e+000	(4.28153112538800e+001dB,1.79997825272134e+002°)
1.79887091512876e+000	(4.28153112538531e+001dB,1.79997820258869e+002°)
1.80301774085955e+000	(4.28153112538261e+001dB,1.79997815234046e+002°)
1.80717412601090e+000	(4.28153112537989e+001dB,1.79997810197641e+002°)
1.81134009261958e+000	(4.28153112537716e+001dB,1.79997805149625e+002°)
1.81551566277311e+000	(4.28153112537442e+001dB,1.79997800089972e+002°)
1.81970085860996e+000	(4.28153112537168e+001dB,1.79997795018656e+002°)
1.82389570231961e+000	(4.28153112536890e+001dB,1.79997789935649e+002°)
1.82810021614272e+000	(4.28153112536614e+001dB,1.79997784840924e+002°)
1.83231442237119e+000	(4.28153112536335e+001dB,1.79997779734455e+002°)
1.83653834334832e+000	(4.28153112536055e+001dB,1.79997774616215e+002°)
1.84077200146893e+000	(4.28153112535773e+001dB,1.79997769486175e+002°)
1.84501541917945e+000	(4.28153112535490e+001dB,1.79997764344310e+002°)
1.84926861897805e+000	(4.28153112535206e+001dB,1.79997759190591e+002°)
1.85353162341479e+000	(4.28153112534920e+001dB,1.79997754024992e+002°)
1.85780445509167e+000	(4.28153112534634e+001dB,1.79997748847485e+002°)
1.86208713666284e+000	(4.28153112534345e+001dB,1.79997743658043e+002°)
1.86637969083464e+000	(4.28153112534056e+001dB,1.79997738456637e+002°)
1.87068214036577e+000	(4.28153112533765e+001dB,1.79997733243241e+002°)
1.87499450806739e+000	(4.28153112533473e+001dB,1.79997728017827e+002°)
1.87931681680324e+000	(4.28153112533179e+001dB,1.79997722780367e+002°)
1.88364908948977e+000	(4.28153112532885e+001dB,1.79997717530834e+002°)
1.88799134909627e+000	(4.28153112532589e+001dB,1.79997712269199e+002°)
1.89234361864495e+000	(4.28153112532291e+001dB,1.79997706995435e+002°)
1.89670592121112e+000	(4.28153112531992e+001dB,1.79997701709514e+002°)
1.90107827992327e+000	(4.28153112531691e+001dB,1.79997696411407e+002°)
1.90546071796322e+000	(4.28153112531390e+001dB,1.79997691101087e+002°)
